!Agilent Technologies,E5071C,MY46520923,B.12.03
!Date: Tue Feb 06 09:44:28 2024
!Data & Calibration Information:
!Freq	S11:SOLT2(ON)	S21:SOLT2(ON)	S12:SOLT2(ON)	S22:SOLT2(ON)
!PortZ  Port1:50+j0    Port2:50+j0
!Above PortZ is port z conversion or system Z0 setting when saving the data.
!When reading, reference impedance value at option line is always used.
# Hz S dB R 50
110000000	-1.012348e+000	-1.076435e+002	-8.189495e+001	-1.444935e+002	-7.884044e+001	-1.452634e+002	-1.097580e+000	-1.057568e+002
110002000	-1.011254e+000	-1.076424e+002	-8.298068e+001	-1.432616e+002	-7.753379e+001	1.763346e+002	-1.096302e+000	-1.057814e+002
110004000	-1.010082e+000	-1.076405e+002	-7.732302e+001	-1.556027e+002	-7.735545e+001	1.775167e+002	-1.096586e+000	-1.057796e+002
110006001	-1.009923e+000	-1.076593e+002	-7.848165e+001	-1.567537e+002	-7.927577e+001	-1.676995e+002	-1.099992e+000	-1.057918e+002
110008001	-1.012660e+000	-1.076494e+002	-7.481558e+001	-1.773264e+002	-7.954076e+001	-1.470830e+002	-1.099697e+000	-1.057724e+002
110010001	-1.010951e+000	-1.076493e+002	-7.770750e+001	-1.580938e+002	-7.844899e+001	-1.606740e+002	-1.096868e+000	-1.057729e+002
110012001	-1.011839e+000	-1.076514e+002	-7.713411e+001	-1.637184e+002	-7.904543e+001	-1.476296e+002	-1.097200e+000	-1.057891e+002
110014001	-1.010056e+000	-1.076610e+002	-7.877557e+001	-1.504662e+002	-7.881828e+001	1.719321e+002	-1.097308e+000	-1.057962e+002
110016002	-1.010916e+000	-1.076571e+002	-7.753449e+001	-1.612854e+002	-8.048693e+001	-1.544334e+002	-1.098166e+000	-1.057839e+002
110018002	-1.013396e+000	-1.076510e+002	-7.914820e+001	-1.782301e+002	-7.764880e+001	-1.652453e+002	-1.098693e+000	-1.057956e+002
110020002	-1.010021e+000	-1.076516e+002	-7.683865e+001	-1.769474e+002	-7.993437e+001	1.530353e+002	-1.098220e+000	-1.057858e+002
110022002	-1.014800e+000	-1.076709e+002	-7.671130e+001	-1.793017e+002	-8.024130e+001	-1.515402e+002	-1.097661e+000	-1.057785e+002
110024002	-1.012411e+000	-1.076790e+002	-7.942914e+001	-1.469689e+002	-7.806026e+001	1.659359e+002	-1.099126e+000	-1.057820e+002
110026003	-1.009723e+000	-1.076747e+002	-8.075234e+001	-1.764705e+002	-8.017980e+001	-1.479391e+002	-1.099051e+000	-1.057874e+002
110028003	-1.013070e+000	-1.076535e+002	-8.035000e+001	1.781202e+002	-7.739566e+001	-1.501097e+002	-1.098324e+000	-1.057990e+002
110030003	-1.010492e+000	-1.076702e+002	-7.995888e+001	1.622042e+002	-7.874392e+001	-1.627293e+002	-1.099089e+000	-1.057787e+002
110032003	-1.012135e+000	-1.076729e+002	-7.883020e+001	1.621847e+002	-7.611283e+001	-1.669751e+002	-1.098146e+000	-1.057955e+002
110034003	-1.011793e+000	-1.076847e+002	-7.653178e+001	-1.696591e+002	-7.762438e+001	-1.776160e+002	-1.101280e+000	-1.057945e+002
110036004	-1.013661e+000	-1.076670e+002	-7.937447e+001	-1.674096e+002	-7.477162e+001	-1.763554e+002	-1.098835e+000	-1.057869e+002
110038004	-1.011927e+000	-1.076866e+002	-8.165859e+001	1.675439e+002	-8.839985e+001	-1.464024e+002	-1.100023e+000	-1.058044e+002
110040004	-1.015139e+000	-1.076888e+002	-7.630926e+001	-1.774646e+002	-8.161325e+001	-1.347335e+002	-1.100050e+000	-1.057981e+002
110042004	-1.014190e+000	-1.076872e+002	-7.672306e+001	-1.669354e+002	-7.738043e+001	-1.553869e+002	-1.097904e+000	-1.057945e+002
110044004	-1.012144e+000	-1.076915e+002	-7.770234e+001	-1.782835e+002	-7.921995e+001	-1.780427e+002	-1.097065e+000	-1.058031e+002
110046005	-1.014066e+000	-1.076855e+002	-7.864948e+001	-1.772693e+002	-7.812979e+001	1.631925e+002	-1.098831e+000	-1.058141e+002
110048005	-1.011280e+000	-1.076826e+002	-8.249170e+001	-1.629914e+002	-7.910455e+001	1.673962e+002	-1.100806e+000	-1.058143e+002
110050005	-1.011741e+000	-1.076931e+002	-8.277887e+001	1.623789e+002	-9.151887e+001	-1.640063e+002	-1.098366e+000	-1.058105e+002
110052005	-1.014429e+000	-1.076856e+002	-8.222560e+001	-1.196366e+002	-7.593369e+001	1.755249e+002	-1.098924e+000	-1.058232e+002
110054005	-1.011960e+000	-1.076968e+002	-8.320189e+001	1.396129e+002	-7.910592e+001	-1.617211e+002	-1.098520e+000	-1.058180e+002
110056006	-1.011123e+000	-1.077080e+002	-8.036068e+001	1.716245e+002	-7.713385e+001	-1.422873e+002	-1.099911e+000	-1.058078e+002
110058006	-1.013068e+000	-1.076843e+002	-8.471223e+001	-1.417345e+002	-8.307607e+001	-1.589393e+002	-1.096786e+000	-1.058106e+002
110060006	-1.013079e+000	-1.077057e+002	-8.351706e+001	1.638095e+002	-8.041455e+001	1.759089e+002	-1.098251e+000	-1.058139e+002
110062006	-1.012413e+000	-1.076972e+002	-7.999889e+001	-1.772203e+002	-8.139392e+001	-1.651523e+002	-1.097799e+000	-1.058159e+002
110064006	-1.013150e+000	-1.077076e+002	-8.260420e+001	1.754179e+002	-7.877285e+001	-1.782339e+002	-1.097646e+000	-1.058244e+002
110066007	-1.013328e+000	-1.076945e+002	-7.615690e+001	-1.605762e+002	-7.702332e+001	1.707698e+002	-1.098070e+000	-1.058043e+002
110068007	-1.014657e+000	-1.076981e+002	-8.763049e+001	-1.042627e+002	-8.033035e+001	-1.565685e+002	-1.098252e+000	-1.058251e+002
110070007	-1.014009e+000	-1.076973e+002	-8.137257e+001	1.696341e+002	-8.150390e+001	1.621543e+002	-1.098788e+000	-1.058222e+002
110072007	-1.012900e+000	-1.077176e+002	-8.219148e+001	-1.786318e+002	-7.902886e+001	-1.604120e+002	-1.098310e+000	-1.058272e+002
110074007	-1.013801e+000	-1.077260e+002	-8.057406e+001	-1.369030e+002	-7.990073e+001	1.632141e+002	-1.099587e+000	-1.058504e+002
110076008	-1.013042e+000	-1.077076e+002	-7.952140e+001	-1.621069e+002	-7.903909e+001	-1.602824e+002	-1.098945e+000	-1.058262e+002
110078008	-1.011758e+000	-1.077115e+002	-7.843985e+001	-1.500858e+002	-8.043972e+001	-1.542766e+002	-1.099481e+000	-1.058376e+002
110080008	-1.014818e+000	-1.077133e+002	-8.050393e+001	-1.511311e+002	-7.945406e+001	-1.686978e+002	-1.100263e+000	-1.058569e+002
110082008	-1.012663e+000	-1.077197e+002	-8.131567e+001	-1.699711e+002	-8.244381e+001	-1.605415e+002	-1.100754e+000	-1.058373e+002
110084008	-1.012570e+000	-1.077300e+002	-8.053588e+001	-1.799402e+002	-7.557435e+001	-1.346490e+002	-1.099033e+000	-1.058453e+002
110086009	-1.014203e+000	-1.077175e+002	-8.033930e+001	1.716882e+002	-7.639646e+001	-1.707214e+002	-1.100535e+000	-1.058431e+002
110088009	-1.014601e+000	-1.077212e+002	-8.355852e+001	-1.622452e+002	-8.164315e+001	-1.584423e+002	-1.099777e+000	-1.058491e+002
110090009	-1.011376e+000	-1.077330e+002	-7.890781e+001	-1.726348e+002	-8.388873e+001	-1.671328e+002	-1.099896e+000	-1.058391e+002
110092009	-1.013927e+000	-1.077339e+002	-9.257670e+001	1.528084e+002	-8.901846e+001	-1.639170e+002	-1.099904e+000	-1.058357e+002
110094009	-1.014308e+000	-1.077435e+002	-7.751121e+001	1.662244e+002	-7.566382e+001	-1.725099e+002	-1.100871e+000	-1.058671e+002
110096010	-1.012318e+000	-1.077126e+002	-8.067443e+001	-1.562544e+002	-8.361390e+001	-1.700784e+002	-1.099440e+000	-1.058563e+002
110098010	-1.013089e+000	-1.077297e+002	-8.093340e+001	-1.592885e+002	-7.970811e+001	-1.698786e+002	-1.098126e+000	-1.058386e+002
110100010	-1.014837e+000	-1.077536e+002	-8.624618e+001	-1.129940e+002	-8.195490e+001	-1.638985e+002	-1.101798e+000	-1.058658e+002
110102010	-1.012302e+000	-1.077335e+002	-8.393637e+001	1.683838e+002	-7.591483e+001	1.796658e+002	-1.102172e+000	-1.058706e+002
110104010	-1.013220e+000	-1.077470e+002	-8.318600e+001	1.665186e+002	-8.054920e+001	-1.312569e+002	-1.098997e+000	-1.058617e+002
110106011	-1.011057e+000	-1.077307e+002	-7.699249e+001	-1.495309e+002	-8.451406e+001	-1.742136e+002	-1.100452e+000	-1.058581e+002
110108011	-1.015255e+000	-1.077386e+002	-7.854439e+001	1.734249e+002	-8.029154e+001	1.676855e+002	-1.099854e+000	-1.058613e+002
110110011	-1.013442e+000	-1.077578e+002	-8.008122e+001	1.718165e+002	-7.686447e+001	-1.767577e+002	-1.099621e+000	-1.058765e+002
110112011	-1.016263e+000	-1.077518e+002	-8.358159e+001	-1.697012e+002	-8.320105e+001	-1.609699e+002	-1.096813e+000	-1.058671e+002
110114011	-1.014536e+000	-1.077466e+002	-7.880361e+001	-1.563758e+002	-7.804435e+001	-1.667045e+002	-1.101309e+000	-1.058685e+002
110116012	-1.014023e+000	-1.077542e+002	-8.315012e+001	-1.681990e+002	-8.275716e+001	-1.666980e+002	-1.098415e+000	-1.058651e+002
110118012	-1.012449e+000	-1.077617e+002	-7.901883e+001	-1.619456e+002	-8.275816e+001	1.776954e+002	-1.097664e+000	-1.058865e+002
110120012	-1.012111e+000	-1.077515e+002	-8.252862e+001	1.797393e+002	-8.243879e+001	-1.672156e+002	-1.099681e+000	-1.058797e+002
110122012	-1.014156e+000	-1.077616e+002	-8.164826e+001	1.696100e+002	-8.443693e+001	-1.448654e+002	-1.098513e+000	-1.058877e+002
110124012	-1.013851e+000	-1.077632e+002	-8.659190e+001	1.767776e+002	-8.223953e+001	-1.632010e+002	-1.100653e+000	-1.058795e+002
110126013	-1.014601e+000	-1.077694e+002	-8.579504e+001	-1.503175e+002	-7.987636e+001	-1.678810e+002	-1.101240e+000	-1.058714e+002
110128013	-1.013078e+000	-1.077722e+002	-8.753827e+001	1.502086e+002	-8.219250e+001	-1.697128e+002	-1.098264e+000	-1.058943e+002
110130013	-1.015461e+000	-1.077727e+002	-7.987938e+001	-1.641420e+002	-8.792973e+001	-1.044449e+002	-1.101175e+000	-1.058735e+002
110132013	-1.015182e+000	-1.077705e+002	-7.705710e+001	1.734591e+002	-8.112017e+001	1.609709e+002	-1.100810e+000	-1.058803e+002
110134013	-1.011260e+000	-1.077668e+002	-8.750410e+001	1.621030e+002	-8.073260e+001	-1.698911e+002	-1.101176e+000	-1.058870e+002
110136014	-1.014687e+000	-1.077652e+002	-7.732724e+001	-1.547702e+002	-7.732611e+001	-1.604501e+002	-1.101874e+000	-1.058972e+002
110138014	-1.015490e+000	-1.077722e+002	-8.396869e+001	1.759114e+002	-8.109000e+001	-1.515773e+002	-1.099516e+000	-1.058993e+002
110140014	-1.013380e+000	-1.077850e+002	-7.808887e+001	-1.560067e+002	-8.178472e+001	1.757603e+002	-1.101879e+000	-1.059012e+002
110142014	-1.014199e+000	-1.077822e+002	-7.864892e+001	-1.521091e+002	-8.669250e+001	-1.682107e+002	-1.101842e+000	-1.058967e+002
110144014	-1.013638e+000	-1.077865e+002	-7.793800e+001	1.709732e+002	-7.791561e+001	1.713977e+002	-1.105017e+000	-1.059069e+002
110146015	-1.015497e+000	-1.077970e+002	-8.056515e+001	-1.415166e+002	-8.396037e+001	1.649588e+002	-1.101792e+000	-1.058976e+002
110148015	-1.011249e+000	-1.077888e+002	-8.119023e+001	-1.311885e+002	-8.013906e+001	1.794224e+002	-1.102247e+000	-1.058933e+002
110150015	-1.013591e+000	-1.077819e+002	-7.832971e+001	-1.470356e+002	-8.215441e+001	-1.519938e+002	-1.101166e+000	-1.059041e+002
110152015	-1.015414e+000	-1.077888e+002	-7.792154e+001	1.784537e+002	-8.219436e+001	-1.415987e+002	-1.102334e+000	-1.059035e+002
110154015	-1.015203e+000	-1.077901e+002	-7.770864e+001	-1.730132e+002	-8.988959e+001	1.625160e+002	-1.100710e+000	-1.059095e+002
110156016	-1.015600e+000	-1.077763e+002	-8.915699e+001	-1.681014e+002	-8.304360e+001	-1.587012e+002	-1.099798e+000	-1.059260e+002
110158016	-1.016701e+000	-1.077919e+002	-8.217872e+001	-1.284889e+002	-7.919060e+001	1.734001e+002	-1.101936e+000	-1.059155e+002
110160016	-1.012265e+000	-1.077834e+002	-8.093395e+001	-1.758461e+002	-8.126365e+001	1.646480e+002	-1.101295e+000	-1.059236e+002
110162016	-1.014601e+000	-1.078148e+002	-8.010334e+001	-1.563758e+002	-8.836650e+001	-1.651078e+002	-1.101959e+000	-1.059300e+002
110164016	-1.013704e+000	-1.077758e+002	-8.059833e+001	-1.523031e+002	-8.146026e+001	-1.667596e+002	-1.102400e+000	-1.059272e+002
110166017	-1.013635e+000	-1.077985e+002	-8.107095e+001	-1.478278e+002	-8.734260e+001	-1.708871e+002	-1.103327e+000	-1.059265e+002
110168017	-1.014383e+000	-1.078021e+002	-8.189154e+001	1.513620e+002	-8.026802e+001	1.482476e+002	-1.100838e+000	-1.059218e+002
110170017	-1.015022e+000	-1.078040e+002	-7.834697e+001	-1.593148e+002	-8.005368e+001	-1.570325e+002	-1.102028e+000	-1.059372e+002
110172017	-1.014030e+000	-1.078103e+002	-8.010881e+001	-1.505519e+002	-8.808295e+001	1.778044e+002	-1.101407e+000	-1.059384e+002
110174017	-1.014390e+000	-1.078183e+002	-8.356700e+001	-1.134008e+002	-8.307739e+001	1.777867e+002	-1.100416e+000	-1.059237e+002
110176018	-1.014976e+000	-1.077978e+002	-8.321532e+001	-1.578668e+002	-7.763554e+001	-1.337459e+002	-1.102499e+000	-1.059330e+002
110178018	-1.013130e+000	-1.078191e+002	-8.281671e+001	-1.399503e+002	-7.793544e+001	-1.771399e+002	-1.100406e+000	-1.059335e+002
110180018	-1.014368e+000	-1.078232e+002	-7.875792e+001	-1.531426e+002	-7.808937e+001	-1.205107e+002	-1.099820e+000	-1.059424e+002
110182018	-1.015802e+000	-1.078107e+002	-7.699526e+001	1.791221e+002	-8.304604e+001	-1.535058e+002	-1.103541e+000	-1.059401e+002
110184018	-1.014911e+000	-1.078161e+002	-8.253375e+001	1.777967e+002	-8.372491e+001	-8.477558e+001	-1.101577e+000	-1.059418e+002
110186019	-1.013280e+000	-1.078232e+002	-7.839574e+001	-1.545698e+002	-7.930450e+001	-1.509306e+002	-1.102961e+000	-1.059369e+002
110188019	-1.016457e+000	-1.078275e+002	-7.728777e+001	-1.414321e+002	-8.178019e+001	1.797940e+002	-1.102805e+000	-1.059584e+002
110190019	-1.013749e+000	-1.078278e+002	-7.823471e+001	-1.506013e+002	-7.764659e+001	-1.722893e+002	-1.101256e+000	-1.059401e+002
110192019	-1.015308e+000	-1.078324e+002	-7.669212e+001	-1.391138e+002	-7.966434e+001	1.763095e+002	-1.104667e+000	-1.059579e+002
110194019	-1.015931e+000	-1.078345e+002	-8.658003e+001	-1.583166e+002	-7.898117e+001	-1.452975e+002	-1.100769e+000	-1.059508e+002
110196020	-1.016570e+000	-1.078337e+002	-8.453288e+001	-1.181855e+002	-7.790820e+001	-1.406891e+002	-1.104233e+000	-1.059447e+002
110198020	-1.015525e+000	-1.078262e+002	-8.752628e+001	-1.632241e+002	-7.727048e+001	1.586899e+002	-1.103019e+000	-1.059558e+002
110200020	-1.014277e+000	-1.078424e+002	-8.752893e+001	-1.632274e+002	-7.688228e+001	-1.661692e+002	-1.102031e+000	-1.059558e+002
110202020	-1.015029e+000	-1.078413e+002	-8.526238e+001	1.431106e+002	-8.057980e+001	-1.752261e+002	-1.102968e+000	-1.059603e+002
110204020	-1.013173e+000	-1.078321e+002	-7.965367e+001	-1.283316e+002	-8.024038e+001	-1.721326e+002	-1.102126e+000	-1.059613e+002
110206021	-1.013356e+000	-1.078370e+002	-8.039370e+001	-1.532033e+002	-7.979029e+001	-1.662110e+002	-1.102812e+000	-1.059556e+002
110208021	-1.014981e+000	-1.078324e+002	-7.817932e+001	-1.667288e+002	-8.247878e+001	1.649055e+002	-1.103936e+000	-1.059641e+002
110210021	-1.014362e+000	-1.078409e+002	-8.980556e+001	-1.664528e+002	-8.004503e+001	-1.209003e+002	-1.102811e+000	-1.059739e+002
110212021	-1.014759e+000	-1.078429e+002	-8.035721e+001	1.619648e+002	-8.317462e+001	1.564978e+002	-1.101738e+000	-1.059705e+002
110214021	-1.012556e+000	-1.078424e+002	-8.559982e+001	1.765567e+002	-8.714056e+001	-4.186537e+001	-1.103768e+000	-1.059737e+002
110216022	-1.014730e+000	-1.078504e+002	-7.802790e+001	-1.360322e+002	-8.410650e+001	1.594976e+002	-1.103327e+000	-1.059775e+002
110218022	-1.014577e+000	-1.078421e+002	-8.505516e+001	-1.534971e+002	-7.823046e+001	-1.728384e+002	-1.102578e+000	-1.059826e+002
110220022	-1.015315e+000	-1.078650e+002	-8.413672e+001	-1.540989e+002	-8.155240e+001	-1.343516e+002	-1.101885e+000	-1.059704e+002
110222022	-1.015581e+000	-1.078623e+002	-7.995022e+001	-1.172742e+002	-7.950202e+001	-1.338188e+002	-1.105433e+000	-1.059795e+002
110224022	-1.015526e+000	-1.078532e+002	-8.199696e+001	-1.167273e+002	-8.240037e+001	-1.602973e+002	-1.105250e+000	-1.059750e+002
110226023	-1.016588e+000	-1.078620e+002	-8.985696e+001	1.426547e+002	-8.115572e+001	-1.489626e+002	-1.104356e+000	-1.059740e+002
110228023	-1.015998e+000	-1.078567e+002	-8.061428e+001	-1.743336e+002	-8.015215e+001	-1.688552e+002	-1.104744e+000	-1.059916e+002
110230023	-1.016763e+000	-1.078680e+002	-9.814913e+001	-1.228739e+002	-8.297131e+001	-1.483920e+002	-1.101724e+000	-1.059821e+002
110232023	-1.016840e+000	-1.078734e+002	-8.398101e+001	-1.195818e+002	-7.962431e+001	-9.668745e+001	-1.103634e+000	-1.059874e+002
110234023	-1.016746e+000	-1.078532e+002	-8.798943e+001	-1.526620e+002	-8.218312e+001	-7.957548e+001	-1.103024e+000	-1.059861e+002
110236024	-1.016787e+000	-1.078715e+002	-8.863043e+001	-1.598083e+002	-7.965217e+001	1.794568e+002	-1.104505e+000	-1.059751e+002
110238024	-1.018303e+000	-1.078657e+002	-8.110076e+001	-1.452010e+002	-7.920790e+001	-1.528754e+002	-1.105188e+000	-1.059916e+002
110240024	-1.015852e+000	-1.078786e+002	-7.630548e+001	-1.606646e+002	-8.117438e+001	-1.613583e+002	-1.104578e+000	-1.059869e+002
110242024	-1.015757e+000	-1.078701e+002	-8.192568e+001	-1.427456e+002	-7.845888e+001	-1.476610e+002	-1.103960e+000	-1.059996e+002
110244024	-1.014074e+000	-1.078923e+002	-8.063169e+001	-1.635519e+002	-8.397681e+001	-1.611527e+002	-1.105861e+000	-1.060127e+002
110246025	-1.016217e+000	-1.078936e+002	-8.293971e+001	-1.319157e+002	-8.189232e+001	-1.456084e+002	-1.103658e+000	-1.060115e+002
110248025	-1.016238e+000	-1.078694e+002	-8.093942e+001	-1.526588e+002	-8.020864e+001	-1.489143e+002	-1.103910e+000	-1.059945e+002
110250025	-1.015499e+000	-1.078741e+002	-7.365700e+001	-1.456982e+002	-8.492837e+001	1.514281e+002	-1.104441e+000	-1.060034e+002
110252025	-1.015636e+000	-1.078942e+002	-8.092686e+001	-1.413468e+002	-7.827360e+001	-1.436102e+002	-1.105873e+000	-1.060093e+002
110254025	-1.016252e+000	-1.078921e+002	-7.935736e+001	-1.637353e+002	-8.251978e+001	-1.622478e+002	-1.103382e+000	-1.060196e+002
110256026	-1.016750e+000	-1.079010e+002	-8.272429e+001	-1.568654e+002	-7.699786e+001	-1.232028e+002	-1.103790e+000	-1.059965e+002
110258026	-1.015803e+000	-1.078946e+002	-8.032722e+001	-1.471955e+002	-7.862275e+001	-1.548639e+002	-1.102342e+000	-1.060032e+002
110260026	-1.015641e+000	-1.078787e+002	-8.139700e+001	-1.320916e+002	-8.476247e+001	-1.390689e+002	-1.103551e+000	-1.060151e+002
110262026	-1.015932e+000	-1.078977e+002	-7.758443e+001	-1.532860e+002	-8.155586e+001	-1.370307e+002	-1.104018e+000	-1.060159e+002
110264026	-1.016818e+000	-1.078809e+002	-7.894646e+001	-1.134257e+002	-7.881571e+001	-1.510648e+002	-1.103200e+000	-1.060134e+002
110266027	-1.016157e+000	-1.078983e+002	-7.687024e+001	-1.358088e+002	-7.719706e+001	-1.312438e+002	-1.104070e+000	-1.060108e+002
110268027	-1.015190e+000	-1.079092e+002	-7.806592e+001	-1.512100e+002	-7.833480e+001	-1.685835e+002	-1.105163e+000	-1.060159e+002
110270027	-1.015604e+000	-1.079012e+002	-8.036768e+001	-1.378406e+002	-7.813794e+001	-1.606903e+002	-1.105944e+000	-1.060317e+002
110272027	-1.017333e+000	-1.079125e+002	-8.257360e+001	-1.443186e+002	-7.686463e+001	-1.564272e+002	-1.102835e+000	-1.060237e+002
110274027	-1.016167e+000	-1.079003e+002	-7.847760e+001	-1.403349e+002	-7.782103e+001	-1.588104e+002	-1.103508e+000	-1.060354e+002
110276028	-1.015425e+000	-1.079133e+002	-7.757172e+001	-1.196633e+002	-8.201318e+001	-1.545139e+002	-1.105591e+000	-1.060271e+002
110278028	-1.016516e+000	-1.079057e+002	-7.952504e+001	-1.370169e+002	-8.187764e+001	-1.699003e+002	-1.104550e+000	-1.060257e+002
110280028	-1.016316e+000	-1.079132e+002	-8.124180e+001	-1.490475e+002	-8.001726e+001	-1.605457e+002	-1.103985e+000	-1.060347e+002
110282028	-1.014798e+000	-1.079123e+002	-8.579620e+001	-1.325204e+002	-7.818513e+001	-1.267699e+002	-1.106267e+000	-1.060361e+002
110284028	-1.018897e+000	-1.079198e+002	-7.705543e+001	-1.396670e+002	-7.931049e+001	-1.433055e+002	-1.103516e+000	-1.060494e+002
110286029	-1.016025e+000	-1.079219e+002	-8.228302e+001	-1.173397e+002	-7.799574e+001	-1.185363e+002	-1.103842e+000	-1.060393e+002
110288029	-1.016176e+000	-1.079201e+002	-7.885035e+001	-1.284014e+002	-8.000078e+001	-1.415795e+002	-1.104117e+000	-1.060444e+002
110290029	-1.015727e+000	-1.079278e+002	-8.139403e+001	-1.571788e+002	-7.734756e+001	-1.386297e+002	-1.103269e+000	-1.060445e+002
110292029	-1.015834e+000	-1.079311e+002	-7.756967e+001	-1.195900e+002	-7.763420e+001	-1.510183e+002	-1.104333e+000	-1.060349e+002
110294029	-1.017711e+000	-1.079263e+002	-7.996371e+001	-1.491056e+002	-7.954502e+001	-1.478900e+002	-1.104941e+000	-1.060403e+002
110296030	-1.019640e+000	-1.079241e+002	-7.937111e+001	-1.636115e+002	-7.634578e+001	-1.194803e+002	-1.104928e+000	-1.060507e+002
110298030	-1.018251e+000	-1.079243e+002	-7.549470e+001	-1.399312e+002	-7.850601e+001	-1.234488e+002	-1.104563e+000	-1.060538e+002
110300030	-1.017991e+000	-1.079263e+002	-7.608101e+001	-1.601153e+002	-7.545095e+001	-1.484991e+002	-1.105391e+000	-1.060599e+002
