!Agilent Technologies,E5071C,MY46520923,B.12.03
!Date: Wed Feb 07 10:39:57 2024
!Data & Calibration Information:
!Freq	S11:SOLT2(ON)	S21:SOLT2(ON)	S12:SOLT2(ON)	S22:SOLT2(ON)
!PortZ  Port1:50+j0    Port2:50+j0
!Above PortZ is port z conversion or system Z0 setting when saving the data.
!When reading, reference impedance value at option line is always used.
# Hz S dB R 50
110000000	-9.366210e-001	-1.070375e+002	-7.598116e+001	-1.578577e+002	-7.762081e+001	1.634546e+002	-1.257170e+000	-1.057278e+002
110002000	-9.368263e-001	-1.070359e+002	-7.904511e+001	1.728219e+002	-7.783958e+001	-1.498031e+002	-1.258207e+000	-1.057458e+002
110004000	-9.375122e-001	-1.070173e+002	-8.092610e+001	-1.727729e+002	-8.484537e+001	-1.613379e+002	-1.257372e+000	-1.057595e+002
110006001	-9.373666e-001	-1.070210e+002	-8.108929e+001	-1.435956e+002	-7.905251e+001	-1.763504e+002	-1.256756e+000	-1.057387e+002
110008001	-9.376879e-001	-1.070235e+002	-8.185248e+001	-1.599088e+002	-7.689525e+001	-1.690160e+002	-1.258880e+000	-1.057429e+002
110010001	-9.382956e-001	-1.070323e+002	-7.934856e+001	-1.488877e+002	-7.956568e+001	-1.734373e+002	-1.258441e+000	-1.057515e+002
110012001	-9.366296e-001	-1.070416e+002	-8.507160e+001	-1.362899e+002	-8.720468e+001	-1.781906e+002	-1.260311e+000	-1.057454e+002
110014001	-9.379383e-001	-1.070426e+002	-8.053017e+001	-1.535843e+002	-8.106803e+001	-1.452958e+002	-1.257089e+000	-1.057480e+002
110016002	-9.373937e-001	-1.070331e+002	-8.192869e+001	-1.794057e+002	-7.685617e+001	-1.317166e+002	-1.256541e+000	-1.057626e+002
110018002	-9.361254e-001	-1.070447e+002	-8.141784e+001	-1.546772e+002	-7.819404e+001	-1.654097e+002	-1.260235e+000	-1.057398e+002
110020002	-9.393885e-001	-1.070336e+002	-7.748471e+001	1.754079e+002	-7.762653e+001	-1.716580e+002	-1.259041e+000	-1.057478e+002
110022002	-9.377404e-001	-1.070454e+002	-8.006736e+001	-1.381712e+002	-7.946040e+001	-1.452364e+002	-1.258754e+000	-1.057438e+002
110024002	-9.393729e-001	-1.070427e+002	-7.565561e+001	-1.718097e+002	-7.934021e+001	-1.706461e+002	-1.259486e+000	-1.057608e+002
110026003	-9.368384e-001	-1.070420e+002	-7.917465e+001	-1.398864e+002	-7.935626e+001	1.753125e+002	-1.258112e+000	-1.057657e+002
110028003	-9.391485e-001	-1.070445e+002	-7.742654e+001	1.765120e+002	-7.870340e+001	-1.632995e+002	-1.258870e+000	-1.057610e+002
110030003	-9.356518e-001	-1.070577e+002	-7.879335e+001	-1.464531e+002	-7.770372e+001	-1.463586e+002	-1.258119e+000	-1.057596e+002
110032003	-9.383812e-001	-1.070503e+002	-8.201450e+001	1.708132e+002	-7.571742e+001	-1.418840e+002	-1.259006e+000	-1.057665e+002
110034003	-9.373993e-001	-1.070737e+002	-8.282697e+001	-1.694926e+002	-7.595064e+001	-1.717912e+002	-1.256391e+000	-1.057758e+002
110036004	-9.405510e-001	-1.070614e+002	-7.596477e+001	-1.469399e+002	-8.004124e+001	-1.786167e+002	-1.257452e+000	-1.057738e+002
110038004	-9.383219e-001	-1.070559e+002	-8.357758e+001	-1.690859e+002	-7.618074e+001	1.737430e+002	-1.259598e+000	-1.057664e+002
110040004	-9.390780e-001	-1.070672e+002	-7.753352e+001	-1.541483e+002	-8.483024e+001	-1.574832e+002	-1.257486e+000	-1.057712e+002
110042004	-9.363408e-001	-1.070476e+002	-8.194087e+001	-1.585835e+002	-8.234207e+001	-1.634476e+002	-1.257178e+000	-1.057789e+002
110044004	-9.404129e-001	-1.070592e+002	-8.221026e+001	-1.444980e+002	-7.962806e+001	-1.548287e+002	-1.258396e+000	-1.057752e+002
110046005	-9.391352e-001	-1.070600e+002	-7.959716e+001	-1.241520e+002	-8.106521e+001	-1.724031e+002	-1.261373e+000	-1.057841e+002
110048005	-9.397531e-001	-1.070605e+002	-8.123841e+001	-1.270603e+002	-7.748582e+001	-1.608870e+002	-1.258650e+000	-1.057881e+002
110050005	-9.396146e-001	-1.070600e+002	-7.891617e+001	-1.644514e+002	-7.879458e+001	-1.386651e+002	-1.260161e+000	-1.057794e+002
110052005	-9.397737e-001	-1.070595e+002	-7.651033e+001	-1.631497e+002	-7.671197e+001	-1.562042e+002	-1.256534e+000	-1.058015e+002
110054005	-9.397760e-001	-1.070620e+002	-8.280936e+001	-1.258978e+002	-7.874056e+001	-1.337137e+002	-1.258036e+000	-1.057827e+002
110056006	-9.365409e-001	-1.070647e+002	-8.195845e+001	-1.558023e+002	-8.178799e+001	-1.655574e+002	-1.262267e+000	-1.057909e+002
110058006	-9.382605e-001	-1.070733e+002	-8.589649e+001	-1.428155e+002	-8.131852e+001	-1.422859e+002	-1.259122e+000	-1.057868e+002
110060006	-9.387410e-001	-1.070673e+002	-8.011468e+001	-1.401471e+002	-8.055161e+001	-1.599991e+002	-1.257309e+000	-1.057960e+002
110062006	-9.385429e-001	-1.070873e+002	-8.012767e+001	-1.282575e+002	-7.784128e+001	1.799162e+002	-1.259096e+000	-1.057957e+002
110064006	-9.387289e-001	-1.070653e+002	-8.214592e+001	-1.516180e+002	-8.275832e+001	-1.640519e+002	-1.261231e+000	-1.057980e+002
110066007	-9.393654e-001	-1.070814e+002	-7.900921e+001	-1.348945e+002	-8.160150e+001	-1.460836e+002	-1.260171e+000	-1.058005e+002
110068007	-9.377209e-001	-1.070923e+002	-8.335165e+001	1.682786e+002	-8.240635e+001	-1.794253e+002	-1.261665e+000	-1.058011e+002
110070007	-9.383993e-001	-1.070912e+002	-7.917212e+001	1.763180e+002	-9.154380e+001	1.450650e+002	-1.259557e+000	-1.058019e+002
110072007	-9.380852e-001	-1.070996e+002	-8.247579e+001	-1.253367e+002	-7.616991e+001	-1.786822e+002	-1.259355e+000	-1.058081e+002
110074007	-9.390797e-001	-1.070816e+002	-7.900110e+001	-1.548173e+002	-7.706211e+001	-1.653572e+002	-1.259668e+000	-1.058054e+002
110076008	-9.376340e-001	-1.070918e+002	-8.039545e+001	-1.792971e+002	-7.622162e+001	-1.797125e+002	-1.257082e+000	-1.058208e+002
110078008	-9.397984e-001	-1.070992e+002	-7.979164e+001	1.622528e+002	-8.441577e+001	-1.746884e+002	-1.258342e+000	-1.058142e+002
110080008	-9.387098e-001	-1.071085e+002	-7.913912e+001	-1.537847e+002	-7.798277e+001	-1.313274e+002	-1.259614e+000	-1.058206e+002
110082008	-9.385314e-001	-1.070952e+002	-8.209927e+001	-1.267272e+002	-8.033997e+001	-1.706798e+002	-1.259924e+000	-1.058177e+002
110084008	-9.396023e-001	-1.070974e+002	-7.774333e+001	-1.574231e+002	-8.236571e+001	1.719290e+002	-1.262674e+000	-1.058331e+002
110086009	-9.387610e-001	-1.071032e+002	-8.078013e+001	-1.665795e+002	-8.007985e+001	1.732442e+002	-1.260069e+000	-1.058170e+002
110088009	-9.381375e-001	-1.070999e+002	-7.970772e+001	-1.600259e+002	-8.248338e+001	-1.377994e+002	-1.256967e+000	-1.058158e+002
110090009	-9.383632e-001	-1.071141e+002	-7.964397e+001	-1.641828e+002	-7.760934e+001	-1.600795e+002	-1.260025e+000	-1.058228e+002
110092009	-9.401290e-001	-1.071145e+002	-7.766893e+001	-1.490084e+002	-8.035689e+001	-1.419886e+002	-1.259792e+000	-1.058239e+002
110094009	-9.393428e-001	-1.071123e+002	-7.833509e+001	-1.684634e+002	-7.835872e+001	-1.627194e+002	-1.259721e+000	-1.058170e+002
110096010	-9.395882e-001	-1.071086e+002	-8.230868e+001	-1.005702e+002	-7.999333e+001	-1.734630e+002	-1.260548e+000	-1.058403e+002
110098010	-9.400738e-001	-1.071071e+002	-8.191010e+001	-1.433019e+002	-8.079941e+001	-1.464678e+002	-1.261577e+000	-1.058332e+002
110100010	-9.394266e-001	-1.071229e+002	-7.798003e+001	-1.539500e+002	-7.860917e+001	1.649270e+002	-1.259661e+000	-1.058348e+002
110102010	-9.401044e-001	-1.071118e+002	-7.838181e+001	-1.566302e+002	-7.926317e+001	-1.672721e+002	-1.261376e+000	-1.058418e+002
110104010	-9.387884e-001	-1.071272e+002	-8.257293e+001	1.783900e+002	-8.720090e+001	-1.698721e+002	-1.260909e+000	-1.058425e+002
110106011	-9.404357e-001	-1.071315e+002	-7.737528e+001	-1.638138e+002	-7.909334e+001	-1.627891e+002	-1.260494e+000	-1.058460e+002
110108011	-9.385978e-001	-1.071250e+002	-8.363796e+001	1.401211e+002	-8.009348e+001	-1.491200e+002	-1.260093e+000	-1.058314e+002
110110011	-9.412658e-001	-1.071289e+002	-7.560100e+001	-1.670236e+002	-8.369842e+001	-1.496443e+002	-1.260264e+000	-1.058519e+002
110112011	-9.394801e-001	-1.071190e+002	-7.730554e+001	-1.443684e+002	-8.308224e+001	1.681434e+002	-1.259657e+000	-1.058472e+002
110114011	-9.391773e-001	-1.071477e+002	-7.852794e+001	-1.349067e+002	-7.902997e+001	-1.647080e+002	-1.260744e+000	-1.058415e+002
110116012	-9.400502e-001	-1.071290e+002	-8.005328e+001	-1.782527e+002	-7.762160e+001	-1.583464e+002	-1.261981e+000	-1.058533e+002
110118012	-9.403174e-001	-1.071361e+002	-7.907482e+001	-1.576450e+002	-7.885509e+001	-1.234891e+002	-1.264078e+000	-1.058458e+002
110120012	-9.419276e-001	-1.071235e+002	-7.823854e+001	-1.411791e+002	-8.453890e+001	-1.771111e+002	-1.260087e+000	-1.058468e+002
110122012	-9.383030e-001	-1.071336e+002	-7.803481e+001	-1.635762e+002	-8.062127e+001	-1.550436e+002	-1.260165e+000	-1.058621e+002
110124012	-9.400283e-001	-1.071399e+002	-7.986444e+001	-1.665497e+002	-9.176862e+001	-1.557909e+002	-1.262139e+000	-1.058467e+002
110126013	-9.397362e-001	-1.071447e+002	-7.985327e+001	-1.754148e+002	-8.037649e+001	-1.442835e+002	-1.260318e+000	-1.058576e+002
110128013	-9.422026e-001	-1.071389e+002	-7.892777e+001	-1.566284e+002	-7.992797e+001	-1.258360e+002	-1.260498e+000	-1.058581e+002
110130013	-9.372447e-001	-1.071330e+002	-7.748787e+001	-1.398323e+002	-7.897148e+001	-1.697949e+002	-1.260631e+000	-1.058607e+002
110132013	-9.410897e-001	-1.071364e+002	-8.019405e+001	-1.443065e+002	-7.630697e+001	-1.726438e+002	-1.261440e+000	-1.058694e+002
110134013	-9.406231e-001	-1.071583e+002	-7.767050e+001	-1.506046e+002	-7.787549e+001	-1.352115e+002	-1.260350e+000	-1.058584e+002
110136014	-9.396422e-001	-1.071474e+002	-8.034602e+001	-1.601745e+002	-7.764491e+001	-1.461431e+002	-1.261735e+000	-1.058621e+002
110138014	-9.409493e-001	-1.071601e+002	-8.246423e+001	-1.702891e+002	-7.749219e+001	-1.454475e+002	-1.259242e+000	-1.058682e+002
110140014	-9.405455e-001	-1.071539e+002	-7.659597e+001	-1.344107e+002	-8.149263e+001	-1.749244e+002	-1.261005e+000	-1.058703e+002
110142014	-9.405310e-001	-1.071539e+002	-7.937778e+001	-1.207549e+002	-7.652574e+001	-1.566634e+002	-1.263304e+000	-1.058705e+002
110144014	-9.418937e-001	-1.071518e+002	-8.014214e+001	-1.761781e+002	-8.201905e+001	-1.542801e+002	-1.261685e+000	-1.058790e+002
110146015	-9.388436e-001	-1.071657e+002	-8.125535e+001	-1.684218e+002	-7.804557e+001	-1.404173e+002	-1.262655e+000	-1.058589e+002
110148015	-9.393951e-001	-1.071665e+002	-8.621617e+001	-1.442864e+002	-8.167596e+001	1.734159e+002	-1.259627e+000	-1.058785e+002
110150015	-9.421758e-001	-1.071760e+002	-7.888947e+001	-1.623414e+002	-8.690070e+001	1.565355e+002	-1.263076e+000	-1.058782e+002
110152015	-9.395748e-001	-1.071744e+002	-8.018721e+001	1.546567e+002	-8.175336e+001	-1.373127e+002	-1.264284e+000	-1.059069e+002
110154015	-9.378158e-001	-1.071613e+002	-7.525832e+001	1.758729e+002	-8.608642e+001	-1.490358e+002	-1.261183e+000	-1.058757e+002
110156016	-9.389544e-001	-1.071714e+002	-8.973139e+001	-1.521971e+002	-7.457496e+001	-1.770697e+002	-1.261249e+000	-1.058876e+002
110158016	-9.408181e-001	-1.071682e+002	-8.417003e+001	-1.626560e+002	-8.017272e+001	-1.594095e+002	-1.265210e+000	-1.058826e+002
110160016	-9.414725e-001	-1.071940e+002	-7.955952e+001	-1.660844e+002	-8.149815e+001	-1.594481e+002	-1.259672e+000	-1.058923e+002
110162016	-9.387538e-001	-1.071624e+002	-7.744795e+001	-1.572084e+002	-7.912798e+001	-1.658375e+002	-1.260842e+000	-1.058813e+002
110164016	-9.419912e-001	-1.071702e+002	-8.284762e+001	-1.303578e+002	-8.533682e+001	-1.275922e+002	-1.261402e+000	-1.058953e+002
110166017	-9.402096e-001	-1.071825e+002	-7.677764e+001	-1.701081e+002	-7.870673e+001	-1.592120e+002	-1.263815e+000	-1.058779e+002
110168017	-9.395921e-001	-1.071754e+002	-7.862861e+001	-1.583821e+002	-8.331041e+001	-1.771305e+002	-1.261351e+000	-1.059049e+002
110170017	-9.412893e-001	-1.071799e+002	-8.294447e+001	-1.282843e+002	-7.976146e+001	1.747186e+002	-1.261807e+000	-1.058972e+002
110172017	-9.399941e-001	-1.071736e+002	-8.067875e+001	-1.603327e+002	-8.419884e+001	-1.568409e+002	-1.262862e+000	-1.058889e+002
110174017	-9.399490e-001	-1.072050e+002	-7.712669e+001	-1.492258e+002	-8.373195e+001	1.711259e+002	-1.260315e+000	-1.058966e+002
110176018	-9.393961e-001	-1.071952e+002	-7.854496e+001	-1.423925e+002	-9.990592e+001	-1.626006e+002	-1.262545e+000	-1.059024e+002
110178018	-9.393982e-001	-1.071917e+002	-8.377792e+001	-1.435560e+002	-8.158692e+001	-1.540374e+002	-1.262402e+000	-1.059114e+002
110180018	-9.403918e-001	-1.071990e+002	-8.106312e+001	-1.283980e+002	-8.007287e+001	-1.535741e+002	-1.264313e+000	-1.059193e+002
110182018	-9.399849e-001	-1.071866e+002	-7.779475e+001	-1.381817e+002	-7.927169e+001	-1.408132e+002	-1.263160e+000	-1.059032e+002
110184018	-9.402154e-001	-1.072052e+002	-7.728287e+001	-1.530835e+002	-8.014397e+001	-1.262840e+002	-1.261674e+000	-1.058978e+002
110186019	-9.415654e-001	-1.071908e+002	-8.092186e+001	-1.157476e+002	-7.740479e+001	-1.546232e+002	-1.262493e+000	-1.059130e+002
110188019	-9.402713e-001	-1.072121e+002	-8.073594e+001	-1.447041e+002	-8.060384e+001	-1.549559e+002	-1.259942e+000	-1.059138e+002
110190019	-9.402380e-001	-1.072077e+002	-7.852775e+001	1.795544e+002	-8.151862e+001	-1.594018e+002	-1.263598e+000	-1.059194e+002
110192019	-9.409382e-001	-1.072194e+002	-7.864486e+001	-1.698000e+002	-8.278636e+001	-1.337819e+002	-1.264811e+000	-1.059054e+002
110194019	-9.418040e-001	-1.072023e+002	-8.317885e+001	-1.410805e+002	-8.217618e+001	-1.272047e+002	-1.263208e+000	-1.059290e+002
110196020	-9.408288e-001	-1.072069e+002	-7.676157e+001	-1.312934e+002	-7.651831e+001	-1.580596e+002	-1.263324e+000	-1.059086e+002
110198020	-9.418419e-001	-1.072188e+002	-7.811849e+001	-1.689216e+002	-7.747035e+001	-1.702262e+002	-1.260638e+000	-1.059360e+002
110200020	-9.406777e-001	-1.072272e+002	-7.815097e+001	-1.745254e+002	-8.518952e+001	1.785496e+002	-1.261074e+000	-1.059328e+002
110202020	-9.407627e-001	-1.072151e+002	-7.774172e+001	-1.478530e+002	-7.752034e+001	-1.686452e+002	-1.263318e+000	-1.059211e+002
110204020	-9.414374e-001	-1.072264e+002	-8.482975e+001	-1.691081e+002	-7.902187e+001	-1.593733e+002	-1.264002e+000	-1.059414e+002
110206021	-9.421866e-001	-1.072259e+002	-7.858699e+001	-1.507685e+002	-8.343675e+001	-1.231500e+002	-1.263369e+000	-1.059360e+002
110208021	-9.414563e-001	-1.072324e+002	-8.003161e+001	-1.363480e+002	-7.956709e+001	-1.154875e+002	-1.261588e+000	-1.059426e+002
110210021	-9.444235e-001	-1.072417e+002	-8.105414e+001	-1.283508e+002	-7.680363e+001	-1.417203e+002	-1.263723e+000	-1.059473e+002
110212021	-9.421193e-001	-1.072340e+002	-8.281173e+001	-1.447664e+002	-8.001757e+001	-1.580724e+002	-1.264522e+000	-1.059348e+002
110214021	-9.402980e-001	-1.072292e+002	-7.863245e+001	-1.412165e+002	-8.004933e+001	-1.386139e+002	-1.265192e+000	-1.059375e+002
110216022	-9.431827e-001	-1.072346e+002	-8.258396e+001	-1.388574e+002	-8.160036e+001	-1.765507e+002	-1.266299e+000	-1.059466e+002
110218022	-9.415668e-001	-1.072234e+002	-7.573960e+001	-1.473773e+002	-8.611454e+001	-1.535297e+002	-1.265235e+000	-1.059499e+002
110220022	-9.399023e-001	-1.072275e+002	-8.227089e+001	-1.185877e+002	-7.643348e+001	-1.610580e+002	-1.260952e+000	-1.059345e+002
110222022	-9.434567e-001	-1.072276e+002	-7.735688e+001	-1.677598e+002	-7.751122e+001	1.721984e+002	-1.263242e+000	-1.059407e+002
110224022	-9.407189e-001	-1.072196e+002	-7.918930e+001	-1.564428e+002	-7.876100e+001	-1.777754e+002	-1.264087e+000	-1.059562e+002
110226023	-9.414309e-001	-1.072580e+002	-7.997620e+001	-1.676047e+002	-8.573090e+001	-1.555859e+002	-1.264830e+000	-1.059350e+002
110228023	-9.412351e-001	-1.072400e+002	-7.600273e+001	-1.449808e+002	-8.089407e+001	-1.423394e+002	-1.262000e+000	-1.059515e+002
110230023	-9.411279e-001	-1.072378e+002	-8.024181e+001	-1.370455e+002	-7.517944e+001	-1.630528e+002	-1.264307e+000	-1.059552e+002
110232023	-9.409560e-001	-1.072303e+002	-7.901069e+001	-1.713699e+002	-7.533537e+001	-1.565348e+002	-1.262141e+000	-1.059612e+002
110234023	-9.400287e-001	-1.072455e+002	-7.775710e+001	-1.326981e+002	-7.750742e+001	-1.469387e+002	-1.264236e+000	-1.059568e+002
110236024	-9.433462e-001	-1.072506e+002	-8.695384e+001	-1.244707e+002	-7.648466e+001	-1.730542e+002	-1.263613e+000	-1.059521e+002
110238024	-9.416188e-001	-1.072438e+002	-7.801997e+001	-1.705475e+002	-8.073735e+001	-1.185080e+002	-1.263473e+000	-1.059556e+002
110240024	-9.424566e-001	-1.072531e+002	-7.701539e+001	-1.609160e+002	-8.214509e+001	-1.439340e+002	-1.263366e+000	-1.059729e+002
110242024	-9.436905e-001	-1.072544e+002	-7.971179e+001	-1.458377e+002	-8.435948e+001	-1.743940e+002	-1.265952e+000	-1.059787e+002
110244024	-9.444672e-001	-1.072600e+002	-7.799894e+001	-1.319961e+002	-8.098377e+001	-1.720225e+002	-1.265829e+000	-1.059789e+002
110246025	-9.434902e-001	-1.072510e+002	-7.572912e+001	-1.218775e+002	-7.765553e+001	-1.494204e+002	-1.263619e+000	-1.059856e+002
110248025	-9.416320e-001	-1.072576e+002	-7.729343e+001	-1.339011e+002	-8.437677e+001	-1.743710e+002	-1.263318e+000	-1.059775e+002
110250025	-9.398270e-001	-1.072648e+002	-7.735046e+001	-1.489083e+002	-7.899382e+001	-1.592650e+002	-1.263673e+000	-1.059757e+002
110252025	-9.430865e-001	-1.072660e+002	-8.066156e+001	-1.506279e+002	-7.888994e+001	-1.461510e+002	-1.265092e+000	-1.059720e+002
110254025	-9.417917e-001	-1.072610e+002	-7.752874e+001	-1.332905e+002	-8.126707e+001	-1.419078e+002	-1.263287e+000	-1.059782e+002
110256026	-9.423787e-001	-1.072744e+002	-7.850883e+001	-1.469951e+002	-7.672757e+001	-1.621383e+002	-1.263045e+000	-1.059825e+002
110258026	-9.424467e-001	-1.072698e+002	-7.724857e+001	-1.594480e+002	-7.804006e+001	1.729507e+002	-1.264447e+000	-1.059974e+002
110260026	-9.428773e-001	-1.072608e+002	-7.819251e+001	-1.755673e+002	-7.892276e+001	-1.500869e+002	-1.267591e+000	-1.059778e+002
110262026	-9.436116e-001	-1.072622e+002	-8.403486e+001	1.772678e+002	-8.177822e+001	-1.100726e+002	-1.264282e+000	-1.059930e+002
110264026	-9.407593e-001	-1.072799e+002	-7.970721e+001	-1.103910e+002	-7.664153e+001	-1.651937e+002	-1.267922e+000	-1.059923e+002
110266027	-9.398274e-001	-1.072769e+002	-7.763405e+001	-1.443721e+002	-7.908908e+001	-1.398216e+002	-1.265227e+000	-1.060018e+002
110268027	-9.425872e-001	-1.072810e+002	-7.817372e+001	-1.535981e+002	-8.419389e+001	-1.566539e+002	-1.265522e+000	-1.059828e+002
110270027	-9.414241e-001	-1.072810e+002	-8.481262e+001	-1.689564e+002	-7.918769e+001	-1.768203e+002	-1.265747e+000	-1.059868e+002
110272027	-9.424803e-001	-1.072728e+002	-8.118317e+001	-1.490368e+002	-7.793246e+001	-1.655867e+002	-1.265349e+000	-1.059900e+002
110274027	-9.430897e-001	-1.072848e+002	-8.010675e+001	-1.348469e+002	-7.801391e+001	-1.666492e+002	-1.265278e+000	-1.060009e+002
110276028	-9.414621e-001	-1.072733e+002	-8.182027e+001	-1.553701e+002	-8.172977e+001	-1.282889e+002	-1.266981e+000	-1.059895e+002
110278028	-9.425568e-001	-1.072736e+002	-7.528991e+001	-1.644064e+002	-7.777960e+001	-1.404799e+002	-1.266030e+000	-1.059869e+002
110280028	-9.447493e-001	-1.072854e+002	-7.870521e+001	-1.591836e+002	-7.814266e+001	-1.391406e+002	-1.264185e+000	-1.059972e+002
110282028	-9.408785e-001	-1.072963e+002	-7.532441e+001	-1.329022e+002	-8.174796e+001	-1.651482e+002	-1.264802e+000	-1.060030e+002
110284028	-9.422560e-001	-1.072995e+002	-7.764876e+001	-1.689860e+002	-7.961472e+001	-1.653682e+002	-1.267082e+000	-1.060241e+002
110286029	-9.427840e-001	-1.072897e+002	-7.688478e+001	-1.315998e+002	-8.156201e+001	-1.538801e+002	-1.265721e+000	-1.060076e+002
110288029	-9.431996e-001	-1.073050e+002	-7.689537e+001	-1.584894e+002	-8.371988e+001	1.564302e+002	-1.267258e+000	-1.060133e+002
110290029	-9.437430e-001	-1.072893e+002	-8.069558e+001	-1.293413e+002	-7.994785e+001	-1.730933e+002	-1.264452e+000	-1.060071e+002
110292029	-9.433080e-001	-1.073064e+002	-7.996962e+001	-1.531906e+002	-7.722356e+001	-1.263896e+002	-1.267418e+000	-1.060220e+002
110294029	-9.414968e-001	-1.073003e+002	-7.878178e+001	-1.640198e+002	-8.075557e+001	-1.560435e+002	-1.265875e+000	-1.060137e+002
110296030	-9.442023e-001	-1.073035e+002	-8.028429e+001	-1.679364e+002	-7.757536e+001	-1.183192e+002	-1.267508e+000	-1.060119e+002
110298030	-9.437145e-001	-1.072946e+002	-7.925008e+001	-1.472115e+002	-7.892568e+001	1.783050e+002	-1.266724e+000	-1.060254e+002
110300030	-9.438942e-001	-1.073071e+002	-8.040896e+001	-1.339076e+002	-7.846720e+001	-1.326691e+002	-1.264892e+000	-1.060222e+002
