!Agilent Technologies,E5071C,MY46520923,B.12.03
!Date: Tue Feb 06 09:33:40 2024
!Data & Calibration Information:
!Freq	S11:SOLT2(ON)	S21:SOLT2(ON)	S12:SOLT2(ON)	S22:SOLT2(ON)
!PortZ  Port1:50+j0    Port2:50+j0
!Above PortZ is port z conversion or system Z0 setting when saving the data.
!When reading, reference impedance value at option line is always used.
# Hz S dB R 50
110000000	-9.698630e-001	-1.077848e+002	-8.268540e+001	1.726141e+002	-7.972281e+001	-1.743166e+002	-1.140833e+000	-1.055749e+002
110002000	-9.704556e-001	-1.077955e+002	-7.382391e+001	-1.559276e+002	-7.809199e+001	1.643115e+002	-1.143687e+000	-1.055670e+002
110004000	-9.710638e-001	-1.077778e+002	-7.846970e+001	-1.510040e+002	-7.808651e+001	-1.613636e+002	-1.141648e+000	-1.055679e+002
110006001	-9.714509e-001	-1.077885e+002	-8.012454e+001	-1.566453e+002	-7.741054e+001	-1.683000e+002	-1.143141e+000	-1.055678e+002
110008001	-9.707258e-001	-1.077891e+002	-7.648322e+001	-1.652555e+002	-7.998351e+001	-1.635866e+002	-1.142974e+000	-1.055835e+002
110010001	-9.706202e-001	-1.077966e+002	-8.113575e+001	-1.553386e+002	-8.551079e+001	-1.528590e+002	-1.143054e+000	-1.055611e+002
110012001	-9.712057e-001	-1.078118e+002	-8.201961e+001	1.629401e+002	-7.797561e+001	-1.664473e+002	-1.145359e+000	-1.055691e+002
110014001	-9.716354e-001	-1.077876e+002	-7.875802e+001	1.720394e+002	-7.586557e+001	-1.688311e+002	-1.143122e+000	-1.055751e+002
110016002	-9.710474e-001	-1.078031e+002	-8.515856e+001	1.586495e+002	-8.030054e+001	-1.773283e+002	-1.143727e+000	-1.055696e+002
110018002	-9.685281e-001	-1.078167e+002	-8.060664e+001	-1.605716e+002	-8.082419e+001	1.610825e+002	-1.144335e+000	-1.055764e+002
110020002	-9.719511e-001	-1.078061e+002	-8.254237e+001	-1.726885e+002	-8.120032e+001	-1.322799e+002	-1.141270e+000	-1.055698e+002
110022002	-9.701361e-001	-1.078119e+002	-7.673033e+001	-1.507186e+002	-7.844664e+001	1.388988e+002	-1.140845e+000	-1.055841e+002
110024002	-9.720455e-001	-1.078235e+002	-8.075613e+001	-1.546098e+002	-7.684274e+001	-1.769957e+002	-1.140981e+000	-1.055712e+002
110026003	-9.710370e-001	-1.078131e+002	-7.888349e+001	1.691627e+002	-7.747488e+001	1.778093e+002	-1.140319e+000	-1.055882e+002
110028003	-9.691813e-001	-1.078124e+002	-7.945721e+001	1.608881e+002	-8.015458e+001	-1.440510e+002	-1.141537e+000	-1.055977e+002
110030003	-9.704174e-001	-1.078209e+002	-8.233856e+001	-1.665889e+002	-7.529841e+001	-1.513470e+002	-1.146327e+000	-1.055838e+002
110032003	-9.736813e-001	-1.078237e+002	-7.898688e+001	-1.380509e+002	-7.669293e+001	-1.664776e+002	-1.143688e+000	-1.055919e+002
110034003	-9.737368e-001	-1.078357e+002	-7.964440e+001	1.557244e+002	-7.773897e+001	-1.776734e+002	-1.145498e+000	-1.056024e+002
110036004	-9.709311e-001	-1.078072e+002	-8.088024e+001	-1.459644e+002	-8.038714e+001	-1.655564e+002	-1.144661e+000	-1.055904e+002
110038004	-9.726388e-001	-1.078157e+002	-8.254010e+001	-1.726834e+002	-8.257555e+001	1.668460e+002	-1.143658e+000	-1.056007e+002
110040004	-9.712637e-001	-1.078206e+002	-8.132402e+001	1.697680e+002	-7.654906e+001	1.755676e+002	-1.142204e+000	-1.055825e+002
110042004	-9.716237e-001	-1.078284e+002	-7.996704e+001	-1.203897e+002	-7.902408e+001	-1.630921e+002	-1.140376e+000	-1.055956e+002
110044004	-9.702481e-001	-1.078219e+002	-7.974480e+001	-1.524697e+002	-7.925304e+001	-1.602717e+002	-1.145200e+000	-1.055949e+002
110046005	-9.713071e-001	-1.078181e+002	-7.760892e+001	-1.798746e+002	-7.903466e+001	-1.457974e+002	-1.142957e+000	-1.056011e+002
110048005	-9.700829e-001	-1.078209e+002	-7.675688e+001	-1.799729e+002	-8.151423e+001	-1.607205e+002	-1.142306e+000	-1.056114e+002
110050005	-9.729775e-001	-1.078202e+002	-8.093140e+001	-1.497489e+002	-8.056787e+001	-1.485307e+002	-1.145393e+000	-1.055922e+002
110052005	-9.702180e-001	-1.078415e+002	-7.538451e+001	1.770588e+002	-7.985889e+001	-1.797662e+002	-1.141726e+000	-1.056122e+002
110054005	-9.742929e-001	-1.078438e+002	-8.035407e+001	-1.794174e+002	-7.993248e+001	-1.572316e+002	-1.141012e+000	-1.056057e+002
110056006	-9.735244e-001	-1.078372e+002	-8.112874e+001	-1.665459e+002	-8.269211e+001	1.608167e+002	-1.142160e+000	-1.056075e+002
110058006	-9.726791e-001	-1.078519e+002	-9.067807e+001	-1.322494e+002	-7.837930e+001	-1.547876e+002	-1.142742e+000	-1.056173e+002
110060006	-9.737729e-001	-1.078416e+002	-7.572570e+001	-1.683914e+002	-7.820076e+001	-1.548893e+002	-1.143559e+000	-1.056158e+002
110062006	-9.721948e-001	-1.078374e+002	-7.640920e+001	1.799827e+002	-8.021212e+001	-1.455748e+002	-1.143417e+000	-1.056268e+002
110064006	-9.706099e-001	-1.078507e+002	-7.784117e+001	-1.711688e+002	-7.692598e+001	-1.576817e+002	-1.145009e+000	-1.056263e+002
110066007	-9.707676e-001	-1.078535e+002	-8.293522e+001	-1.535014e+002	-8.027449e+001	1.573836e+002	-1.142906e+000	-1.056288e+002
110068007	-9.710660e-001	-1.078546e+002	-7.577411e+001	-1.505472e+002	-8.238911e+001	-1.524127e+002	-1.141321e+000	-1.056282e+002
110070007	-9.709148e-001	-1.078557e+002	-8.138736e+001	-1.602481e+002	-8.084959e+001	-1.499097e+002	-1.143852e+000	-1.056291e+002
110072007	-9.723207e-001	-1.078586e+002	-8.175805e+001	-1.360610e+002	-7.790148e+001	-1.676456e+002	-1.143800e+000	-1.056241e+002
110074007	-9.708531e-001	-1.078624e+002	-8.493176e+001	-1.581733e+002	-8.032004e+001	-1.756005e+002	-1.145116e+000	-1.056283e+002
110076008	-9.724469e-001	-1.078467e+002	-7.412386e+001	-1.544840e+002	-8.050808e+001	-1.707219e+002	-1.145033e+000	-1.056352e+002
110078008	-9.717087e-001	-1.078597e+002	-8.359497e+001	-1.785827e+002	-7.987078e+001	1.767945e+002	-1.145625e+000	-1.056425e+002
110080008	-9.716317e-001	-1.078553e+002	-8.130701e+001	-1.643137e+002	-8.103214e+001	-1.714961e+002	-1.143005e+000	-1.056296e+002
110082008	-9.734151e-001	-1.078497e+002	-8.777533e+001	-1.106636e+002	-8.156858e+001	-1.722583e+002	-1.144183e+000	-1.056249e+002
110084008	-9.734096e-001	-1.078629e+002	-7.809422e+001	-1.669826e+002	-8.372615e+001	1.758022e+002	-1.144329e+000	-1.056500e+002
110086009	-9.736614e-001	-1.078609e+002	-7.851816e+001	1.749835e+002	-7.981459e+001	-1.493149e+002	-1.146374e+000	-1.056283e+002
110088009	-9.720722e-001	-1.078531e+002	-8.428673e+001	-1.268230e+002	-8.609936e+001	-1.113981e+002	-1.144496e+000	-1.056401e+002
110090009	-9.730080e-001	-1.078722e+002	-8.863879e+001	-1.389841e+002	-8.008454e+001	1.761509e+002	-1.144789e+000	-1.056413e+002
110092009	-9.715177e-001	-1.078750e+002	-7.744815e+001	-1.459875e+002	-8.838247e+001	1.652240e+002	-1.144935e+000	-1.056281e+002
110094009	-9.733449e-001	-1.078773e+002	-7.811439e+001	-1.629242e+002	-7.777563e+001	-1.711938e+002	-1.142776e+000	-1.056437e+002
110096010	-9.730406e-001	-1.078894e+002	-7.865557e+001	-1.728573e+002	-8.142739e+001	-1.663222e+002	-1.145125e+000	-1.056510e+002
110098010	-9.723189e-001	-1.078705e+002	-7.962648e+001	-1.625042e+002	-8.308318e+001	1.347641e+002	-1.144999e+000	-1.056515e+002
110100010	-9.741155e-001	-1.078851e+002	-8.005610e+001	-1.393246e+002	-8.111538e+001	1.641019e+002	-1.143645e+000	-1.056574e+002
110102010	-9.729079e-001	-1.078932e+002	-7.924896e+001	-1.473017e+002	-8.286014e+001	-1.792073e+002	-1.144358e+000	-1.056519e+002
110104010	-9.708399e-001	-1.078942e+002	-9.218266e+001	-1.543901e+002	-8.736359e+001	-1.474008e+002	-1.145872e+000	-1.056617e+002
110106011	-9.730849e-001	-1.078758e+002	-8.166818e+001	-1.509640e+002	-7.668620e+001	1.648897e+002	-1.144544e+000	-1.056657e+002
110108011	-9.721558e-001	-1.078934e+002	-8.453830e+001	-1.591856e+002	-8.289700e+001	1.757623e+002	-1.145407e+000	-1.056353e+002
110110011	-9.715324e-001	-1.078905e+002	-8.221125e+001	1.729331e+002	-7.776504e+001	1.741710e+002	-1.144815e+000	-1.056637e+002
110112011	-9.732783e-001	-1.078946e+002	-7.757571e+001	1.754719e+002	-7.964306e+001	-1.633567e+002	-1.147756e+000	-1.056592e+002
110114011	-9.728799e-001	-1.079029e+002	-8.573445e+001	1.538945e+002	-7.958569e+001	-1.663765e+002	-1.145400e+000	-1.056749e+002
110116012	-9.725207e-001	-1.078959e+002	-7.935475e+001	-1.765379e+002	-7.987548e+001	-1.634468e+002	-1.143348e+000	-1.056692e+002
110118012	-9.746843e-001	-1.078939e+002	-7.935110e+001	1.747128e+002	-8.340427e+001	-1.755770e+002	-1.146190e+000	-1.056513e+002
110120012	-9.740395e-001	-1.078968e+002	-7.793765e+001	1.753634e+002	-8.403401e+001	-1.689657e+002	-1.145336e+000	-1.056708e+002
110122012	-9.721630e-001	-1.079055e+002	-7.833520e+001	-1.414461e+002	-7.942481e+001	-1.556573e+002	-1.145202e+000	-1.056625e+002
110124012	-9.723359e-001	-1.079176e+002	-7.942246e+001	-1.690100e+002	-8.274716e+001	-1.586391e+002	-1.147147e+000	-1.056809e+002
110126013	-9.732335e-001	-1.079124e+002	-8.182047e+001	1.692593e+002	-8.352687e+001	-1.732924e+002	-1.146300e+000	-1.056840e+002
110128013	-9.730654e-001	-1.079081e+002	-7.487810e+001	-1.535695e+002	-8.177309e+001	-1.626173e+002	-1.144010e+000	-1.056797e+002
110130013	-9.723028e-001	-1.079022e+002	-8.780656e+001	-1.525919e+002	-8.150108e+001	1.482228e+002	-1.145687e+000	-1.056835e+002
110132013	-9.749333e-001	-1.079102e+002	-8.197483e+001	-1.668489e+002	-8.141945e+001	1.671133e+002	-1.146427e+000	-1.056984e+002
110134013	-9.735067e-001	-1.079091e+002	-8.278151e+001	1.703407e+002	-8.092520e+001	-1.568607e+002	-1.146009e+000	-1.056917e+002
110136014	-9.728701e-001	-1.079093e+002	-8.153596e+001	-1.346275e+002	-7.935868e+001	-1.737779e+002	-1.147692e+000	-1.056866e+002
110138014	-9.744262e-001	-1.079217e+002	-8.241973e+001	-1.703730e+002	-7.805563e+001	-1.676626e+002	-1.144963e+000	-1.056897e+002
110140014	-9.736328e-001	-1.079277e+002	-7.850819e+001	-1.501497e+002	-7.966569e+001	-1.601593e+002	-1.144108e+000	-1.056863e+002
110142014	-9.714922e-001	-1.079400e+002	-8.388319e+001	1.536410e+002	-7.837410e+001	-1.586681e+002	-1.146124e+000	-1.057021e+002
110144014	-9.728307e-001	-1.079303e+002	-7.941207e+001	1.672105e+002	-8.219251e+001	-8.116338e+001	-1.146043e+000	-1.056987e+002
110146015	-9.744329e-001	-1.079267e+002	-7.732058e+001	-1.595265e+002	-8.279090e+001	1.658893e+002	-1.147536e+000	-1.056948e+002
110148015	-9.729160e-001	-1.079322e+002	-7.651281e+001	1.630123e+002	-8.134899e+001	-1.354032e+002	-1.147929e+000	-1.056928e+002
110150015	-9.722213e-001	-1.079287e+002	-8.068266e+001	-1.635353e+002	-7.852712e+001	-1.531556e+002	-1.146109e+000	-1.056970e+002
110152015	-9.719141e-001	-1.079232e+002	-8.290575e+001	-1.532887e+002	-7.987484e+001	-1.730553e+002	-1.142995e+000	-1.057094e+002
110154015	-9.718929e-001	-1.079416e+002	-8.059089e+001	1.602179e+002	-7.936959e+001	-1.784120e+002	-1.147337e+000	-1.057108e+002
110156016	-9.728150e-001	-1.079237e+002	-7.967695e+001	-1.556202e+002	-8.060161e+001	-1.428647e+002	-1.147687e+000	-1.057007e+002
110158016	-9.723249e-001	-1.079218e+002	-7.826703e+001	-1.525251e+002	-8.491885e+001	-1.670819e+002	-1.146841e+000	-1.057107e+002
110160016	-9.737906e-001	-1.079393e+002	-8.146635e+001	-1.292248e+002	-8.598142e+001	1.748981e+002	-1.147668e+000	-1.057012e+002
110162016	-9.741748e-001	-1.079401e+002	-8.118995e+001	-1.460924e+002	-7.992946e+001	-1.456590e+002	-1.146749e+000	-1.057190e+002
110164016	-9.722977e-001	-1.079370e+002	-8.247593e+001	-1.723807e+002	-8.177672e+001	1.578189e+002	-1.148156e+000	-1.057196e+002
110166017	-9.740765e-001	-1.079450e+002	-7.990368e+001	-1.698178e+002	-8.001489e+001	1.799051e+002	-1.146720e+000	-1.057200e+002
110168017	-9.729563e-001	-1.079467e+002	-9.356576e+001	-1.139809e+002	-8.036017e+001	-1.635916e+002	-1.147460e+000	-1.057191e+002
110170017	-9.736393e-001	-1.079509e+002	-7.783455e+001	-1.525543e+002	-8.414106e+001	-1.637365e+002	-1.149416e+000	-1.057113e+002
110172017	-9.748279e-001	-1.079529e+002	-8.561621e+001	-9.083198e+001	-7.898102e+001	1.645700e+002	-1.144972e+000	-1.057197e+002
110174017	-9.745534e-001	-1.079643e+002	-7.971757e+001	-1.346903e+002	-8.490161e+001	-1.670229e+002	-1.147369e+000	-1.057207e+002
110176018	-9.729053e-001	-1.079536e+002	-7.932436e+001	-1.614550e+002	-7.788531e+001	-1.444506e+002	-1.145139e+000	-1.057177e+002
110178018	-9.759697e-001	-1.079642e+002	-7.818740e+001	-1.403065e+002	-7.951699e+001	1.762836e+002	-1.148399e+000	-1.057321e+002
110180018	-9.750408e-001	-1.079585e+002	-8.120364e+001	-1.623104e+002	-8.588765e+001	-1.553738e+002	-1.145915e+000	-1.057256e+002
110182018	-9.730279e-001	-1.079582e+002	-7.998075e+001	-1.648804e+002	-8.176144e+001	-1.565531e+002	-1.146635e+000	-1.057209e+002
110184018	-9.740062e-001	-1.079579e+002	-8.121226e+001	-1.623641e+002	-8.000933e+001	-1.488379e+002	-1.146807e+000	-1.057468e+002
110186019	-9.735113e-001	-1.079673e+002	-8.276299e+001	-1.435090e+002	-8.077088e+001	-1.160695e+002	-1.144132e+000	-1.057366e+002
110188019	-9.735459e-001	-1.079754e+002	-8.102530e+001	-1.736864e+002	-8.846784e+001	-1.319090e+002	-1.147826e+000	-1.057376e+002
110190019	-9.745717e-001	-1.079571e+002	-8.127040e+001	-1.501658e+002	-7.756969e+001	-1.596976e+002	-1.147451e+000	-1.057436e+002
110192019	-9.748044e-001	-1.079702e+002	-7.931929e+001	1.644356e+002	-7.919636e+001	-1.358973e+002	-1.145600e+000	-1.057395e+002
110194019	-9.739504e-001	-1.079687e+002	-8.096350e+001	-1.086534e+002	-8.376330e+001	-1.408723e+002	-1.147643e+000	-1.057491e+002
110196020	-9.753642e-001	-1.079717e+002	-8.018362e+001	-1.484150e+002	-7.692952e+001	-1.733794e+002	-1.149496e+000	-1.057534e+002
110198020	-9.751302e-001	-1.079750e+002	-8.269504e+001	-1.464546e+002	-8.789684e+001	-1.705561e+002	-1.147796e+000	-1.057475e+002
110200020	-9.742482e-001	-1.079872e+002	-8.288308e+001	-9.298061e+001	-8.175848e+001	-1.545636e+002	-1.149110e+000	-1.057294e+002
110202020	-9.733968e-001	-1.079731e+002	-8.903867e+001	-1.420796e+002	-8.264685e+001	-1.762533e+002	-1.148484e+000	-1.057496e+002
110204020	-9.738473e-001	-1.079784e+002	-8.904683e+001	1.405061e+002	-8.289683e+001	1.759360e+002	-1.147175e+000	-1.057331e+002
110206021	-9.732392e-001	-1.079750e+002	-8.732840e+001	-1.357672e+002	-8.533588e+001	1.736085e+002	-1.147053e+000	-1.057382e+002
110208021	-9.750163e-001	-1.079831e+002	-7.703191e+001	-1.552050e+002	-7.984233e+001	-1.537322e+002	-1.145195e+000	-1.057519e+002
110210021	-9.742299e-001	-1.079761e+002	-8.219914e+001	-1.182067e+002	-7.582411e+001	-1.514633e+002	-1.147980e+000	-1.057555e+002
110212021	-9.747148e-001	-1.079860e+002	-8.416305e+001	-1.230140e+002	-8.036827e+001	-1.618408e+002	-1.147837e+000	-1.057607e+002
110214021	-9.764659e-001	-1.079966e+002	-7.966453e+001	-1.487187e+002	-8.145667e+001	-1.584843e+002	-1.146901e+000	-1.057513e+002
110216022	-9.762177e-001	-1.079802e+002	-7.668715e+001	-1.395485e+002	-8.333150e+001	1.632208e+002	-1.149842e+000	-1.057539e+002
110218022	-9.730721e-001	-1.079880e+002	-8.949174e+001	-8.130900e+001	-7.792044e+001	-1.456486e+002	-1.147947e+000	-1.057548e+002
110220022	-9.758249e-001	-1.079960e+002	-8.048868e+001	-1.429302e+002	-8.303921e+001	-1.421779e+002	-1.146910e+000	-1.057621e+002
110222022	-9.765400e-001	-1.079997e+002	-8.199544e+001	-1.603371e+002	-8.203547e+001	-1.625168e+002	-1.146324e+000	-1.057678e+002
110224022	-9.758148e-001	-1.079928e+002	-7.993089e+001	-1.712861e+002	-7.950283e+001	-1.414748e+002	-1.148522e+000	-1.057744e+002
110226023	-9.749980e-001	-1.079959e+002	-7.895871e+001	-1.497154e+002	-7.741018e+001	-1.297697e+002	-1.149238e+000	-1.057699e+002
110228023	-9.749508e-001	-1.080309e+002	-8.298673e+001	-1.420244e+002	-8.040141e+001	-1.720604e+002	-1.147195e+000	-1.057773e+002
110230023	-9.762102e-001	-1.080039e+002	-8.006619e+001	-1.678156e+002	-8.132277e+001	-1.268516e+002	-1.147731e+000	-1.057830e+002
110232023	-9.741034e-001	-1.080194e+002	-8.380008e+001	-1.374656e+002	-7.950991e+001	-1.414530e+002	-1.147624e+000	-1.057755e+002
110234023	-9.750409e-001	-1.080005e+002	-8.172823e+001	-1.357211e+002	-7.678343e+001	-1.213230e+002	-1.148539e+000	-1.057746e+002
110236024	-9.755270e-001	-1.079971e+002	-7.913604e+001	-1.490064e+002	-8.288337e+001	-1.471521e+002	-1.148066e+000	-1.057890e+002
110238024	-9.750175e-001	-1.080311e+002	-8.390107e+001	-1.630540e+002	-8.221189e+001	-1.393707e+002	-1.147578e+000	-1.057673e+002
110240024	-9.765140e-001	-1.080162e+002	-8.109027e+001	-1.394898e+002	-8.303531e+001	-1.561281e+002	-1.148308e+000	-1.057836e+002
110242024	-9.777664e-001	-1.080161e+002	-7.689842e+001	-1.333542e+002	-7.834060e+001	-1.570731e+002	-1.148219e+000	-1.057904e+002
110244024	-9.771216e-001	-1.080192e+002	-7.800291e+001	-1.472587e+002	-8.262116e+001	-1.406817e+002	-1.146775e+000	-1.057877e+002
110246025	-9.733448e-001	-1.080143e+002	-8.246659e+001	-1.266989e+002	-8.264149e+001	-1.149501e+002	-1.147979e+000	-1.057936e+002
110248025	-9.750917e-001	-1.080336e+002	-7.757353e+001	-1.433488e+002	-7.905105e+001	-1.482131e+002	-1.146709e+000	-1.057890e+002
110250025	-9.749133e-001	-1.080326e+002	-8.271627e+001	-1.697930e+002	-7.916148e+001	-1.554441e+002	-1.147287e+000	-1.057982e+002
110252025	-9.772828e-001	-1.080246e+002	-8.000127e+001	-1.186493e+002	-8.082102e+001	-1.422515e+002	-1.147951e+000	-1.057973e+002
110254025	-9.763217e-001	-1.080348e+002	-8.072132e+001	-1.478987e+002	-8.062205e+001	-1.601267e+002	-1.150290e+000	-1.057907e+002
110256026	-9.735722e-001	-1.080364e+002	-7.988143e+001	-1.456746e+002	-7.824622e+001	-1.437223e+002	-1.149507e+000	-1.058026e+002
110258026	-9.735491e-001	-1.080433e+002	-7.655637e+001	-1.356910e+002	-7.813105e+001	-1.370963e+002	-1.146849e+000	-1.058121e+002
110260026	-9.756620e-001	-1.080305e+002	-7.946709e+001	-1.419770e+002	-7.861155e+001	-1.342926e+002	-1.147919e+000	-1.058031e+002
110262026	-9.753466e-001	-1.080382e+002	-7.607994e+001	-1.522839e+002	-8.129093e+001	-1.697047e+002	-1.148670e+000	-1.058014e+002
110264026	-9.746519e-001	-1.080381e+002	-8.122673e+001	-1.582053e+002	-7.857948e+001	-1.416864e+002	-1.150536e+000	-1.058177e+002
110266027	-9.734815e-001	-1.080462e+002	-8.129698e+001	-1.383725e+002	-7.777512e+001	-1.419660e+002	-1.149792e+000	-1.058096e+002
110268027	-9.775787e-001	-1.080567e+002	-8.317443e+001	-1.760699e+002	-8.271472e+001	-1.584292e+002	-1.147245e+000	-1.058200e+002
110270027	-9.740232e-001	-1.080531e+002	-8.391291e+001	-9.316137e+001	-8.096644e+001	-1.302335e+002	-1.149992e+000	-1.058167e+002
110272027	-9.764149e-001	-1.080462e+002	-7.540099e+001	-1.523905e+002	-8.094280e+001	-1.120964e+002	-1.148475e+000	-1.058089e+002
110274027	-9.779450e-001	-1.080380e+002	-7.774190e+001	-1.408740e+002	-8.197518e+001	-1.502344e+002	-1.150737e+000	-1.058227e+002
110276028	-9.752784e-001	-1.080485e+002	-7.748654e+001	-1.562474e+002	-8.685125e+001	-1.365953e+002	-1.148574e+000	-1.058213e+002
110278028	-9.769275e-001	-1.080408e+002	-7.868802e+001	-1.288782e+002	-7.616256e+001	-1.531415e+002	-1.150136e+000	-1.058220e+002
110280028	-9.756543e-001	-1.080487e+002	-8.124317e+001	-1.581259e+002	-8.480535e+001	-1.470833e+002	-1.148699e+000	-1.058179e+002
110282028	-9.747541e-001	-1.080634e+002	-7.938411e+001	-1.086073e+002	-8.037217e+001	-1.600797e+002	-1.148223e+000	-1.058318e+002
110284028	-9.755034e-001	-1.080580e+002	-7.657990e+001	-1.621581e+002	-8.176063e+001	-1.147529e+002	-1.150078e+000	-1.058166e+002
110286029	-9.773353e-001	-1.080682e+002	-8.034956e+001	-1.621754e+002	-8.332178e+001	-1.339310e+002	-1.150004e+000	-1.058246e+002
110288029	-9.753063e-001	-1.080427e+002	-7.803546e+001	-1.126336e+002	-8.063915e+001	-1.443000e+002	-1.151756e+000	-1.058244e+002
110290029	-9.763988e-001	-1.080669e+002	-9.187804e+001	1.387475e+002	-7.983409e+001	-1.438875e+002	-1.148054e+000	-1.058345e+002
110292029	-9.751541e-001	-1.080653e+002	-7.966087e+001	-1.410269e+002	-8.083334e+001	-1.286103e+002	-1.148739e+000	-1.058226e+002
110294029	-9.781153e-001	-1.080790e+002	-7.980976e+001	-1.421662e+002	-7.873508e+001	-1.610843e+002	-1.150223e+000	-1.058137e+002
110296030	-9.777283e-001	-1.080770e+002	-8.126963e+001	-1.732718e+002	-8.060829e+001	-1.617741e+002	-1.147392e+000	-1.058343e+002
110298030	-9.772216e-001	-1.080644e+002	-7.898669e+001	-1.425986e+002	-7.938135e+001	-1.446742e+002	-1.148512e+000	-1.058382e+002
110300030	-9.771558e-001	-1.080753e+002	-8.124232e+001	-1.278551e+002	-7.682792e+001	-1.236937e+002	-1.150234e+000	-1.058434e+002
