!Agilent Technologies,E5071C,MY46520923,B.12.03
!Date: Wed Feb 07 10:59:38 2024
!Data & Calibration Information:
!Freq	S11:SOLT2(ON)	S21:SOLT2(ON)	S12:SOLT2(ON)	S22:SOLT2(ON)
!PortZ  Port1:50+j0    Port2:50+j0
!Above PortZ is port z conversion or system Z0 setting when saving the data.
!When reading, reference impedance value at option line is always used.
# Hz S dB R 50
110000000	-9.306207e-001	-1.070051e+002	-7.756737e+001	1.797835e+002	-7.757456e+001	-1.326295e+002	-1.140958e+000	-1.062472e+002
110002000	-9.314299e-001	-1.069904e+002	-8.105960e+001	1.792026e+002	-7.788069e+001	-1.424579e+002	-1.140398e+000	-1.062354e+002
110004000	-9.342375e-001	-1.070134e+002	-8.039429e+001	-1.765864e+002	-7.951206e+001	-1.489286e+002	-1.140825e+000	-1.062431e+002
110006001	-9.312406e-001	-1.070122e+002	-8.042669e+001	-1.636546e+002	-8.239696e+001	-1.072390e+002	-1.142226e+000	-1.062519e+002
110008001	-9.311441e-001	-1.070117e+002	-7.794421e+001	-1.217876e+002	-8.130198e+001	-1.604202e+002	-1.138980e+000	-1.062449e+002
110010001	-9.317880e-001	-1.070241e+002	-8.010769e+001	-1.475538e+002	-7.885767e+001	-1.501181e+002	-1.139339e+000	-1.062560e+002
110012001	-9.330831e-001	-1.070294e+002	-8.488303e+001	-1.711983e+002	-8.429985e+001	-1.614767e+002	-1.139217e+000	-1.062461e+002
110014001	-9.316486e-001	-1.070355e+002	-7.860943e+001	-1.632369e+002	-7.822845e+001	-1.589043e+002	-1.141418e+000	-1.062513e+002
110016002	-9.307335e-001	-1.070008e+002	-8.145057e+001	-1.740382e+002	-8.377486e+001	-1.739695e+002	-1.140914e+000	-1.062501e+002
110018002	-9.326448e-001	-1.070208e+002	-8.200164e+001	-1.304496e+002	-8.244867e+001	-1.704205e+002	-1.141190e+000	-1.062547e+002
110020002	-9.361974e-001	-1.070237e+002	-8.359669e+001	-1.779753e+002	-8.318535e+001	1.796205e+002	-1.138735e+000	-1.062661e+002
110022002	-9.326698e-001	-1.070310e+002	-7.836709e+001	1.632037e+002	-8.119585e+001	1.652523e+002	-1.137838e+000	-1.062426e+002
110024002	-9.321790e-001	-1.070322e+002	-7.946314e+001	-1.714523e+002	-7.663845e+001	-1.619219e+002	-1.140354e+000	-1.062425e+002
110026003	-9.324725e-001	-1.070152e+002	-7.728992e+001	-1.450190e+002	-7.615365e+001	-1.485822e+002	-1.140749e+000	-1.062693e+002
110028003	-9.314594e-001	-1.070409e+002	-8.241676e+001	-1.382106e+002	-7.963189e+001	-1.732883e+002	-1.141140e+000	-1.062624e+002
110030003	-9.343315e-001	-1.070315e+002	-7.690589e+001	-1.619246e+002	-8.604285e+001	-1.375530e+002	-1.140261e+000	-1.062665e+002
110032003	-9.337519e-001	-1.070342e+002	-7.886757e+001	-1.795023e+002	-7.867968e+001	-1.750755e+002	-1.141209e+000	-1.062680e+002
110034003	-9.334866e-001	-1.070322e+002	-7.797216e+001	1.777739e+002	-7.615475e+001	-1.744114e+002	-1.139535e+000	-1.062802e+002
110036004	-9.351044e-001	-1.070293e+002	-7.880155e+001	-1.643931e+002	-7.634133e+001	-1.735075e+002	-1.141083e+000	-1.062681e+002
110038004	-9.324937e-001	-1.070462e+002	-7.822862e+001	-1.569242e+002	-7.902429e+001	-1.583829e+002	-1.137776e+000	-1.062815e+002
110040004	-9.337395e-001	-1.070254e+002	-7.924176e+001	-1.367140e+002	-7.849688e+001	1.796203e+002	-1.137970e+000	-1.062585e+002
110042004	-9.330451e-001	-1.070434e+002	-8.109873e+001	-1.755909e+002	-7.740789e+001	-1.569275e+002	-1.137256e+000	-1.062822e+002
110044004	-9.325950e-001	-1.070388e+002	-8.033313e+001	-1.619525e+002	-7.899028e+001	-1.343602e+002	-1.140479e+000	-1.062683e+002
110046005	-9.337052e-001	-1.070502e+002	-7.975688e+001	1.663199e+002	-8.119855e+001	-1.714035e+002	-1.139012e+000	-1.062936e+002
110048005	-9.326633e-001	-1.070497e+002	-8.010786e+001	-1.636627e+002	-8.336136e+001	-1.735152e+002	-1.138768e+000	-1.062946e+002
110050005	-9.349019e-001	-1.070574e+002	-7.896892e+001	-1.628454e+002	-7.723980e+001	-1.570325e+002	-1.141039e+000	-1.062880e+002
110052005	-9.324198e-001	-1.070483e+002	-7.585021e+001	-1.674633e+002	-7.994133e+001	-1.446236e+002	-1.140752e+000	-1.062947e+002
110054005	-9.319332e-001	-1.070587e+002	-7.850439e+001	-1.424212e+002	-8.181787e+001	-1.600719e+002	-1.141632e+000	-1.062737e+002
110056006	-9.336339e-001	-1.070561e+002	-7.554588e+001	-1.580153e+002	-8.061204e+001	-1.554349e+002	-1.141713e+000	-1.062857e+002
110058006	-9.320560e-001	-1.070672e+002	-8.062091e+001	-1.403870e+002	-7.764447e+001	-1.676798e+002	-1.141519e+000	-1.063131e+002
110060006	-9.326808e-001	-1.070590e+002	-7.980986e+001	-1.479907e+002	-7.844197e+001	-1.761116e+002	-1.142730e+000	-1.062957e+002
110062006	-9.315498e-001	-1.070614e+002	-7.814720e+001	-1.748105e+002	-7.956005e+001	-1.747217e+002	-1.141061e+000	-1.063013e+002
110064006	-9.346241e-001	-1.070666e+002	-7.887157e+001	-1.412215e+002	-8.312298e+001	-1.617166e+002	-1.139871e+000	-1.063039e+002
110066007	-9.351794e-001	-1.070810e+002	-8.401072e+001	-1.708876e+002	-7.995957e+001	-1.640209e+002	-1.144183e+000	-1.063025e+002
110068007	-9.346069e-001	-1.070581e+002	-7.988215e+001	-1.683814e+002	-8.822764e+001	-1.338021e+002	-1.143150e+000	-1.062825e+002
110070007	-9.329357e-001	-1.070594e+002	-7.694181e+001	-1.432962e+002	-7.783540e+001	-1.475677e+002	-1.142208e+000	-1.063031e+002
110072007	-9.326420e-001	-1.070603e+002	-7.787964e+001	-1.496167e+002	-8.208244e+001	-1.474690e+002	-1.142327e+000	-1.063112e+002
110074007	-9.362085e-001	-1.070723e+002	-8.112865e+001	-1.665970e+002	-8.194131e+001	-1.392276e+002	-1.141025e+000	-1.063054e+002
110076008	-9.358521e-001	-1.070800e+002	-8.145574e+001	1.666315e+002	-7.672837e+001	-1.684737e+002	-1.141755e+000	-1.063061e+002
110078008	-9.332916e-001	-1.070805e+002	-8.003010e+001	-1.762824e+002	-7.807239e+001	-1.374527e+002	-1.141946e+000	-1.063185e+002
110080008	-9.342771e-001	-1.071000e+002	-8.638744e+001	1.783544e+002	-8.114303e+001	-1.414969e+002	-1.141317e+000	-1.063126e+002
110082008	-9.335104e-001	-1.070906e+002	-7.916932e+001	-1.726555e+002	-8.892220e+001	-1.126769e+002	-1.139411e+000	-1.063143e+002
110084008	-9.330618e-001	-1.070874e+002	-7.536720e+001	-1.711222e+002	-7.903327e+001	-1.639602e+002	-1.141411e+000	-1.063220e+002
110086009	-9.341280e-001	-1.070946e+002	-8.155935e+001	-1.452194e+002	-7.646021e+001	-1.455695e+002	-1.141606e+000	-1.063462e+002
110088009	-9.342884e-001	-1.070893e+002	-9.337035e+001	-1.285142e+002	-8.041115e+001	-1.322000e+002	-1.142143e+000	-1.063241e+002
110090009	-9.308957e-001	-1.071097e+002	-7.769431e+001	-1.599113e+002	-8.374983e+001	-1.565039e+002	-1.142863e+000	-1.063357e+002
110092009	-9.320274e-001	-1.070818e+002	-8.210304e+001	-1.435848e+002	-7.743903e+001	-1.663363e+002	-1.142893e+000	-1.063293e+002
110094009	-9.330546e-001	-1.070872e+002	-7.770967e+001	-1.499570e+002	-8.537309e+001	-1.729641e+002	-1.141663e+000	-1.063244e+002
110096010	-9.351990e-001	-1.071022e+002	-8.016885e+001	-1.796652e+002	-8.338695e+001	1.576896e+002	-1.142496e+000	-1.063307e+002
110098010	-9.363614e-001	-1.071041e+002	-7.897011e+001	-1.697173e+002	-7.997944e+001	-1.280813e+002	-1.143384e+000	-1.063442e+002
110100010	-9.334916e-001	-1.071071e+002	-8.195442e+001	-1.417755e+002	-8.671658e+001	-1.779435e+002	-1.143071e+000	-1.063380e+002
110102010	-9.347557e-001	-1.071107e+002	-7.917954e+001	-1.726669e+002	-7.722997e+001	-1.685757e+002	-1.141497e+000	-1.063456e+002
110104010	-9.349559e-001	-1.071089e+002	-7.847612e+001	-1.299008e+002	-8.152196e+001	-1.620456e+002	-1.143274e+000	-1.063209e+002
110106011	-9.381110e-001	-1.071140e+002	-8.226961e+001	-1.642144e+002	-7.851390e+001	-1.294903e+002	-1.142553e+000	-1.063344e+002
110108011	-9.343286e-001	-1.071165e+002	-7.962098e+001	-1.713819e+002	-7.772381e+001	1.772072e+002	-1.140062e+000	-1.063367e+002
110110011	-9.342528e-001	-1.071108e+002	-8.289741e+001	-1.727417e+002	-8.233528e+001	-1.555235e+002	-1.141855e+000	-1.063627e+002
110112011	-9.329963e-001	-1.071051e+002	-8.204608e+001	1.713482e+002	-7.741996e+001	-1.759301e+002	-1.143422e+000	-1.063424e+002
110114011	-9.367262e-001	-1.071169e+002	-7.847846e+001	1.401675e+002	-7.806826e+001	-1.729660e+002	-1.142381e+000	-1.063492e+002
110116012	-9.348163e-001	-1.071166e+002	-8.194107e+001	1.606860e+002	-7.972022e+001	-1.513732e+002	-1.143784e+000	-1.063476e+002
110118012	-9.354403e-001	-1.071150e+002	-7.914509e+001	-1.131995e+002	-8.149947e+001	-1.601251e+002	-1.142634e+000	-1.063499e+002
110120012	-9.341294e-001	-1.071195e+002	-8.310501e+001	1.661645e+002	-8.255131e+001	-1.295753e+002	-1.142046e+000	-1.063524e+002
110122012	-9.348931e-001	-1.071130e+002	-7.916953e+001	-1.711555e+002	-7.844710e+001	-1.747032e+002	-1.143189e+000	-1.063547e+002
110124012	-9.341300e-001	-1.071231e+002	-8.395468e+001	-1.732218e+002	-7.955017e+001	-1.353005e+002	-1.144233e+000	-1.063649e+002
110126013	-9.345035e-001	-1.071123e+002	-7.707572e+001	-1.682719e+002	-7.741857e+001	-1.519119e+002	-1.144648e+000	-1.063572e+002
110128013	-9.355714e-001	-1.071186e+002	-8.109280e+001	-1.647001e+002	-7.781586e+001	-1.474481e+002	-1.143069e+000	-1.063576e+002
110130013	-9.347072e-001	-1.071352e+002	-8.072796e+001	-1.293820e+002	-7.828601e+001	1.731033e+002	-1.139555e+000	-1.063627e+002
110132013	-9.352172e-001	-1.071384e+002	-8.088291e+001	1.722228e+002	-7.638918e+001	-1.477710e+002	-1.144186e+000	-1.063674e+002
110134013	-9.352096e-001	-1.071237e+002	-7.898525e+001	-1.092589e+002	-8.054365e+001	-1.465349e+002	-1.145244e+000	-1.063478e+002
110136014	-9.340044e-001	-1.071526e+002	-7.795521e+001	-1.338970e+002	-8.273451e+001	-1.616649e+002	-1.142554e+000	-1.063707e+002
110138014	-9.356766e-001	-1.071407e+002	-8.030246e+001	-1.633720e+002	-7.758042e+001	-1.400660e+002	-1.143140e+000	-1.063799e+002
110140014	-9.363892e-001	-1.071525e+002	-8.261997e+001	-1.232805e+002	-7.835881e+001	-1.331322e+002	-1.144642e+000	-1.063645e+002
110142014	-9.353134e-001	-1.071371e+002	-8.047510e+001	1.659531e+002	-8.411275e+001	1.603253e+002	-1.144657e+000	-1.063597e+002
110144014	-9.370784e-001	-1.071384e+002	-7.763411e+001	-1.574266e+002	-7.922784e+001	-1.668229e+002	-1.143470e+000	-1.063912e+002
110146015	-9.345769e-001	-1.071403e+002	-8.227070e+001	-1.703377e+002	-8.054949e+001	-1.741405e+002	-1.144702e+000	-1.063661e+002
110148015	-9.346777e-001	-1.071419e+002	-8.077691e+001	-1.355436e+002	-8.209786e+001	-1.658888e+002	-1.143107e+000	-1.063865e+002
110150015	-9.363277e-001	-1.071527e+002	-8.062780e+001	-1.492542e+002	-8.092625e+001	-1.602762e+002	-1.143579e+000	-1.063722e+002
110152015	-9.354977e-001	-1.071500e+002	-8.131839e+001	-1.608697e+002	-8.148941e+001	-1.600163e+002	-1.142490e+000	-1.063937e+002
110154015	-9.362317e-001	-1.071414e+002	-7.931909e+001	-1.609093e+002	-7.527764e+001	-1.418760e+002	-1.143343e+000	-1.063924e+002
110156016	-9.358869e-001	-1.071578e+002	-7.889205e+001	-1.612886e+002	-7.835484e+001	-1.611850e+002	-1.143697e+000	-1.063713e+002
110158016	-9.363239e-001	-1.071697e+002	-7.899205e+001	-1.511184e+002	-7.730463e+001	-1.544010e+002	-1.147008e+000	-1.064020e+002
110160016	-9.358921e-001	-1.071487e+002	-7.651850e+001	-1.640070e+002	-7.699511e+001	-1.569891e+002	-1.143575e+000	-1.063922e+002
110162016	-9.377588e-001	-1.071616e+002	-7.845667e+001	-1.422045e+002	-7.816781e+001	-1.651209e+002	-1.143500e+000	-1.063831e+002
110164016	-9.352648e-001	-1.071489e+002	-7.893661e+001	-1.639878e+002	-8.257878e+001	-1.746285e+002	-1.145679e+000	-1.064051e+002
110166017	-9.351064e-001	-1.071789e+002	-7.905647e+001	-1.353235e+002	-7.751343e+001	-1.388727e+002	-1.143286e+000	-1.063954e+002
110168017	-9.359714e-001	-1.071667e+002	-8.161963e+001	-1.739575e+002	-8.324018e+001	-1.520236e+002	-1.145346e+000	-1.063891e+002
110170017	-9.363957e-001	-1.071586e+002	-7.829756e+001	-1.734241e+002	-8.233374e+001	-1.277492e+002	-1.142516e+000	-1.063950e+002
110172017	-9.346422e-001	-1.071586e+002	-7.987719e+001	-1.210045e+002	-8.464683e+001	-1.285901e+002	-1.143609e+000	-1.064054e+002
110174017	-9.360534e-001	-1.071707e+002	-8.491485e+001	-1.291030e+002	-8.296252e+001	-1.547298e+002	-1.143565e+000	-1.064081e+002
110176018	-9.339855e-001	-1.071782e+002	-8.402486e+001	1.629839e+002	-7.951189e+001	1.792244e+002	-1.145379e+000	-1.063970e+002
110178018	-9.363154e-001	-1.071809e+002	-7.761385e+001	-1.573473e+002	-7.917857e+001	-1.594041e+002	-1.143689e+000	-1.064026e+002
110180018	-9.359541e-001	-1.071769e+002	-8.323670e+001	-1.519361e+002	-7.554517e+001	-1.471780e+002	-1.145908e+000	-1.064067e+002
110182018	-9.341631e-001	-1.071788e+002	-7.920396e+001	-1.506175e+002	-7.897769e+001	-1.609363e+002	-1.143817e+000	-1.064126e+002
110184018	-9.374922e-001	-1.071763e+002	-7.853831e+001	-1.694940e+002	-8.262279e+001	-1.725312e+002	-1.144295e+000	-1.063955e+002
110186019	-9.344694e-001	-1.071710e+002	-7.849874e+001	-1.548034e+002	-8.237504e+001	-1.701046e+002	-1.144380e+000	-1.064223e+002
110188019	-9.357396e-001	-1.071889e+002	-8.030431e+001	-1.714288e+002	-7.857161e+001	-1.624125e+002	-1.143836e+000	-1.064132e+002
110190019	-9.358887e-001	-1.071902e+002	-7.582564e+001	-1.543640e+002	-8.128885e+001	-1.506489e+002	-1.143392e+000	-1.064128e+002
110192019	-9.380645e-001	-1.071893e+002	-8.132456e+001	-1.736831e+002	-8.057098e+001	-1.248790e+002	-1.142964e+000	-1.064151e+002
110194019	-9.378803e-001	-1.071868e+002	-8.051486e+001	-1.475960e+002	-8.060352e+001	-1.480133e+002	-1.144220e+000	-1.064181e+002
110196020	-9.343437e-001	-1.071898e+002	-7.752435e+001	-1.621770e+002	-7.786361e+001	-1.790589e+002	-1.142861e+000	-1.064180e+002
110198020	-9.363499e-001	-1.071968e+002	-7.722158e+001	-1.681591e+002	-7.689886e+001	-1.524646e+002	-1.147074e+000	-1.064303e+002
110200020	-9.360316e-001	-1.071903e+002	-7.801596e+001	-1.528407e+002	-7.514981e+001	-1.517180e+002	-1.143947e+000	-1.064317e+002
110202020	-9.369287e-001	-1.072048e+002	-7.615470e+001	-1.452268e+002	-8.038042e+001	-1.055453e+002	-1.145966e+000	-1.064382e+002
110204020	-9.373690e-001	-1.071982e+002	-8.244166e+001	-1.350354e+002	-7.904291e+001	-1.521284e+002	-1.144439e+000	-1.064443e+002
110206021	-9.360454e-001	-1.072065e+002	-9.720906e+001	1.387619e+002	-8.201078e+001	-1.317864e+002	-1.145270e+000	-1.064380e+002
110208021	-9.339601e-001	-1.071927e+002	-8.139829e+001	-1.432885e+002	-7.779927e+001	-1.637309e+002	-1.145610e+000	-1.064388e+002
110210021	-9.371056e-001	-1.072136e+002	-8.129695e+001	-1.608078e+002	-7.814352e+001	-1.689413e+002	-1.144020e+000	-1.064449e+002
110212021	-9.389920e-001	-1.072144e+002	-8.107558e+001	-1.699366e+002	-7.716175e+001	-1.555700e+002	-1.143370e+000	-1.064464e+002
110214021	-9.359694e-001	-1.072052e+002	-7.787957e+001	-1.619003e+002	-7.631118e+001	-1.711399e+002	-1.142823e+000	-1.064462e+002
110216022	-9.366620e-001	-1.072171e+002	-7.806073e+001	-1.375997e+002	-8.094340e+001	-1.436165e+002	-1.143838e+000	-1.064446e+002
110218022	-9.375642e-001	-1.072190e+002	-7.762176e+001	-1.777895e+002	-8.028781e+001	-1.342135e+002	-1.147506e+000	-1.064350e+002
110220022	-9.388032e-001	-1.072152e+002	-7.753803e+001	-1.645331e+002	-8.142480e+001	-1.561485e+002	-1.144748e+000	-1.064543e+002
110222022	-9.369372e-001	-1.072161e+002	-8.016870e+001	-1.583677e+002	-7.818254e+001	-1.205656e+002	-1.144567e+000	-1.064583e+002
110224022	-9.390500e-001	-1.072081e+002	-8.256194e+001	-1.702185e+002	-8.134913e+001	-1.405062e+002	-1.146700e+000	-1.064506e+002
110226023	-9.352674e-001	-1.072104e+002	-7.889657e+001	-1.723110e+002	-7.897919e+001	-1.766839e+002	-1.143917e+000	-1.064605e+002
110228023	-9.361136e-001	-1.072202e+002	-7.809277e+001	-1.403974e+002	-7.877706e+001	-1.622571e+002	-1.145320e+000	-1.064597e+002
110230023	-9.383367e-001	-1.072320e+002	-7.905463e+001	-1.478535e+002	-7.739172e+001	-1.601535e+002	-1.146286e+000	-1.064398e+002
110232023	-9.349304e-001	-1.072167e+002	-7.710256e+001	-1.461379e+002	-7.566997e+001	-1.499557e+002	-1.145083e+000	-1.064640e+002
110234023	-9.388285e-001	-1.072347e+002	-7.969463e+001	-1.428995e+002	-7.815209e+001	-1.675810e+002	-1.145883e+000	-1.064704e+002
110236024	-9.381664e-001	-1.072331e+002	-7.658336e+001	-1.496573e+002	-7.835572e+001	-1.663804e+002	-1.143944e+000	-1.064620e+002
110238024	-9.406669e-001	-1.072359e+002	-8.000214e+001	-1.435987e+002	-8.280406e+001	-1.281125e+002	-1.148360e+000	-1.064643e+002
110240024	-9.382776e-001	-1.072278e+002	-7.743679e+001	-1.314932e+002	-8.474731e+001	-1.127615e+002	-1.145247e+000	-1.064653e+002
110242024	-9.380232e-001	-1.072372e+002	-7.951556e+001	-1.755528e+002	-7.929233e+001	-1.532076e+002	-1.146340e+000	-1.064630e+002
110244024	-9.365833e-001	-1.072370e+002	-8.021322e+001	-1.429687e+002	-7.750420e+001	-1.721616e+002	-1.146969e+000	-1.064659e+002
110246025	-9.384901e-001	-1.072344e+002	-7.725922e+001	-1.492184e+002	-7.622234e+001	-1.606001e+002	-1.145558e+000	-1.064688e+002
110248025	-9.388378e-001	-1.072438e+002	-7.760992e+001	-1.484612e+002	-7.922089e+001	-1.622017e+002	-1.146440e+000	-1.064797e+002
110250025	-9.388378e-001	-1.072418e+002	-7.813992e+001	-1.565041e+002	-8.415820e+001	-1.662465e+002	-1.148366e+000	-1.064892e+002
110252025	-9.351708e-001	-1.072419e+002	-7.886046e+001	-1.359382e+002	-8.618947e+001	-1.400547e+002	-1.144072e+000	-1.064889e+002
110254025	-9.372205e-001	-1.072483e+002	-7.955072e+001	-1.740677e+002	-7.655566e+001	-1.483193e+002	-1.148626e+000	-1.064805e+002
110256026	-9.372541e-001	-1.072576e+002	-7.577817e+001	-1.573195e+002	-8.336486e+001	-1.565103e+002	-1.145708e+000	-1.064828e+002
110258026	-9.367358e-001	-1.072597e+002	-7.842270e+001	-1.773151e+002	-7.699213e+001	-1.704950e+002	-1.144912e+000	-1.064803e+002
110260026	-9.378981e-001	-1.072573e+002	-7.911219e+001	-1.622951e+002	-7.957673e+001	-1.559227e+002	-1.144845e+000	-1.064878e+002
110262026	-9.395447e-001	-1.072603e+002	-7.939922e+001	-1.561280e+002	-7.448311e+001	-1.593694e+002	-1.145094e+000	-1.064907e+002
110264026	-9.360950e-001	-1.072550e+002	-7.453625e+001	-1.418395e+002	-8.289585e+001	-1.523272e+002	-1.146848e+000	-1.064853e+002
110266027	-9.355370e-001	-1.072576e+002	-7.630050e+001	-1.400989e+002	-8.013574e+001	-1.652795e+002	-1.145981e+000	-1.064793e+002
110268027	-9.373686e-001	-1.072688e+002	-7.478223e+001	-1.476755e+002	-7.830874e+001	-1.770016e+002	-1.147486e+000	-1.064825e+002
110270027	-9.373072e-001	-1.072622e+002	-7.753716e+001	-1.728054e+002	-7.587652e+001	-1.757321e+002	-1.147563e+000	-1.064949e+002
110272027	-9.362706e-001	-1.072786e+002	-8.031775e+001	1.683613e+002	-7.875622e+001	-1.225366e+002	-1.146166e+000	-1.064914e+002
110274027	-9.385509e-001	-1.072698e+002	-8.042972e+001	-1.511358e+002	-7.778068e+001	-1.624693e+002	-1.148161e+000	-1.065071e+002
110276028	-9.374025e-001	-1.072749e+002	-7.665475e+001	-1.615733e+002	-7.986629e+001	-1.492585e+002	-1.145435e+000	-1.065031e+002
110278028	-9.371386e-001	-1.072686e+002	-8.294505e+001	-1.135957e+002	-8.064837e+001	-1.619075e+002	-1.145437e+000	-1.064996e+002
110280028	-9.376667e-001	-1.072721e+002	-8.656682e+001	-1.646757e+002	-8.168282e+001	-1.714910e+002	-1.143503e+000	-1.065035e+002
110282028	-9.384723e-001	-1.072857e+002	-7.577468e+001	-1.641022e+002	-7.813913e+001	-1.661905e+002	-1.145995e+000	-1.065040e+002
110284028	-9.379456e-001	-1.072781e+002	-7.930703e+001	-1.532764e+002	-7.704843e+001	1.765110e+002	-1.145439e+000	-1.065141e+002
110286029	-9.373575e-001	-1.072904e+002	-8.164537e+001	-1.660852e+002	-8.175863e+001	-1.674942e+002	-1.145435e+000	-1.065188e+002
110288029	-9.369096e-001	-1.073051e+002	-7.981346e+001	-1.649547e+002	-7.961844e+001	-1.363021e+002	-1.145822e+000	-1.065297e+002
110290029	-9.392577e-001	-1.072735e+002	-7.541112e+001	-1.605412e+002	-8.108978e+001	-1.411360e+002	-1.148929e+000	-1.065126e+002
110292029	-9.386931e-001	-1.072836e+002	-7.812324e+001	-1.654269e+002	-7.898025e+001	-1.664688e+002	-1.146968e+000	-1.065184e+002
110294029	-9.389267e-001	-1.072832e+002	-7.620779e+001	-1.649572e+002	-8.262483e+001	-1.723874e+002	-1.146263e+000	-1.065111e+002
110296030	-9.368442e-001	-1.072891e+002	-8.131056e+001	-1.624406e+002	-7.902721e+001	-1.460492e+002	-1.149052e+000	-1.065212e+002
110298030	-9.353511e-001	-1.072999e+002	-7.828579e+001	-1.627715e+002	-7.996855e+001	-1.522511e+002	-1.147353e+000	-1.065266e+002
110300030	-9.381587e-001	-1.072957e+002	-7.912170e+001	-1.636778e+002	-8.250042e+001	-1.506128e+002	-1.148405e+000	-1.065319e+002
