!Agilent Technologies,E5071C,MY46520923,B.12.03
!Date: Wed Feb 07 10:48:15 2024
!Data & Calibration Information:
!Freq	S11:SOLT2(ON)	S21:SOLT2(ON)	S12:SOLT2(ON)	S22:SOLT2(ON)
!PortZ  Port1:50+j0    Port2:50+j0
!Above PortZ is port z conversion or system Z0 setting when saving the data.
!When reading, reference impedance value at option line is always used.
# Hz S dB R 50
110000000	-8.986961e-001	-1.070402e+002	-8.005016e+001	-1.539995e+002	-8.130852e+001	1.705172e+002	-1.042265e+000	-1.065185e+002
110002000	-9.002095e-001	-1.070203e+002	-7.772635e+001	-1.725334e+002	-8.079124e+001	-1.679672e+002	-1.042143e+000	-1.065067e+002
110004000	-9.008619e-001	-1.070397e+002	-7.771808e+001	-1.346043e+002	-8.345086e+001	1.725319e+002	-1.040867e+000	-1.065229e+002
110006001	-8.977051e-001	-1.070278e+002	-8.146854e+001	1.624122e+002	-7.947006e+001	-1.690103e+002	-1.042291e+000	-1.065189e+002
110008001	-8.993666e-001	-1.070340e+002	-8.087616e+001	-1.685474e+002	-8.064004e+001	-1.604415e+002	-1.039601e+000	-1.065216e+002
110010001	-8.976227e-001	-1.070328e+002	-7.869445e+001	-1.638730e+002	-7.923398e+001	-1.729737e+002	-1.042346e+000	-1.065264e+002
110012001	-9.008844e-001	-1.070518e+002	-7.609935e+001	1.790449e+002	-7.859611e+001	1.780818e+002	-1.039736e+000	-1.065222e+002
110014001	-8.989898e-001	-1.070455e+002	-8.067703e+001	1.570917e+002	-7.873742e+001	1.797863e+002	-1.043708e+000	-1.065305e+002
110016002	-9.012139e-001	-1.070495e+002	-8.561731e+001	-1.202255e+002	-7.921692e+001	-1.373701e+002	-1.040801e+000	-1.065295e+002
110018002	-8.975912e-001	-1.070536e+002	-8.269260e+001	-1.794652e+002	-7.639108e+001	-1.623916e+002	-1.042659e+000	-1.065161e+002
110020002	-9.004306e-001	-1.070566e+002	-7.979322e+001	-1.760430e+002	-8.283355e+001	1.630905e+002	-1.043702e+000	-1.065275e+002
110022002	-8.980868e-001	-1.070474e+002	-7.981006e+001	-1.594635e+002	-8.485473e+001	-1.741165e+002	-1.041157e+000	-1.065327e+002
110024002	-8.981154e-001	-1.070532e+002	-8.305900e+001	-1.657289e+002	-7.827914e+001	-1.340443e+002	-1.041856e+000	-1.065218e+002
110026003	-9.001276e-001	-1.070475e+002	-7.609490e+001	-1.597874e+002	-7.591040e+001	-1.766473e+002	-1.043997e+000	-1.065371e+002
110028003	-9.002463e-001	-1.070532e+002	-8.058867e+001	-1.491010e+002	-8.004141e+001	-1.703611e+002	-1.042791e+000	-1.065225e+002
110030003	-9.004030e-001	-1.070540e+002	-7.967453e+001	-1.466180e+002	-8.232757e+001	-1.778288e+002	-1.044531e+000	-1.065370e+002
110032003	-9.006868e-001	-1.070708e+002	-8.158945e+001	-1.696244e+002	-7.712814e+001	-1.600341e+002	-1.042329e+000	-1.065529e+002
110034003	-8.996365e-001	-1.070675e+002	-7.931006e+001	-1.213760e+002	-7.855029e+001	-1.624398e+002	-1.043543e+000	-1.065545e+002
110036004	-9.022485e-001	-1.070654e+002	-8.443415e+001	-1.711039e+002	-8.153217e+001	-1.754817e+002	-1.042326e+000	-1.065428e+002
110038004	-8.982532e-001	-1.070776e+002	-7.684379e+001	1.799794e+002	-8.021952e+001	-1.732116e+002	-1.042131e+000	-1.065361e+002
110040004	-9.007416e-001	-1.070564e+002	-7.816147e+001	-1.661195e+002	-8.296177e+001	-1.713666e+002	-1.043704e+000	-1.065647e+002
110042004	-8.994231e-001	-1.070818e+002	-7.476354e+001	-1.501215e+002	-8.028980e+001	-1.553847e+002	-1.044076e+000	-1.065414e+002
110044004	-8.998231e-001	-1.070678e+002	-7.995744e+001	-1.788449e+002	-7.654510e+001	1.761184e+002	-1.044273e+000	-1.065458e+002
110046005	-8.979833e-001	-1.070799e+002	-7.754377e+001	-1.714880e+002	-7.627370e+001	-1.721795e+002	-1.041832e+000	-1.065466e+002
110048005	-8.985594e-001	-1.070653e+002	-7.924610e+001	1.763372e+002	-8.046976e+001	-1.542845e+002	-1.043536e+000	-1.065664e+002
110050005	-8.996191e-001	-1.070696e+002	-8.005250e+001	-1.505691e+002	-7.712359e+001	-1.584501e+002	-1.043981e+000	-1.065618e+002
110052005	-8.989076e-001	-1.070842e+002	-8.170014e+001	-1.643244e+002	-8.220924e+001	-1.591826e+002	-1.043367e+000	-1.065624e+002
110054005	-8.998802e-001	-1.070723e+002	-7.879619e+001	-1.513651e+002	-7.976742e+001	-1.518899e+002	-1.042235e+000	-1.065598e+002
110056006	-8.998274e-001	-1.070958e+002	-8.441926e+001	-1.544142e+002	-7.890827e+001	-1.448572e+002	-1.043717e+000	-1.065729e+002
110058006	-9.000968e-001	-1.070915e+002	-7.503871e+001	-1.273425e+002	-8.169406e+001	-1.421535e+002	-1.043233e+000	-1.065523e+002
110060006	-9.002635e-001	-1.070876e+002	-7.522601e+001	-1.619743e+002	-8.097227e+001	-1.767100e+002	-1.043873e+000	-1.065824e+002
110062006	-9.001180e-001	-1.070944e+002	-7.878930e+001	-1.513115e+002	-8.023571e+001	-1.252415e+002	-1.044189e+000	-1.065802e+002
110064006	-9.009550e-001	-1.070928e+002	-8.194514e+001	-1.790382e+002	-8.070793e+001	-1.208657e+002	-1.045407e+000	-1.065745e+002
110066007	-9.008188e-001	-1.071074e+002	-8.210038e+001	-1.719196e+002	-7.888315e+001	-1.346678e+002	-1.042847e+000	-1.065877e+002
110068007	-8.991514e-001	-1.070880e+002	-7.866673e+001	-1.746230e+002	-7.738484e+001	-1.787767e+002	-1.041803e+000	-1.065825e+002
110070007	-9.022805e-001	-1.070986e+002	-7.902770e+001	-1.701948e+002	-7.668882e+001	-1.683572e+002	-1.042877e+000	-1.065703e+002
110072007	-8.986309e-001	-1.070894e+002	-7.843546e+001	-1.645392e+002	-7.925364e+001	-1.709486e+002	-1.045205e+000	-1.065666e+002
110074007	-9.007987e-001	-1.071064e+002	-7.986229e+001	-1.626643e+002	-8.272318e+001	-1.533755e+002	-1.040088e+000	-1.065737e+002
110076008	-8.994871e-001	-1.071107e+002	-7.918038e+001	-1.694967e+002	-8.225008e+001	-1.474385e+002	-1.041060e+000	-1.065757e+002
110078008	-8.997434e-001	-1.071031e+002	-7.661377e+001	-1.576722e+002	-8.606758e+001	-1.449900e+002	-1.042850e+000	-1.065842e+002
110080008	-8.994020e-001	-1.070999e+002	-8.034626e+001	-1.347638e+002	-8.193351e+001	-1.189292e+002	-1.045246e+000	-1.065943e+002
110082008	-9.014432e-001	-1.071003e+002	-7.955347e+001	-1.518887e+002	-7.668053e+001	-1.487462e+002	-1.043370e+000	-1.065896e+002
110084008	-9.007908e-001	-1.071210e+002	-8.077087e+001	-1.598028e+002	-8.076762e+001	-1.733570e+002	-1.044872e+000	-1.065789e+002
110086009	-8.999394e-001	-1.071110e+002	-7.684594e+001	-1.530436e+002	-8.298742e+001	-1.783628e+002	-1.045275e+000	-1.065759e+002
110088009	-8.997758e-001	-1.071113e+002	-8.070506e+001	-1.707325e+002	-8.060673e+001	-1.641085e+002	-1.044054e+000	-1.065977e+002
110090009	-9.015163e-001	-1.071072e+002	-8.070666e+001	-1.645855e+002	-8.301697e+001	-1.630984e+002	-1.043240e+000	-1.065884e+002
110092009	-9.007995e-001	-1.071191e+002	-8.092706e+001	-1.486677e+002	-8.089188e+001	1.794521e+002	-1.045643e+000	-1.066033e+002
110094009	-9.003925e-001	-1.071184e+002	-7.864667e+001	-1.775858e+002	-8.137988e+001	-1.478270e+002	-1.042885e+000	-1.065995e+002
110096010	-9.002104e-001	-1.071244e+002	-7.809755e+001	-1.525051e+002	-7.776008e+001	1.769283e+002	-1.043198e+000	-1.066028e+002
110098010	-8.993640e-001	-1.071239e+002	-7.826710e+001	-1.698982e+002	-7.947523e+001	-1.614406e+002	-1.046278e+000	-1.065963e+002
110100010	-9.010212e-001	-1.071242e+002	-7.989554e+001	-1.439072e+002	-8.555761e+001	-1.647608e+002	-1.043848e+000	-1.066115e+002
110102010	-9.009618e-001	-1.071301e+002	-8.005652e+001	-1.731062e+002	-8.010505e+001	-1.680161e+002	-1.043455e+000	-1.066125e+002
110104010	-9.014898e-001	-1.071342e+002	-8.077817e+001	-1.597416e+002	-8.096872e+001	1.614338e+002	-1.044905e+000	-1.066110e+002
110106011	-9.022963e-001	-1.071175e+002	-7.841605e+001	1.790278e+002	-7.803571e+001	-1.362017e+002	-1.042754e+000	-1.066158e+002
110108011	-9.004784e-001	-1.071424e+002	-8.032556e+001	-1.143690e+002	-7.925568e+001	-1.708559e+002	-1.043269e+000	-1.066213e+002
110110011	-9.004090e-001	-1.071321e+002	-7.765147e+001	-1.501288e+002	-8.595288e+001	-1.773495e+002	-1.044633e+000	-1.066109e+002
110112011	-8.987951e-001	-1.071366e+002	-7.739272e+001	1.635708e+002	-7.668708e+001	-1.533198e+002	-1.042304e+000	-1.066121e+002
110114011	-9.028054e-001	-1.071449e+002	-7.651375e+001	-1.688294e+002	-7.762624e+001	-1.586474e+002	-1.044133e+000	-1.066284e+002
110116012	-8.999902e-001	-1.071299e+002	-7.795567e+001	-1.453753e+002	-7.953038e+001	-1.387422e+002	-1.043629e+000	-1.066306e+002
110118012	-9.019176e-001	-1.071414e+002	-7.808723e+001	-1.596513e+002	-8.004826e+001	-1.472109e+002	-1.046148e+000	-1.066216e+002
110120012	-9.020957e-001	-1.071461e+002	-8.166914e+001	-1.710456e+002	-7.631122e+001	-1.706311e+002	-1.045729e+000	-1.066321e+002
110122012	-9.017219e-001	-1.071407e+002	-7.929687e+001	-1.350316e+002	-7.700778e+001	-1.240905e+002	-1.044040e+000	-1.066256e+002
110124012	-9.014636e-001	-1.071424e+002	-7.822982e+001	-1.569724e+002	-7.882187e+001	-1.607282e+002	-1.045101e+000	-1.066297e+002
110126013	-9.005760e-001	-1.071500e+002	-8.207968e+001	-1.475066e+002	-8.035929e+001	-1.588597e+002	-1.045173e+000	-1.066310e+002
110128013	-8.996407e-001	-1.071650e+002	-8.519262e+001	1.589207e+002	-8.025068e+001	-1.399777e+002	-1.046728e+000	-1.066198e+002
110130013	-9.028399e-001	-1.071588e+002	-8.127619e+001	-1.704210e+002	-8.241281e+001	-1.456675e+002	-1.046740e+000	-1.066473e+002
110132013	-9.021886e-001	-1.071562e+002	-7.919307e+001	-1.331260e+002	-7.837897e+001	-1.689809e+002	-1.043056e+000	-1.066392e+002
110134013	-9.014730e-001	-1.071430e+002	-8.054015e+001	1.742307e+002	-7.744282e+001	-1.301282e+002	-1.044578e+000	-1.066495e+002
110136014	-9.026211e-001	-1.071755e+002	-8.168386e+001	-1.367704e+002	-8.217359e+001	-1.757246e+002	-1.046386e+000	-1.066552e+002
110138014	-9.015321e-001	-1.071625e+002	-8.476655e+001	-1.110354e+002	-7.913316e+001	-1.727089e+002	-1.045947e+000	-1.066435e+002
110140014	-9.005398e-001	-1.071745e+002	-7.951427e+001	-1.623846e+002	-8.061204e+001	-1.136420e+002	-1.047003e+000	-1.066374e+002
110142014	-9.013463e-001	-1.071701e+002	-7.718410e+001	-1.535880e+002	-8.089341e+001	-1.364305e+002	-1.046852e+000	-1.066407e+002
110144014	-8.997417e-001	-1.071739e+002	-7.693610e+001	-1.425402e+002	-7.735641e+001	-1.449540e+002	-1.045226e+000	-1.066461e+002
110146015	-9.009473e-001	-1.071537e+002	-8.035389e+001	-1.618187e+002	-7.587931e+001	-1.552026e+002	-1.045351e+000	-1.066478e+002
110148015	-8.978657e-001	-1.071682e+002	-8.321389e+001	-1.156225e+002	-8.195697e+001	-1.783192e+002	-1.043408e+000	-1.066597e+002
110150015	-9.015187e-001	-1.071830e+002	-7.986598e+001	-1.681987e+002	-7.820209e+001	-1.498267e+002	-1.044746e+000	-1.066568e+002
110152015	-9.017830e-001	-1.071781e+002	-7.920292e+001	-1.620642e+002	-8.215689e+001	-1.663930e+002	-1.044187e+000	-1.066537e+002
110154015	-9.014585e-001	-1.071893e+002	-8.243842e+001	-1.678939e+002	-8.421684e+001	-1.497696e+002	-1.046472e+000	-1.066532e+002
110156016	-9.012066e-001	-1.071832e+002	-8.077407e+001	-1.523206e+002	-8.097765e+001	-1.504012e+002	-1.045229e+000	-1.066632e+002
110158016	-9.041357e-001	-1.071685e+002	-7.775784e+001	-1.402543e+002	-8.125749e+001	-1.609050e+002	-1.045001e+000	-1.066548e+002
110160016	-9.025688e-001	-1.071801e+002	-7.761146e+001	-1.305205e+002	-7.776374e+001	-1.472847e+002	-1.044576e+000	-1.066627e+002
110162016	-9.013373e-001	-1.071965e+002	-7.795736e+001	-1.550978e+002	-7.792924e+001	-1.717704e+002	-1.045905e+000	-1.066589e+002
110164016	-9.001370e-001	-1.071950e+002	-7.582961e+001	-1.476381e+002	-8.066976e+001	-1.417945e+002	-1.046058e+000	-1.066611e+002
110166017	-9.031584e-001	-1.071743e+002	-8.010502e+001	-1.410962e+002	-8.334819e+001	-1.449583e+002	-1.045951e+000	-1.066601e+002
110168017	-9.005100e-001	-1.071838e+002	-7.991600e+001	-1.283734e+002	-8.071101e+001	-1.442342e+002	-1.046723e+000	-1.066711e+002
110170017	-9.013722e-001	-1.071950e+002	-8.185988e+001	1.668525e+002	-7.747440e+001	-1.575852e+002	-1.045007e+000	-1.066662e+002
110172017	-9.026823e-001	-1.071941e+002	-8.058575e+001	-1.559287e+002	-7.824919e+001	-1.432629e+002	-1.041816e+000	-1.066588e+002
110174017	-9.017476e-001	-1.072069e+002	-8.409126e+001	-1.559123e+002	-7.757766e+001	-1.727952e+002	-1.043998e+000	-1.066724e+002
110176018	-9.012060e-001	-1.072034e+002	-8.351851e+001	-1.038401e+002	-8.234213e+001	-1.426836e+002	-1.047836e+000	-1.066743e+002
110178018	-9.038755e-001	-1.072010e+002	-7.916254e+001	-1.692142e+002	-8.244683e+001	-1.515972e+002	-1.046449e+000	-1.066847e+002
110180018	-9.017912e-001	-1.072043e+002	-7.742404e+001	-1.568001e+002	-8.386602e+001	-1.678062e+002	-1.044192e+000	-1.066854e+002
110182018	-9.018165e-001	-1.072180e+002	-8.066757e+001	-1.474477e+002	-8.173670e+001	-1.125405e+002	-1.047750e+000	-1.066678e+002
110184018	-9.018474e-001	-1.072106e+002	-8.109853e+001	1.791923e+002	-8.342264e+001	1.610094e+002	-1.044764e+000	-1.066810e+002
110186019	-9.001601e-001	-1.072088e+002	-8.040188e+001	-1.547328e+002	-7.567574e+001	-1.599358e+002	-1.046599e+000	-1.066974e+002
110188019	-9.029241e-001	-1.072101e+002	-8.086850e+001	-1.484710e+002	-7.989987e+001	-1.403159e+002	-1.045464e+000	-1.066907e+002
110190019	-9.030545e-001	-1.072154e+002	-7.986112e+001	-1.515320e+002	-7.803920e+001	-1.488661e+002	-1.044725e+000	-1.066937e+002
110192019	-9.045498e-001	-1.072085e+002	-8.075839e+001	-1.796773e+002	-7.878349e+001	1.760787e+002	-1.047343e+000	-1.067077e+002
110194019	-9.021481e-001	-1.072223e+002	-7.935538e+001	1.546834e+002	-8.182063e+001	-1.629257e+002	-1.046121e+000	-1.067014e+002
110196020	-9.032194e-001	-1.072211e+002	-7.792376e+001	-1.071514e+002	-7.880004e+001	-1.750942e+002	-1.045028e+000	-1.067028e+002
110198020	-9.011858e-001	-1.072123e+002	-7.654097e+001	-1.498786e+002	-7.750203e+001	-1.507337e+002	-1.044353e+000	-1.066880e+002
110200020	-9.035873e-001	-1.072337e+002	-8.259400e+001	-1.588999e+002	-7.761873e+001	-1.567591e+002	-1.046731e+000	-1.067118e+002
110202020	-9.017789e-001	-1.072304e+002	-7.834120e+001	1.709159e+002	-7.929625e+001	1.799564e+002	-1.045978e+000	-1.066929e+002
110204020	-9.043159e-001	-1.072282e+002	-8.066171e+001	-1.412385e+002	-7.817828e+001	-1.552173e+002	-1.046497e+000	-1.067039e+002
110206021	-9.030520e-001	-1.072359e+002	-8.074936e+001	-1.435791e+002	-7.928906e+001	-1.431513e+002	-1.046959e+000	-1.067035e+002
110208021	-9.014394e-001	-1.072271e+002	-7.991025e+001	-1.658878e+002	-7.766672e+001	-1.711669e+002	-1.044246e+000	-1.067135e+002
110210021	-9.023711e-001	-1.072242e+002	-7.843189e+001	-1.624160e+002	-8.123624e+001	-1.314436e+002	-1.047490e+000	-1.067076e+002
110212021	-9.019345e-001	-1.072294e+002	-7.928923e+001	-1.736856e+002	-7.882561e+001	-1.312206e+002	-1.050670e+000	-1.067144e+002
110214021	-9.042191e-001	-1.072447e+002	-8.343535e+001	-1.459335e+002	-8.201667e+001	-1.294833e+002	-1.046548e+000	-1.067273e+002
110216022	-9.039919e-001	-1.072303e+002	-7.986321e+001	-1.602523e+002	-8.328092e+001	-1.773517e+002	-1.047005e+000	-1.067257e+002
110218022	-9.030881e-001	-1.072510e+002	-7.773071e+001	-1.428903e+002	-8.115108e+001	-1.516195e+002	-1.046541e+000	-1.067407e+002
110220022	-9.025704e-001	-1.072378e+002	-7.376739e+001	-1.470979e+002	-9.686672e+001	-2.782356e+001	-1.047865e+000	-1.067133e+002
110222022	-9.034552e-001	-1.072311e+002	-7.647419e+001	-1.565790e+002	-7.960169e+001	-1.658087e+002	-1.046779e+000	-1.067171e+002
110224022	-9.034327e-001	-1.072558e+002	-7.657666e+001	-1.543076e+002	-8.074411e+001	-1.465833e+002	-1.047388e+000	-1.067269e+002
110226023	-9.023393e-001	-1.072586e+002	-7.938189e+001	-1.288203e+002	-8.435147e+001	-1.747089e+002	-1.049071e+000	-1.067158e+002
110228023	-9.019130e-001	-1.072359e+002	-8.118288e+001	1.775651e+002	-7.861589e+001	-1.417669e+002	-1.045752e+000	-1.067328e+002
110230023	-9.015455e-001	-1.072536e+002	-7.988640e+001	-1.749468e+002	-8.021012e+001	-1.550237e+002	-1.047756e+000	-1.067356e+002
110232023	-9.030782e-001	-1.072544e+002	-7.720741e+001	-1.680960e+002	-7.810780e+001	-1.441165e+002	-1.048830e+000	-1.067254e+002
110234023	-9.016768e-001	-1.072664e+002	-8.058906e+001	1.781325e+002	-8.571170e+001	-1.741718e+002	-1.047027e+000	-1.067288e+002
110236024	-9.025593e-001	-1.072606e+002	-7.793258e+001	1.603608e+002	-7.836584e+001	-1.438923e+002	-1.048406e+000	-1.067377e+002
110238024	-9.047716e-001	-1.072398e+002	-8.113443e+001	-1.766815e+002	-7.955838e+001	1.557929e+002	-1.048941e+000	-1.067389e+002
110240024	-9.040804e-001	-1.072746e+002	-7.775236e+001	-1.506236e+002	-7.841140e+001	-1.572285e+002	-1.048506e+000	-1.067520e+002
110242024	-9.014551e-001	-1.072692e+002	-7.907256e+001	-1.774475e+002	-7.875173e+001	-1.515209e+002	-1.047221e+000	-1.067367e+002
110244024	-9.032824e-001	-1.072588e+002	-8.221164e+001	1.550853e+002	-7.843978e+001	-1.553148e+002	-1.045471e+000	-1.067493e+002
110246025	-9.039669e-001	-1.072679e+002	-7.861902e+001	-1.557929e+002	-8.402744e+001	-1.168122e+002	-1.047241e+000	-1.067447e+002
110248025	-9.015980e-001	-1.072831e+002	-7.844701e+001	-1.604666e+002	-7.734655e+001	-1.405267e+002	-1.048673e+000	-1.067503e+002
110250025	-9.019505e-001	-1.072669e+002	-7.664839e+001	-1.388482e+002	-8.163715e+001	-1.418293e+002	-1.047224e+000	-1.067427e+002
110252025	-9.024012e-001	-1.072735e+002	-7.964333e+001	-1.504158e+002	-7.724091e+001	-1.415206e+002	-1.047202e+000	-1.067555e+002
110254025	-9.038097e-001	-1.072716e+002	-7.878010e+001	-1.767087e+002	-7.743256e+001	-1.223006e+002	-1.048158e+000	-1.067382e+002
110256026	-9.034327e-001	-1.072729e+002	-8.033105e+001	-1.616167e+002	-7.794073e+001	-1.596079e+002	-1.048072e+000	-1.067584e+002
110258026	-9.041721e-001	-1.072881e+002	-7.706906e+001	-1.429275e+002	-8.116397e+001	-1.633679e+002	-1.048570e+000	-1.067614e+002
110260026	-9.047702e-001	-1.072881e+002	-7.868231e+001	-1.330846e+002	-8.110723e+001	1.708938e+002	-1.045708e+000	-1.067652e+002
110262026	-9.052252e-001	-1.072920e+002	-8.037032e+001	-1.522773e+002	-7.573698e+001	-1.542645e+002	-1.047453e+000	-1.067511e+002
110264026	-9.034613e-001	-1.072883e+002	-7.789136e+001	-1.514162e+002	-7.494226e+001	-1.366678e+002	-1.046071e+000	-1.067717e+002
110266027	-9.039462e-001	-1.072851e+002	-8.176540e+001	-1.347333e+002	-8.176213e+001	1.615444e+002	-1.046242e+000	-1.067629e+002
110268027	-9.040339e-001	-1.072907e+002	-8.020729e+001	-1.534502e+002	-8.019614e+001	-1.479697e+002	-1.049104e+000	-1.067717e+002
110270027	-9.048629e-001	-1.072982e+002	-7.877871e+001	-1.655475e+002	-8.605862e+001	-1.491488e+002	-1.049746e+000	-1.067587e+002
110272027	-9.047027e-001	-1.072981e+002	-7.749698e+001	-1.447320e+002	-7.720360e+001	-1.456999e+002	-1.045959e+000	-1.067902e+002
110274027	-9.038596e-001	-1.073053e+002	-7.897075e+001	-1.354397e+002	-7.698832e+001	-1.417316e+002	-1.046136e+000	-1.067761e+002
110276028	-9.043682e-001	-1.072776e+002	-8.067048e+001	-1.373084e+002	-7.809364e+001	-1.440942e+002	-1.049361e+000	-1.067796e+002
110278028	-9.040208e-001	-1.073013e+002	-7.754833e+001	1.580326e+002	-7.827646e+001	-1.704643e+002	-1.048680e+000	-1.067748e+002
110280028	-9.051636e-001	-1.073064e+002	-7.972519e+001	-1.448385e+002	-7.718460e+001	-1.456233e+002	-1.046920e+000	-1.067796e+002
110282028	-9.068861e-001	-1.072921e+002	-7.872810e+001	1.716373e+002	-7.684435e+001	-1.561745e+002	-1.048992e+000	-1.067796e+002
110284028	-9.045782e-001	-1.073084e+002	-7.939368e+001	-1.748613e+002	-8.180875e+001	-1.627386e+002	-1.050474e+000	-1.067850e+002
110286029	-9.054267e-001	-1.072999e+002	-7.723519e+001	-1.492545e+002	-8.035040e+001	-1.645243e+002	-1.048977e+000	-1.067790e+002
110288029	-9.024768e-001	-1.072999e+002	-8.357534e+001	1.568277e+002	-7.698756e+001	-1.538550e+002	-1.049869e+000	-1.067799e+002
110290029	-9.049500e-001	-1.073154e+002	-7.827918e+001	-1.483990e+002	-8.197094e+001	-1.485717e+002	-1.046935e+000	-1.067917e+002
110292029	-9.041508e-001	-1.073149e+002	-7.995428e+001	-1.635427e+002	-7.786842e+001	-1.567147e+002	-1.048439e+000	-1.067802e+002
110294029	-9.032998e-001	-1.073082e+002	-7.788381e+001	-1.618636e+002	-7.922626e+001	-1.524814e+002	-1.045766e+000	-1.067916e+002
110296030	-9.028224e-001	-1.073269e+002	-8.489772e+001	-1.498336e+002	-8.050871e+001	-1.329736e+002	-1.047501e+000	-1.067862e+002
110298030	-9.040788e-001	-1.073060e+002	-7.879662e+001	-1.348344e+002	-7.834105e+001	-1.090804e+002	-1.048334e+000	-1.068171e+002
110300030	-9.040713e-001	-1.073149e+002	-8.102734e+001	-1.468937e+002	-8.056928e+001	-1.636609e+002	-1.048027e+000	-1.068156e+002
