!Agilent Technologies,E5071C,MY46520923,B.12.03
!Date: Wed Feb 07 09:52:54 2024
!Data & Calibration Information:
!Freq	S11:SOLT2(ON)	S21:SOLT2(ON)	S12:SOLT2(ON)	S22:SOLT2(ON)
!PortZ  Port1:50+j0    Port2:50+j0
!Above PortZ is port z conversion or system Z0 setting when saving the data.
!When reading, reference impedance value at option line is always used.
# Hz S dB R 50
110000000	-9.396433e-001	-1.070013e+002	-7.432262e+001	-1.712484e+002	-7.785377e+001	-1.539950e+002	-1.185256e+000	-1.059985e+002
110002000	-9.396780e-001	-1.070101e+002	-8.386302e+001	-1.267969e+002	-8.070225e+001	-1.545664e+002	-1.181959e+000	-1.060083e+002
110004000	-9.396123e-001	-1.070157e+002	-7.545787e+001	-1.442966e+002	-7.817882e+001	-1.244213e+002	-1.186704e+000	-1.060062e+002
110006001	-9.389189e-001	-1.069967e+002	-7.945680e+001	1.670512e+002	-7.882480e+001	1.652963e+002	-1.188116e+000	-1.060024e+002
110008001	-9.385719e-001	-1.070106e+002	-7.910075e+001	-1.740370e+002	-7.958153e+001	-1.551017e+002	-1.185028e+000	-1.060223e+002
110010001	-9.383125e-001	-1.070240e+002	-8.428885e+001	1.550992e+002	-8.075018e+001	-1.693172e+002	-1.185929e+000	-1.060135e+002
110012001	-9.395749e-001	-1.070009e+002	-7.744987e+001	-1.551145e+002	-8.218388e+001	-1.575929e+002	-1.187005e+000	-1.060281e+002
110014001	-9.401872e-001	-1.070131e+002	-8.220292e+001	-1.554023e+002	-7.804138e+001	-1.709381e+002	-1.186054e+000	-1.060125e+002
110016002	-9.418799e-001	-1.070161e+002	-7.929428e+001	-1.483166e+002	-7.817309e+001	-1.694197e+002	-1.187257e+000	-1.060185e+002
110018002	-9.394667e-001	-1.070107e+002	-7.882342e+001	-1.528775e+002	-7.807998e+001	-1.573657e+002	-1.186568e+000	-1.060252e+002
110020002	-9.409719e-001	-1.070185e+002	-8.189680e+001	-1.515441e+002	-7.858255e+001	-1.699705e+002	-1.187288e+000	-1.060225e+002
110022002	-9.383883e-001	-1.070254e+002	-8.209025e+001	-1.456421e+002	-7.493892e+001	-1.688167e+002	-1.188615e+000	-1.060224e+002
110024002	-9.409447e-001	-1.070387e+002	-7.796814e+001	-1.520918e+002	-7.999029e+001	-1.388946e+002	-1.185556e+000	-1.060312e+002
110026003	-9.403134e-001	-1.070164e+002	-7.662165e+001	-1.667511e+002	-8.110975e+001	-1.722719e+002	-1.186136e+000	-1.060358e+002
110028003	-9.396167e-001	-1.070408e+002	-7.938035e+001	-1.439226e+002	-7.913022e+001	-1.461273e+002	-1.184173e+000	-1.060441e+002
110030003	-9.397243e-001	-1.070356e+002	-7.651933e+001	-1.536224e+002	-7.964884e+001	-1.757738e+002	-1.187380e+000	-1.060286e+002
110032003	-9.399698e-001	-1.070355e+002	-7.857226e+001	-1.502996e+002	-7.897614e+001	-1.520524e+002	-1.187563e+000	-1.060327e+002
110034003	-9.399537e-001	-1.070571e+002	-7.795921e+001	-1.796812e+002	-8.147289e+001	-1.677155e+002	-1.185361e+000	-1.060261e+002
110036004	-9.404807e-001	-1.070318e+002	-7.678502e+001	-1.736100e+002	-8.167438e+001	-1.523823e+002	-1.184404e+000	-1.060384e+002
110038004	-9.387568e-001	-1.070402e+002	-8.363495e+001	1.792730e+002	-7.902799e+001	1.692960e+002	-1.186629e+000	-1.060412e+002
110040004	-9.409801e-001	-1.070372e+002	-7.781810e+001	-1.715708e+002	-8.606065e+001	-1.215318e+002	-1.188607e+000	-1.060393e+002
110042004	-9.394898e-001	-1.070403e+002	-8.213759e+001	-1.692379e+002	-8.208361e+001	-1.270187e+002	-1.186822e+000	-1.060368e+002
110044004	-9.406719e-001	-1.070307e+002	-7.707022e+001	1.787965e+002	-8.015244e+001	-1.598485e+002	-1.188748e+000	-1.060525e+002
110046005	-9.420556e-001	-1.070344e+002	-7.818877e+001	-1.631861e+002	-7.746593e+001	1.798034e+002	-1.186738e+000	-1.060389e+002
110048005	-9.407244e-001	-1.070381e+002	-7.676872e+001	1.778697e+002	-7.691514e+001	-1.679741e+002	-1.186810e+000	-1.060485e+002
110050005	-9.410203e-001	-1.070525e+002	-7.874832e+001	1.745469e+002	-8.277332e+001	-1.525120e+002	-1.185008e+000	-1.060582e+002
110052005	-9.409010e-001	-1.070528e+002	-7.642404e+001	-1.688406e+002	-8.049105e+001	-1.569001e+002	-1.186717e+000	-1.060574e+002
110054005	-9.366984e-001	-1.070446e+002	-7.778307e+001	-1.589358e+002	-7.788676e+001	-1.533552e+002	-1.185540e+000	-1.060526e+002
110056006	-9.403216e-001	-1.070522e+002	-8.435216e+001	-1.300292e+002	-7.935972e+001	-1.745345e+002	-1.188261e+000	-1.060407e+002
110058006	-9.411538e-001	-1.070394e+002	-7.862567e+001	-1.706317e+002	-8.061805e+001	-1.338928e+002	-1.186920e+000	-1.060527e+002
110060006	-9.381665e-001	-1.070548e+002	-7.567407e+001	-1.735432e+002	-7.948560e+001	-1.549789e+002	-1.186620e+000	-1.060535e+002
110062006	-9.395078e-001	-1.070654e+002	-8.391310e+001	1.674023e+002	-8.035436e+001	-1.749736e+002	-1.187892e+000	-1.060675e+002
110064006	-9.416494e-001	-1.070677e+002	-7.626218e+001	-1.615647e+002	-7.774258e+001	-1.763060e+002	-1.186852e+000	-1.060604e+002
110066007	-9.404252e-001	-1.070539e+002	-7.910911e+001	1.667895e+002	-8.174455e+001	-1.770754e+002	-1.186120e+000	-1.060511e+002
110068007	-9.420112e-001	-1.070822e+002	-8.252861e+001	-1.475208e+002	-8.248833e+001	-1.099782e+002	-1.185534e+000	-1.060596e+002
110070007	-9.376992e-001	-1.070532e+002	-7.895990e+001	-1.739103e+002	-7.446462e+001	-1.423331e+002	-1.187976e+000	-1.060776e+002
110072007	-9.403264e-001	-1.070785e+002	-8.372177e+001	-1.555332e+002	-7.593826e+001	-1.687216e+002	-1.188789e+000	-1.060746e+002
110074007	-9.419990e-001	-1.070831e+002	-8.013013e+001	-1.722487e+002	-7.677061e+001	-1.549616e+002	-1.186193e+000	-1.060890e+002
110076008	-9.406028e-001	-1.070692e+002	-7.921254e+001	-1.794160e+002	-7.953345e+001	-1.727105e+002	-1.183947e+000	-1.060777e+002
110078008	-9.405569e-001	-1.070726e+002	-7.854271e+001	-1.473382e+002	-7.789157e+001	-1.617102e+002	-1.189756e+000	-1.060787e+002
110080008	-9.390601e-001	-1.070726e+002	-7.684818e+001	-1.768565e+002	-8.312986e+001	1.773865e+002	-1.188932e+000	-1.060673e+002
110082008	-9.415796e-001	-1.070757e+002	-8.525112e+001	-1.374684e+002	-8.587260e+001	1.656449e+002	-1.186109e+000	-1.060865e+002
110084008	-9.406231e-001	-1.070739e+002	-7.840462e+001	-1.612828e+002	-7.927100e+001	-1.557024e+002	-1.188161e+000	-1.060776e+002
110086009	-9.406723e-001	-1.070826e+002	-7.711851e+001	-1.661419e+002	-7.744828e+001	1.774572e+002	-1.186628e+000	-1.060792e+002
110088009	-9.379828e-001	-1.070951e+002	-7.821727e+001	-1.363991e+002	-8.162135e+001	-1.652233e+002	-1.186791e+000	-1.060992e+002
110090009	-9.431489e-001	-1.070812e+002	-7.868563e+001	-1.612193e+002	-8.329189e+001	-1.066557e+002	-1.187395e+000	-1.060973e+002
110092009	-9.418267e-001	-1.070780e+002	-8.666114e+001	-1.716307e+002	-7.853080e+001	-1.379606e+002	-1.186602e+000	-1.060999e+002
110094009	-9.387369e-001	-1.070880e+002	-7.672068e+001	-1.666875e+002	-7.905396e+001	-1.532177e+002	-1.189105e+000	-1.060937e+002
110096010	-9.402848e-001	-1.070844e+002	-7.926255e+001	-1.611909e+002	-8.066509e+001	-1.636817e+002	-1.189315e+000	-1.060980e+002
110098010	-9.410780e-001	-1.070847e+002	-8.000923e+001	-1.687506e+002	-7.803041e+001	-1.479827e+002	-1.189411e+000	-1.060985e+002
110100010	-9.403082e-001	-1.071067e+002	-7.547349e+001	-1.719808e+002	-8.322838e+001	1.611361e+002	-1.189671e+000	-1.060881e+002
110102010	-9.404721e-001	-1.070842e+002	-7.822718e+001	1.603737e+002	-7.637114e+001	-1.644071e+002	-1.187529e+000	-1.060975e+002
110104010	-9.433584e-001	-1.071072e+002	-8.392864e+001	-1.294258e+002	-8.023365e+001	-1.340298e+002	-1.187105e+000	-1.060973e+002
110106011	-9.397259e-001	-1.070953e+002	-8.186973e+001	-1.567172e+002	-7.822491e+001	-1.500884e+002	-1.186079e+000	-1.061137e+002
110108011	-9.400002e-001	-1.071077e+002	-7.817898e+001	-1.431863e+002	-8.116668e+001	-1.774720e+002	-1.187981e+000	-1.061129e+002
110110011	-9.411497e-001	-1.070931e+002	-8.176392e+001	-1.228712e+002	-7.974246e+001	-1.354686e+002	-1.190669e+000	-1.061082e+002
110112011	-9.426855e-001	-1.071170e+002	-7.799090e+001	-1.398690e+002	-7.796471e+001	-1.434273e+002	-1.185754e+000	-1.061207e+002
110114011	-9.405917e-001	-1.071079e+002	-7.836165e+001	-1.666503e+002	-8.859028e+001	1.622053e+002	-1.188193e+000	-1.061245e+002
110116012	-9.409093e-001	-1.071109e+002	-7.965980e+001	1.618304e+002	-8.622477e+001	-1.612149e+002	-1.189184e+000	-1.061059e+002
110118012	-9.419050e-001	-1.071208e+002	-8.232729e+001	-1.491272e+002	-8.016024e+001	-1.799151e+002	-1.189960e+000	-1.060989e+002
110120012	-9.416745e-001	-1.071073e+002	-7.621899e+001	-1.742652e+002	-8.334620e+001	-1.753756e+002	-1.189514e+000	-1.061183e+002
110122012	-9.432006e-001	-1.071220e+002	-8.015088e+001	-1.756119e+002	-8.289950e+001	-1.335054e+002	-1.188684e+000	-1.061288e+002
110124012	-9.428960e-001	-1.071206e+002	-8.589638e+001	1.277078e+002	-7.905863e+001	-1.731794e+002	-1.189352e+000	-1.061290e+002
110126013	-9.427508e-001	-1.071199e+002	-8.104314e+001	-1.758601e+002	-8.043884e+001	-1.605242e+002	-1.189953e+000	-1.061172e+002
110128013	-9.420718e-001	-1.071214e+002	-7.741903e+001	-1.395606e+002	-7.759822e+001	-1.483997e+002	-1.191323e+000	-1.061291e+002
110130013	-9.390274e-001	-1.071290e+002	-7.868864e+001	-1.448848e+002	-8.255732e+001	-1.718062e+002	-1.187826e+000	-1.061273e+002
110132013	-9.432578e-001	-1.071266e+002	-8.085501e+001	-1.436401e+002	-8.158758e+001	-1.712546e+002	-1.188089e+000	-1.061326e+002
110134013	-9.431555e-001	-1.071494e+002	-7.805867e+001	1.591529e+002	-8.040738e+001	-1.695583e+002	-1.187182e+000	-1.061329e+002
110136014	-9.422620e-001	-1.071370e+002	-7.696034e+001	-1.480378e+002	-8.346131e+001	-1.364437e+002	-1.190554e+000	-1.061247e+002
110138014	-9.440119e-001	-1.071209e+002	-8.174387e+001	-1.246290e+002	-8.071043e+001	1.752510e+002	-1.189227e+000	-1.061367e+002
110140014	-9.422804e-001	-1.071463e+002	-8.059656e+001	-1.466276e+002	-8.332888e+001	-1.498438e+002	-1.187909e+000	-1.061312e+002
110142014	-9.413111e-001	-1.071421e+002	-7.940894e+001	-1.641338e+002	-7.911412e+001	-1.510949e+002	-1.188783e+000	-1.061425e+002
110144014	-9.439869e-001	-1.071257e+002	-7.676792e+001	-1.436608e+002	-8.018554e+001	1.784868e+002	-1.191299e+000	-1.061506e+002
110146015	-9.422753e-001	-1.071488e+002	-7.777165e+001	-1.544761e+002	-7.779943e+001	-1.798135e+002	-1.191476e+000	-1.061427e+002
110148015	-9.420356e-001	-1.071551e+002	-7.953475e+001	-1.397053e+002	-8.290557e+001	-1.334363e+002	-1.189038e+000	-1.061518e+002
110150015	-9.434206e-001	-1.071511e+002	-7.930907e+001	1.659279e+002	-8.080315e+001	-1.574447e+002	-1.190378e+000	-1.061440e+002
110152015	-9.400581e-001	-1.071356e+002	-7.566921e+001	-1.444612e+002	-7.819798e+001	-1.341934e+002	-1.189992e+000	-1.061445e+002
110154015	-9.425190e-001	-1.071405e+002	-7.931889e+001	-1.539172e+002	-8.322229e+001	-1.529881e+002	-1.187390e+000	-1.061640e+002
110156016	-9.409861e-001	-1.071447e+002	-8.368033e+001	-1.552606e+002	-8.245866e+001	-1.427467e+002	-1.191811e+000	-1.061371e+002
110158016	-9.434632e-001	-1.071477e+002	-7.936690e+001	-1.661224e+002	-8.016813e+001	1.785204e+002	-1.187134e+000	-1.061604e+002
110160016	-9.420552e-001	-1.071575e+002	-7.888791e+001	-1.157112e+002	-7.597282e+001	-1.563692e+002	-1.187157e+000	-1.061475e+002
110162016	-9.442432e-001	-1.071588e+002	-7.737154e+001	-1.701762e+002	-8.537680e+001	-1.568239e+002	-1.190006e+000	-1.061594e+002
110164016	-9.409585e-001	-1.071491e+002	-7.974725e+001	-1.524003e+002	-8.753552e+001	-1.478950e+002	-1.188515e+000	-1.061590e+002
110166017	-9.422402e-001	-1.071551e+002	-7.722249e+001	-1.620402e+002	-7.914596e+001	1.448788e+002	-1.191024e+000	-1.061771e+002
110168017	-9.423616e-001	-1.071518e+002	-8.168103e+001	-1.606826e+002	-8.292006e+001	-1.591571e+002	-1.189265e+000	-1.061679e+002
110170017	-9.444097e-001	-1.071612e+002	-8.125644e+001	-1.170015e+002	-7.967090e+001	-1.609199e+002	-1.189237e+000	-1.061565e+002
110172017	-9.422281e-001	-1.071633e+002	-8.150754e+001	-1.319271e+002	-7.988295e+001	1.689898e+002	-1.188822e+000	-1.061599e+002
110174017	-9.423506e-001	-1.071645e+002	-7.708329e+001	-1.350837e+002	-8.128777e+001	-1.556217e+002	-1.189809e+000	-1.061732e+002
110176018	-9.412223e-001	-1.071654e+002	-8.059938e+001	1.787955e+002	-8.479450e+001	1.462756e+002	-1.190110e+000	-1.061639e+002
110178018	-9.437640e-001	-1.071771e+002	-7.855055e+001	-1.536234e+002	-7.864599e+001	-1.636952e+002	-1.190257e+000	-1.061751e+002
110180018	-9.442877e-001	-1.071650e+002	-7.936373e+001	-1.640292e+002	-7.973994e+001	-1.441121e+002	-1.188534e+000	-1.061656e+002
110182018	-9.420728e-001	-1.071802e+002	-7.803172e+001	-1.558464e+002	-8.096614e+001	1.771301e+002	-1.189010e+000	-1.061669e+002
110184018	-9.422373e-001	-1.071760e+002	-8.162652e+001	-1.553848e+002	-8.415112e+001	-1.305532e+002	-1.189629e+000	-1.061850e+002
110186019	-9.415627e-001	-1.071811e+002	-7.840711e+001	-1.693696e+002	-8.176950e+001	-1.625358e+002	-1.190158e+000	-1.061785e+002
110188019	-9.429924e-001	-1.071841e+002	-7.764393e+001	-1.510164e+002	-7.967595e+001	-1.574281e+002	-1.190619e+000	-1.061703e+002
110190019	-9.424754e-001	-1.071695e+002	-8.208482e+001	-1.633978e+002	-7.583573e+001	-1.706671e+002	-1.189343e+000	-1.061852e+002
110192019	-9.425771e-001	-1.072025e+002	-7.544696e+001	-1.448258e+002	-8.664739e+001	-1.519327e+002	-1.188200e+000	-1.061774e+002
110194019	-9.435644e-001	-1.071907e+002	-7.959635e+001	-1.335572e+002	-7.890633e+001	-1.689605e+002	-1.188586e+000	-1.061866e+002
110196020	-9.412769e-001	-1.072014e+002	-8.250528e+001	-1.634320e+002	-8.793326e+001	1.506139e+002	-1.191656e+000	-1.061917e+002
110198020	-9.411068e-001	-1.071996e+002	-8.536843e+001	-1.578879e+002	-8.218514e+001	-1.590384e+002	-1.188982e+000	-1.061828e+002
110200020	-9.430385e-001	-1.072045e+002	-8.079959e+001	1.796213e+002	-7.899470e+001	1.724769e+002	-1.193389e+000	-1.061910e+002
110202020	-9.444359e-001	-1.072045e+002	-7.917986e+001	-1.569697e+002	-8.943551e+001	-1.362661e+002	-1.191251e+000	-1.061897e+002
110204020	-9.419442e-001	-1.071952e+002	-8.219966e+001	-1.534344e+002	-7.807158e+001	-1.424123e+002	-1.190281e+000	-1.062060e+002
110206021	-9.434640e-001	-1.072015e+002	-7.719130e+001	-1.604379e+002	-7.949744e+001	-1.724099e+002	-1.191008e+000	-1.061937e+002
110208021	-9.449485e-001	-1.071984e+002	-8.496512e+001	-1.521861e+002	-7.936105e+001	-1.459944e+002	-1.190806e+000	-1.062010e+002
110210021	-9.422942e-001	-1.071914e+002	-7.843219e+001	-1.674697e+002	-7.559636e+001	-1.788241e+002	-1.189771e+000	-1.061993e+002
110212021	-9.442385e-001	-1.071890e+002	-7.880393e+001	-1.483832e+002	-8.453564e+001	-1.765378e+002	-1.188742e+000	-1.062124e+002
110214021	-9.434267e-001	-1.072064e+002	-7.766277e+001	-1.585447e+002	-8.344416e+001	-1.677507e+002	-1.191628e+000	-1.062036e+002
110216022	-9.439318e-001	-1.072123e+002	-8.420934e+001	-1.583594e+002	-8.435819e+001	-1.509462e+002	-1.191208e+000	-1.062148e+002
110218022	-9.463336e-001	-1.072192e+002	-7.889842e+001	-1.590328e+002	-8.133975e+001	1.640436e+002	-1.192097e+000	-1.062239e+002
110220022	-9.449679e-001	-1.072191e+002	-7.883947e+001	-1.349207e+002	-7.926801e+001	-1.727538e+002	-1.190544e+000	-1.062158e+002
110222022	-9.446918e-001	-1.072132e+002	-8.056267e+001	-1.338317e+002	-7.759067e+001	1.630967e+002	-1.189451e+000	-1.062108e+002
110224022	-9.450407e-001	-1.072271e+002	-7.959852e+001	-1.381827e+002	-8.122885e+001	1.772154e+002	-1.191330e+000	-1.062072e+002
110226023	-9.443782e-001	-1.072256e+002	-8.075656e+001	-1.289139e+002	-8.145232e+001	-1.288238e+002	-1.192036e+000	-1.062196e+002
110228023	-9.431224e-001	-1.072228e+002	-7.787306e+001	-1.181604e+002	-8.224239e+001	-1.411579e+002	-1.190786e+000	-1.062200e+002
110230023	-9.465335e-001	-1.072232e+002	-8.051519e+001	-1.736871e+002	-7.886208e+001	-1.306596e+002	-1.192245e+000	-1.062224e+002
110232023	-9.433256e-001	-1.072200e+002	-8.223324e+001	-1.561983e+002	-8.191964e+001	-1.238453e+002	-1.189501e+000	-1.062238e+002
110234023	-9.427893e-001	-1.072256e+002	-7.989379e+001	-1.476271e+002	-7.687461e+001	-1.332890e+002	-1.191279e+000	-1.062302e+002
110236024	-9.440323e-001	-1.072405e+002	-7.548075e+001	-1.309352e+002	-7.646191e+001	-1.705896e+002	-1.191025e+000	-1.062340e+002
110238024	-9.436644e-001	-1.072210e+002	-7.826340e+001	-1.492086e+002	-7.997053e+001	-1.616133e+002	-1.191073e+000	-1.062287e+002
110240024	-9.456986e-001	-1.072310e+002	-8.471634e+001	-1.694617e+002	-8.584198e+001	-1.751234e+002	-1.190424e+000	-1.062424e+002
110242024	-9.424191e-001	-1.072379e+002	-7.736271e+001	1.755300e+002	-7.973116e+001	-1.439978e+002	-1.191853e+000	-1.062469e+002
110244024	-9.437900e-001	-1.072352e+002	-7.681493e+001	-1.641618e+002	-8.307689e+001	-1.560083e+002	-1.190309e+000	-1.062293e+002
110246025	-9.454482e-001	-1.072478e+002	-8.530306e+001	-1.537916e+002	-8.478509e+001	-1.617585e+002	-1.191166e+000	-1.062274e+002
110248025	-9.439966e-001	-1.072400e+002	-8.162374e+001	-1.484814e+002	-8.690963e+001	-1.548492e+002	-1.190611e+000	-1.062378e+002
110250025	-9.426909e-001	-1.072281e+002	-8.042021e+001	-1.184876e+002	-8.080041e+001	-1.370799e+002	-1.192332e+000	-1.062410e+002
110252025	-9.447476e-001	-1.072428e+002	-7.983730e+001	-1.727470e+002	-7.873873e+001	-1.776508e+002	-1.193413e+000	-1.062451e+002
110254025	-9.455095e-001	-1.072339e+002	-7.755219e+001	-1.593823e+002	-8.008337e+001	-1.764585e+002	-1.191344e+000	-1.062457e+002
110256026	-9.439817e-001	-1.072511e+002	-8.313577e+001	-1.555121e+002	-7.867515e+001	1.657521e+002	-1.189780e+000	-1.062352e+002
110258026	-9.461016e-001	-1.072452e+002	-8.742697e+001	-1.670862e+002	-8.228495e+001	-1.741090e+002	-1.190394e+000	-1.062548e+002
110260026	-9.449614e-001	-1.072536e+002	-8.617855e+001	-1.136761e+002	-7.773524e+001	-1.474200e+002	-1.195281e+000	-1.062589e+002
110262026	-9.444807e-001	-1.072444e+002	-9.131523e+001	-1.537471e+002	-8.012370e+001	-1.499980e+002	-1.193683e+000	-1.062533e+002
110264026	-9.462159e-001	-1.072745e+002	-7.819242e+001	-1.618362e+002	-8.164998e+001	-1.606107e+002	-1.193296e+000	-1.062494e+002
110266027	-9.439474e-001	-1.072576e+002	-7.713698e+001	-1.474935e+002	-7.787291e+001	-1.205312e+002	-1.193673e+000	-1.062498e+002
110268027	-9.456052e-001	-1.072656e+002	-8.016153e+001	-1.215986e+002	-7.530769e+001	-1.723368e+002	-1.192495e+000	-1.062501e+002
110270027	-9.450828e-001	-1.072614e+002	-7.655106e+001	-1.551983e+002	-7.990216e+001	-1.508758e+002	-1.191701e+000	-1.062643e+002
110272027	-9.445396e-001	-1.072583e+002	-7.734551e+001	-1.537567e+002	-7.818985e+001	1.754260e+002	-1.193420e+000	-1.062594e+002
110274027	-9.459970e-001	-1.072738e+002	-8.030310e+001	-1.265456e+002	-8.300046e+001	-1.661323e+002	-1.192567e+000	-1.062581e+002
110276028	-9.438780e-001	-1.072721e+002	-8.009595e+001	-1.696419e+002	-8.269007e+001	-1.380004e+002	-1.191065e+000	-1.062734e+002
110278028	-9.464930e-001	-1.072635e+002	-7.960330e+001	-1.413919e+002	-7.943449e+001	-1.708803e+002	-1.192496e+000	-1.062641e+002
110280028	-9.458284e-001	-1.072601e+002	-7.951767e+001	-1.723414e+002	-7.983274e+001	-1.530851e+002	-1.191764e+000	-1.062492e+002
110282028	-9.440616e-001	-1.072733e+002	-7.415860e+001	-1.304571e+002	-7.925191e+001	-1.586330e+002	-1.189932e+000	-1.062730e+002
110284028	-9.458549e-001	-1.072702e+002	-8.291089e+001	-1.571573e+002	-7.872131e+001	-1.523803e+002	-1.192926e+000	-1.062761e+002
110286029	-9.453891e-001	-1.072666e+002	-8.234116e+001	-1.720079e+002	-8.475666e+001	-1.616443e+002	-1.191738e+000	-1.062750e+002
110288029	-9.422937e-001	-1.072564e+002	-7.761223e+001	-1.439462e+002	-7.631246e+001	-1.417510e+002	-1.189195e+000	-1.062710e+002
110290029	-9.459311e-001	-1.072742e+002	-7.752853e+001	-1.476084e+002	-8.265526e+001	-1.441779e+002	-1.192711e+000	-1.062833e+002
110292029	-9.444618e-001	-1.072873e+002	-8.396023e+001	-1.600728e+002	-8.004140e+001	-1.440776e+002	-1.193787e+000	-1.062779e+002
110294029	-9.464697e-001	-1.072893e+002	-8.029905e+001	-1.491714e+002	-7.758569e+001	-1.463959e+002	-1.192092e+000	-1.062874e+002
110296030	-9.458325e-001	-1.072914e+002	-8.087549e+001	-1.379289e+002	-8.175911e+001	-1.685773e+002	-1.194599e+000	-1.062858e+002
110298030	-9.439720e-001	-1.072796e+002	-7.864236e+001	-1.415545e+002	-8.104097e+001	-1.660786e+002	-1.192159e+000	-1.062880e+002
110300030	-9.469621e-001	-1.072947e+002	-8.173467e+001	-1.322202e+002	-8.112998e+001	-1.677696e+002	-1.192224e+000	-1.062840e+002
