!Agilent Technologies,E5071C,MY46520923,B.12.03
!Date: Wed Feb 07 10:40:21 2024
!Data & Calibration Information:
!Freq	S11:SOLT2(ON)	S21:SOLT2(ON)	S12:SOLT2(ON)	S22:SOLT2(ON)
!PortZ  Port1:50+j0    Port2:50+j0
!Above PortZ is port z conversion or system Z0 setting when saving the data.
!When reading, reference impedance value at option line is always used.
# Hz S dB R 50
110000000	-9.383063e-001	-1.070221e+002	-8.210845e+001	-1.380781e+002	-7.631735e+001	-1.573299e+002	-1.256893e+000	-1.057263e+002
110002000	-9.362332e-001	-1.070305e+002	-7.842946e+001	-1.397946e+002	-7.668104e+001	-1.437279e+002	-1.257340e+000	-1.057522e+002
110004000	-9.384329e-001	-1.070216e+002	-8.620397e+001	-1.604145e+002	-7.754550e+001	1.696334e+002	-1.258127e+000	-1.057636e+002
110006001	-9.365998e-001	-1.070271e+002	-7.808160e+001	-1.566124e+002	-7.867284e+001	-1.455157e+002	-1.257017e+000	-1.057496e+002
110008001	-9.379159e-001	-1.070372e+002	-8.239407e+001	-1.520546e+002	-7.888653e+001	-1.502313e+002	-1.258779e+000	-1.057481e+002
110010001	-9.384837e-001	-1.070368e+002	-7.994166e+001	-1.681211e+002	-7.855623e+001	1.774959e+002	-1.257444e+000	-1.057487e+002
110012001	-9.385220e-001	-1.070454e+002	-7.716691e+001	-1.518475e+002	-8.271590e+001	-1.563893e+002	-1.256541e+000	-1.057627e+002
110014001	-9.364325e-001	-1.070389e+002	-7.821924e+001	1.781308e+002	-7.721572e+001	-1.619397e+002	-1.259243e+000	-1.057615e+002
110016002	-9.361340e-001	-1.070439e+002	-7.705706e+001	-1.686744e+002	-7.831208e+001	-1.786042e+002	-1.258546e+000	-1.057585e+002
110018002	-9.381036e-001	-1.070423e+002	-7.841356e+001	-1.672239e+002	-7.881728e+001	-1.639340e+002	-1.258140e+000	-1.057586e+002
110020002	-9.377037e-001	-1.070550e+002	-8.587848e+001	-1.696547e+002	-8.285483e+001	-1.474268e+002	-1.258175e+000	-1.057562e+002
110022002	-9.390370e-001	-1.070340e+002	-8.087299e+001	-1.610113e+002	-8.618734e+001	-1.744842e+002	-1.258761e+000	-1.057507e+002
110024002	-9.363923e-001	-1.070590e+002	-7.731242e+001	-1.518042e+002	-7.688392e+001	-1.759860e+002	-1.258816e+000	-1.057675e+002
110026003	-9.374279e-001	-1.070519e+002	-7.475865e+001	-1.741488e+002	-8.803414e+001	-1.565210e+002	-1.259201e+000	-1.057706e+002
110028003	-9.396511e-001	-1.070404e+002	-8.001198e+001	1.709019e+002	-8.305900e+001	-1.408620e+002	-1.259215e+000	-1.057655e+002
110030003	-9.379051e-001	-1.070616e+002	-8.475736e+001	-1.622368e+002	-7.886820e+001	-1.787385e+002	-1.257406e+000	-1.057683e+002
110032003	-9.386971e-001	-1.070639e+002	-8.098344e+001	-1.417360e+002	-7.855509e+001	-1.729118e+002	-1.257003e+000	-1.057760e+002
110034003	-9.381147e-001	-1.070698e+002	-7.984082e+001	-1.337541e+002	-8.204746e+001	1.775483e+002	-1.257949e+000	-1.057799e+002
110036004	-9.376952e-001	-1.070548e+002	-8.030521e+001	-1.621767e+002	-7.811079e+001	-1.794853e+002	-1.258814e+000	-1.057773e+002
110038004	-9.393929e-001	-1.070667e+002	-7.727900e+001	-1.656318e+002	-7.718836e+001	-1.567517e+002	-1.258944e+000	-1.057749e+002
110040004	-9.389171e-001	-1.070735e+002	-7.774657e+001	-1.614044e+002	-8.239920e+001	-1.488480e+002	-1.259460e+000	-1.057739e+002
110042004	-9.394517e-001	-1.070646e+002	-7.802904e+001	-1.705071e+002	-7.877176e+001	-1.387291e+002	-1.258420e+000	-1.057829e+002
110044004	-9.396665e-001	-1.070712e+002	-7.926024e+001	-1.255543e+002	-8.688123e+001	-1.742422e+002	-1.258114e+000	-1.057853e+002
110046005	-9.377586e-001	-1.070681e+002	-8.736728e+001	1.793592e+002	-7.884177e+001	-1.787432e+002	-1.257802e+000	-1.057753e+002
110048005	-9.371550e-001	-1.070732e+002	-8.059005e+001	-1.607700e+002	-8.023407e+001	-1.626635e+002	-1.260102e+000	-1.057889e+002
110050005	-9.388157e-001	-1.070585e+002	-7.806416e+001	1.799265e+002	-7.791004e+001	-1.605578e+002	-1.256956e+000	-1.057900e+002
110052005	-9.366777e-001	-1.070731e+002	-8.003671e+001	1.687968e+002	-8.321759e+001	-1.783766e+002	-1.258600e+000	-1.057980e+002
110054005	-9.389644e-001	-1.070747e+002	-8.264879e+001	-1.690973e+002	-8.115660e+001	-1.623112e+002	-1.258961e+000	-1.057749e+002
110056006	-9.380393e-001	-1.070775e+002	-7.964910e+001	-1.510032e+002	-7.712613e+001	-1.515988e+002	-1.257700e+000	-1.058023e+002
110058006	-9.382285e-001	-1.070762e+002	-7.691961e+001	-1.766057e+002	-8.153202e+001	-1.279083e+002	-1.259288e+000	-1.057891e+002
110060006	-9.377896e-001	-1.070677e+002	-7.720149e+001	-1.677770e+002	-7.732713e+001	-1.422517e+002	-1.258980e+000	-1.057890e+002
110062006	-9.388299e-001	-1.070769e+002	-7.931428e+001	1.755003e+002	-7.852775e+001	-1.612934e+002	-1.257653e+000	-1.058081e+002
110064006	-9.378686e-001	-1.070893e+002	-7.995221e+001	-1.429786e+002	-7.852154e+001	1.794588e+002	-1.258888e+000	-1.058153e+002
110066007	-9.368956e-001	-1.070825e+002	-8.512540e+001	-1.625650e+002	-8.021829e+001	-1.627286e+002	-1.257756e+000	-1.058151e+002
110068007	-9.394084e-001	-1.070855e+002	-8.114063e+001	-1.558031e+002	-7.793912e+001	-1.713596e+002	-1.261333e+000	-1.058099e+002
110070007	-9.382496e-001	-1.070729e+002	-7.829380e+001	-1.683604e+002	-7.645366e+001	1.696252e+002	-1.257672e+000	-1.058177e+002
110072007	-9.374483e-001	-1.070894e+002	-7.805742e+001	-1.387287e+002	-8.184334e+001	-1.336417e+002	-1.258549e+000	-1.058145e+002
110074007	-9.378831e-001	-1.070968e+002	-8.186385e+001	-1.637785e+002	-7.903746e+001	-1.288477e+002	-1.258853e+000	-1.058046e+002
110076008	-9.402189e-001	-1.070829e+002	-8.123988e+001	-1.355433e+002	-7.903798e+001	-1.330716e+002	-1.259259e+000	-1.058275e+002
110078008	-9.400120e-001	-1.071020e+002	-8.509940e+001	-1.337387e+002	-8.365746e+001	-1.439360e+002	-1.257886e+000	-1.058156e+002
110080008	-9.406253e-001	-1.070925e+002	-8.778785e+001	1.637224e+002	-8.182502e+001	-1.780788e+002	-1.258878e+000	-1.057987e+002
110082008	-9.394272e-001	-1.070918e+002	-8.002252e+001	-1.460797e+002	-8.054274e+001	-1.682050e+002	-1.259335e+000	-1.058195e+002
110084008	-9.404801e-001	-1.071154e+002	-7.874233e+001	-1.580888e+002	-8.059577e+001	-1.402831e+002	-1.260136e+000	-1.058182e+002
110086009	-9.387167e-001	-1.071190e+002	-8.682127e+001	1.487718e+002	-8.140564e+001	1.478488e+002	-1.257504e+000	-1.058300e+002
110088009	-9.372974e-001	-1.071072e+002	-8.140882e+001	-1.688786e+002	-8.720894e+001	-1.714645e+002	-1.259249e+000	-1.058217e+002
110090009	-9.395401e-001	-1.070975e+002	-7.833031e+001	-1.604722e+002	-7.821994e+001	-1.663880e+002	-1.260596e+000	-1.058342e+002
110092009	-9.342402e-001	-1.070988e+002	-7.837846e+001	-1.539418e+002	-8.494355e+001	-1.645624e+002	-1.260857e+000	-1.058154e+002
110094009	-9.392877e-001	-1.071158e+002	-7.760039e+001	-1.708544e+002	-8.126848e+001	-1.606764e+002	-1.261891e+000	-1.058317e+002
110096010	-9.388694e-001	-1.071185e+002	-7.913361e+001	-1.467925e+002	-8.649175e+001	-1.766359e+002	-1.260602e+000	-1.058332e+002
110098010	-9.399543e-001	-1.071111e+002	-8.102816e+001	-1.450571e+002	-7.816719e+001	1.515015e+002	-1.258764e+000	-1.058309e+002
110100010	-9.377421e-001	-1.071124e+002	-8.033270e+001	-1.490247e+002	-7.875923e+001	-1.544666e+002	-1.259850e+000	-1.058310e+002
110102010	-9.381221e-001	-1.071093e+002	-8.639677e+001	-1.671330e+002	-8.173443e+001	-1.394677e+002	-1.262308e+000	-1.058341e+002
110104010	-9.387946e-001	-1.071238e+002	-8.058117e+001	-1.488533e+002	-8.317506e+001	-1.749333e+002	-1.257712e+000	-1.058406e+002
110106011	-9.371853e-001	-1.071300e+002	-7.795959e+001	-1.576716e+002	-8.031698e+001	-1.574027e+002	-1.259956e+000	-1.058332e+002
110108011	-9.370375e-001	-1.071264e+002	-7.997821e+001	-1.445205e+002	-8.357995e+001	-1.592406e+002	-1.262113e+000	-1.058433e+002
110110011	-9.391190e-001	-1.071259e+002	-8.397511e+001	-1.513951e+002	-7.856532e+001	-1.453151e+002	-1.260504e+000	-1.058475e+002
110112011	-9.388563e-001	-1.071253e+002	-8.244491e+001	1.351539e+002	-8.319206e+001	-1.782326e+002	-1.262542e+000	-1.058525e+002
110114011	-9.409182e-001	-1.071268e+002	-7.579550e+001	-1.351602e+002	-8.031105e+001	-1.611519e+002	-1.256766e+000	-1.058472e+002
110116012	-9.390169e-001	-1.071332e+002	-7.773607e+001	-1.477979e+002	-8.638527e+001	-1.248419e+002	-1.261912e+000	-1.058667e+002
110118012	-9.395059e-001	-1.071258e+002	-7.853514e+001	-1.564795e+002	-7.829196e+001	-1.700504e+002	-1.260770e+000	-1.058455e+002
110120012	-9.401694e-001	-1.071479e+002	-8.323164e+001	-1.773742e+002	-8.206927e+001	-1.480258e+002	-1.261545e+000	-1.058442e+002
110122012	-9.397710e-001	-1.071408e+002	-9.122090e+001	1.692417e+002	-8.065909e+001	-1.263966e+002	-1.260454e+000	-1.058644e+002
110124012	-9.387027e-001	-1.071414e+002	-8.034631e+001	1.751465e+002	-7.785493e+001	-1.214847e+002	-1.260353e+000	-1.058550e+002
110126013	-9.419032e-001	-1.071414e+002	-7.948052e+001	-1.434720e+002	-8.300053e+001	-1.652910e+002	-1.259348e+000	-1.058716e+002
110128013	-9.404151e-001	-1.071450e+002	-8.566774e+001	-1.723762e+002	-8.240405e+001	-1.358203e+002	-1.259584e+000	-1.058667e+002
110130013	-9.393749e-001	-1.071494e+002	-8.215616e+001	1.668436e+002	-8.103340e+001	-1.662563e+002	-1.260415e+000	-1.058522e+002
110132013	-9.402211e-001	-1.071525e+002	-8.251285e+001	-1.776224e+002	-8.317498e+001	-1.782011e+002	-1.260561e+000	-1.058624e+002
110134013	-9.382273e-001	-1.071489e+002	-8.196620e+001	-1.578039e+002	-7.940617e+001	-1.744360e+002	-1.259142e+000	-1.058631e+002
110136014	-9.393452e-001	-1.071600e+002	-7.728900e+001	-1.387420e+002	-7.853064e+001	-1.383554e+002	-1.262490e+000	-1.058672e+002
110138014	-9.409074e-001	-1.071548e+002	-7.753976e+001	-1.609423e+002	-7.566157e+001	-1.524440e+002	-1.259704e+000	-1.058574e+002
110140014	-9.407001e-001	-1.071586e+002	-7.987042e+001	-1.727915e+002	-8.025704e+001	-1.753623e+002	-1.260514e+000	-1.058674e+002
110142014	-9.410135e-001	-1.071619e+002	-7.766945e+001	-1.316285e+002	-7.768141e+001	-1.464929e+002	-1.261326e+000	-1.058811e+002
110144014	-9.400702e-001	-1.071696e+002	-7.826720e+001	-1.394966e+002	-8.099723e+001	-1.752848e+002	-1.259943e+000	-1.058612e+002
110146015	-9.403354e-001	-1.071546e+002	-8.138149e+001	-1.538108e+002	-8.119361e+001	-1.647334e+002	-1.261969e+000	-1.058834e+002
110148015	-9.392543e-001	-1.071799e+002	-7.992032e+001	-1.364467e+002	-7.946507e+001	-1.499493e+002	-1.260840e+000	-1.058786e+002
110150015	-9.408285e-001	-1.071813e+002	-7.803464e+001	-1.626976e+002	-7.903513e+001	1.773622e+002	-1.260758e+000	-1.058861e+002
110152015	-9.396284e-001	-1.071974e+002	-8.508660e+001	-1.624049e+002	-8.060112e+001	-1.642576e+002	-1.259896e+000	-1.058730e+002
110154015	-9.412677e-001	-1.071612e+002	-8.108429e+001	-1.537317e+002	-8.016524e+001	-1.624632e+002	-1.261427e+000	-1.058821e+002
110156016	-9.425140e-001	-1.071848e+002	-9.033524e+001	-1.486052e+002	-8.286861e+001	-1.701595e+002	-1.261268e+000	-1.058943e+002
110158016	-9.390215e-001	-1.071822e+002	-8.077228e+001	-1.381021e+002	-7.595396e+001	-1.553599e+002	-1.259965e+000	-1.058969e+002
110160016	-9.411488e-001	-1.071748e+002	-8.030105e+001	-1.586923e+002	-8.307253e+001	-1.550010e+002	-1.262430e+000	-1.058865e+002
110162016	-9.397766e-001	-1.071792e+002	-7.728686e+001	1.718541e+002	-7.578450e+001	1.708364e+002	-1.261419e+000	-1.058792e+002
110164016	-9.381369e-001	-1.071715e+002	-7.599281e+001	-1.365996e+002	-7.580640e+001	-1.315144e+002	-1.259185e+000	-1.059079e+002
110166017	-9.396480e-001	-1.071929e+002	-7.981790e+001	-1.492040e+002	-7.695659e+001	-1.406078e+002	-1.260354e+000	-1.059070e+002
110168017	-9.392678e-001	-1.071757e+002	-7.591891e+001	-1.781687e+002	-7.823417e+001	-1.586330e+002	-1.260392e+000	-1.058922e+002
110170017	-9.392283e-001	-1.071931e+002	-7.605172e+001	-1.375494e+002	-7.890489e+001	-1.643764e+002	-1.259879e+000	-1.058987e+002
110172017	-9.405777e-001	-1.071852e+002	-8.384682e+001	-1.439381e+002	-8.076433e+001	-1.549350e+002	-1.261610e+000	-1.059095e+002
110174017	-9.419027e-001	-1.071880e+002	-8.054975e+001	-1.486988e+002	-7.997250e+001	-1.673595e+002	-1.260446e+000	-1.059024e+002
110176018	-9.399581e-001	-1.071937e+002	-7.730333e+001	-1.287428e+002	-8.089392e+001	-1.612013e+002	-1.264714e+000	-1.059253e+002
110178018	-9.391152e-001	-1.071775e+002	-7.939223e+001	-1.552316e+002	-7.809387e+001	-1.392040e+002	-1.259714e+000	-1.059051e+002
110180018	-9.429052e-001	-1.071907e+002	-8.163352e+001	-1.323182e+002	-7.838765e+001	-1.592113e+002	-1.261737e+000	-1.059123e+002
110182018	-9.418424e-001	-1.071954e+002	-9.132272e+001	-8.768320e+001	-8.024339e+001	-1.646629e+002	-1.262128e+000	-1.059110e+002
110184018	-9.384724e-001	-1.071852e+002	-7.825513e+001	-1.615286e+002	-8.059779e+001	-1.471368e+002	-1.264130e+000	-1.059175e+002
110186019	-9.412760e-001	-1.072019e+002	-8.193064e+001	-1.577045e+002	-7.997417e+001	-1.580298e+002	-1.259675e+000	-1.059186e+002
110188019	-9.403147e-001	-1.072087e+002	-7.819867e+001	1.767908e+002	-8.038120e+001	-1.348210e+002	-1.261574e+000	-1.059039e+002
110190019	-9.423277e-001	-1.072081e+002	-7.755012e+001	-1.489773e+002	-7.800904e+001	-1.580076e+002	-1.260120e+000	-1.059161e+002
110192019	-9.395953e-001	-1.072134e+002	-7.843064e+001	-1.444827e+002	-7.728004e+001	-1.505808e+002	-1.264322e+000	-1.059126e+002
110194019	-9.415244e-001	-1.072037e+002	-7.826632e+001	-1.312765e+002	-8.655054e+001	-1.487617e+002	-1.264119e+000	-1.059335e+002
110196020	-9.405532e-001	-1.072141e+002	-7.761021e+001	-1.249968e+002	-7.774340e+001	-1.529870e+002	-1.263050e+000	-1.059139e+002
110198020	-9.400286e-001	-1.071997e+002	-8.029721e+001	-1.488041e+002	-7.979565e+001	-1.219610e+002	-1.261756e+000	-1.059290e+002
110200020	-9.390165e-001	-1.072068e+002	-8.035555e+001	1.789828e+002	-8.265309e+001	-1.717905e+002	-1.263035e+000	-1.059253e+002
110202020	-9.422013e-001	-1.072120e+002	-7.881354e+001	-1.370005e+002	-8.342105e+001	-1.337945e+002	-1.260954e+000	-1.059432e+002
110204020	-9.403055e-001	-1.072116e+002	-7.874513e+001	-1.551532e+002	-8.084896e+001	-1.531977e+002	-1.262411e+000	-1.059346e+002
110206021	-9.409602e-001	-1.072189e+002	-8.093760e+001	-1.264196e+002	-7.920664e+001	-1.328766e+002	-1.261122e+000	-1.059237e+002
110208021	-9.415485e-001	-1.072263e+002	-7.751785e+001	-1.717628e+002	-8.066434e+001	-1.331462e+002	-1.260408e+000	-1.059418e+002
110210021	-9.409545e-001	-1.072110e+002	-7.752581e+001	-1.596612e+002	-8.120621e+001	-1.645876e+002	-1.263212e+000	-1.059426e+002
110212021	-9.404932e-001	-1.072142e+002	-7.811583e+001	-1.549807e+002	-8.150601e+001	-1.314237e+002	-1.261945e+000	-1.059301e+002
110214021	-9.414677e-001	-1.072432e+002	-7.941355e+001	-1.655789e+002	-7.870393e+001	-1.397239e+002	-1.260116e+000	-1.059587e+002
110216022	-9.407137e-001	-1.072261e+002	-7.647370e+001	-1.462908e+002	-7.665438e+001	-1.663174e+002	-1.261840e+000	-1.059445e+002
110218022	-9.410727e-001	-1.072464e+002	-7.844889e+001	-1.616464e+002	-7.856495e+001	1.768507e+002	-1.262462e+000	-1.059280e+002
110220022	-9.430695e-001	-1.072393e+002	-8.033196e+001	-1.773340e+002	-8.088219e+001	-9.525130e+001	-1.263226e+000	-1.059482e+002
110222022	-9.409219e-001	-1.072352e+002	-8.063267e+001	-1.417102e+002	-7.893966e+001	-1.662949e+002	-1.264357e+000	-1.059497e+002
110224022	-9.414137e-001	-1.072391e+002	-7.794611e+001	-1.549298e+002	-7.744930e+001	-1.509738e+002	-1.262869e+000	-1.059383e+002
110226023	-9.406906e-001	-1.072394e+002	-7.894130e+001	-1.565315e+002	-7.776676e+001	-1.720161e+002	-1.261578e+000	-1.059448e+002
110228023	-9.407544e-001	-1.072441e+002	-8.959229e+001	-1.120248e+002	-7.791758e+001	-1.764518e+002	-1.263154e+000	-1.059496e+002
110230023	-9.424995e-001	-1.072431e+002	-7.770647e+001	-1.402089e+002	-7.776255e+001	-1.557332e+002	-1.262695e+000	-1.059437e+002
110232023	-9.433548e-001	-1.072597e+002	-7.914223e+001	-1.406894e+002	-7.771997e+001	-1.376088e+002	-1.264456e+000	-1.059470e+002
110234023	-9.433799e-001	-1.072547e+002	-8.108093e+001	-1.149880e+002	-8.153242e+001	1.781563e+002	-1.262140e+000	-1.059719e+002
110236024	-9.407738e-001	-1.072410e+002	-7.980353e+001	-1.489836e+002	-7.910878e+001	-1.400822e+002	-1.262899e+000	-1.059652e+002
110238024	-9.415885e-001	-1.072458e+002	-8.449811e+001	-1.199977e+002	-7.790978e+001	-1.728055e+002	-1.263151e+000	-1.059588e+002
110240024	-9.428128e-001	-1.072589e+002	-7.785382e+001	-1.348242e+002	-7.771620e+001	-1.640498e+002	-1.262539e+000	-1.059517e+002
110242024	-9.409733e-001	-1.072634e+002	-8.001042e+001	-1.473356e+002	-8.235450e+001	-1.250405e+002	-1.262362e+000	-1.059754e+002
110244024	-9.443186e-001	-1.072645e+002	-7.620502e+001	-1.423478e+002	-7.700554e+001	-1.439938e+002	-1.266169e+000	-1.059791e+002
110246025	-9.411537e-001	-1.072560e+002	-8.023203e+001	1.776171e+002	-8.057845e+001	-1.726950e+002	-1.265612e+000	-1.059750e+002
110248025	-9.412870e-001	-1.072648e+002	-7.939896e+001	-1.244729e+002	-7.814902e+001	-1.708563e+002	-1.262624e+000	-1.059725e+002
110250025	-9.431433e-001	-1.072770e+002	-7.639568e+001	-1.525862e+002	-8.736536e+001	-1.544733e+002	-1.264364e+000	-1.059618e+002
110252025	-9.414577e-001	-1.072623e+002	-7.813645e+001	1.694743e+002	-7.804519e+001	-1.404183e+002	-1.263546e+000	-1.059778e+002
110254025	-9.438686e-001	-1.072617e+002	-7.852091e+001	-1.575720e+002	-8.164286e+001	-1.491710e+002	-1.264858e+000	-1.059742e+002
110256026	-9.407893e-001	-1.072663e+002	-7.688435e+001	-1.547286e+002	-8.046134e+001	-1.654586e+002	-1.263694e+000	-1.059914e+002
110258026	-9.413019e-001	-1.072720e+002	-8.067709e+001	-1.232382e+002	-8.377236e+001	-1.363288e+002	-1.264334e+000	-1.059849e+002
110260026	-9.415822e-001	-1.072685e+002	-7.776052e+001	-1.560686e+002	-7.611026e+001	-1.405694e+002	-1.262240e+000	-1.059792e+002
110262026	-9.432539e-001	-1.072721e+002	-8.142340e+001	1.706616e+002	-7.737349e+001	-1.360813e+002	-1.265568e+000	-1.059835e+002
110264026	-9.423705e-001	-1.072796e+002	-7.975133e+001	-1.459052e+002	-8.134630e+001	-1.544924e+002	-1.266198e+000	-1.059801e+002
110266027	-9.442644e-001	-1.072788e+002	-7.816500e+001	-1.420604e+002	-7.693395e+001	-1.690568e+002	-1.264836e+000	-1.060127e+002
110268027	-9.427817e-001	-1.072720e+002	-8.242437e+001	-1.641059e+002	-8.163788e+001	-1.491232e+002	-1.263323e+000	-1.059945e+002
110270027	-9.429736e-001	-1.072801e+002	-7.893935e+001	-1.536172e+002	-7.948066e+001	-1.530317e+002	-1.265722e+000	-1.060081e+002
110272027	-9.423453e-001	-1.072783e+002	-7.705091e+001	-1.536264e+002	-8.071375e+001	-1.625427e+002	-1.265667e+000	-1.059949e+002
110274027	-9.444544e-001	-1.072866e+002	-8.055464e+001	-1.519317e+002	-7.779584e+001	-1.517216e+002	-1.267937e+000	-1.059786e+002
110276028	-9.423383e-001	-1.072775e+002	-8.190723e+001	-9.454320e+001	-8.215302e+001	-1.615861e+002	-1.266825e+000	-1.059973e+002
110278028	-9.442239e-001	-1.072739e+002	-7.506301e+001	-1.391305e+002	-8.297986e+001	-1.497106e+002	-1.264110e+000	-1.060023e+002
110280028	-9.408117e-001	-1.072990e+002	-7.866166e+001	-1.728887e+002	-7.981778e+001	-1.522085e+002	-1.263235e+000	-1.060068e+002
110282028	-9.443524e-001	-1.072908e+002	-8.108951e+001	-1.391063e+002	-7.718876e+001	-1.604327e+002	-1.263714e+000	-1.060042e+002
110284028	-9.419514e-001	-1.072889e+002	-7.906949e+001	-1.621265e+002	-7.882148e+001	-1.623001e+002	-1.263034e+000	-1.059940e+002
110286029	-9.418910e-001	-1.072892e+002	-7.638767e+001	-1.566975e+002	-7.973120e+001	-1.762750e+002	-1.263687e+000	-1.060083e+002
110288029	-9.434061e-001	-1.072873e+002	-8.006090e+001	-1.487559e+002	-7.920105e+001	-1.445566e+002	-1.266619e+000	-1.060057e+002
110290029	-9.423495e-001	-1.073066e+002	-7.834716e+001	-1.418099e+002	-8.239642e+001	-1.312559e+002	-1.266819e+000	-1.060096e+002
110292029	-9.440661e-001	-1.073030e+002	-7.720150e+001	-1.501103e+002	-8.236691e+001	-1.270114e+002	-1.264114e+000	-1.060112e+002
110294029	-9.409688e-001	-1.072995e+002	-7.733192e+001	-1.465634e+002	-7.873991e+001	-1.497185e+002	-1.266116e+000	-1.060202e+002
110296030	-9.409686e-001	-1.072937e+002	-7.546845e+001	-1.488794e+002	-8.285795e+001	-1.699235e+002	-1.264546e+000	-1.060250e+002
110298030	-9.420923e-001	-1.073071e+002	-8.251776e+001	-1.364631e+002	-8.056267e+001	-1.799346e+002	-1.265140e+000	-1.060180e+002
110300030	-9.416487e-001	-1.073158e+002	-8.247447e+001	-1.620382e+002	-8.088658e+001	-1.277146e+002	-1.264406e+000	-1.060284e+002
