!Agilent Technologies,E5071C,MY46520923,B.12.03
!Date: Tue Feb 06 10:05:18 2024
!Data & Calibration Information:
!Freq	S11:SOLT2(ON)	S21:SOLT2(ON)	S12:SOLT2(ON)	S22:SOLT2(ON)
!PortZ  Port1:50+j0    Port2:50+j0
!Above PortZ is port z conversion or system Z0 setting when saving the data.
!When reading, reference impedance value at option line is always used.
# Hz S dB R 50
110000000	-9.322143e-001	-1.078466e+002	-7.845488e+001	1.730986e+002	-7.712537e+001	-1.709774e+002	-1.131002e+000	-1.056538e+002
110002000	-9.339993e-001	-1.078622e+002	-7.886480e+001	-1.505289e+002	-7.743667e+001	1.785625e+002	-1.131259e+000	-1.056913e+002
110004000	-9.332058e-001	-1.078496e+002	-7.732688e+001	1.755840e+002	-7.757406e+001	-1.746201e+002	-1.128809e+000	-1.056891e+002
110006001	-9.349827e-001	-1.078694e+002	-7.864076e+001	-1.655868e+002	-8.137931e+001	-1.757955e+002	-1.127602e+000	-1.056865e+002
110008001	-9.347397e-001	-1.078518e+002	-8.071636e+001	-1.718156e+002	-8.073625e+001	-1.544592e+002	-1.130677e+000	-1.056764e+002
110010001	-9.334659e-001	-1.078717e+002	-8.354497e+001	1.572615e+002	-8.342731e+001	1.784856e+002	-1.131476e+000	-1.056990e+002
110012001	-9.329099e-001	-1.078611e+002	-8.155750e+001	-1.743457e+002	-7.869490e+001	-1.753155e+002	-1.130547e+000	-1.056786e+002
110014001	-9.321738e-001	-1.078674e+002	-7.638593e+001	-1.707683e+002	-8.275944e+001	-1.603290e+002	-1.129709e+000	-1.056991e+002
110016002	-9.357085e-001	-1.078726e+002	-7.982411e+001	-1.578545e+002	-8.164180e+001	1.729431e+002	-1.131207e+000	-1.056862e+002
110018002	-9.359297e-001	-1.078617e+002	-7.469169e+001	-1.653178e+002	-8.218135e+001	-1.658819e+002	-1.131066e+000	-1.056848e+002
110020002	-9.332195e-001	-1.078839e+002	-7.997037e+001	-1.589358e+002	-7.893957e+001	-1.385484e+002	-1.130959e+000	-1.057015e+002
110022002	-9.338030e-001	-1.078725e+002	-7.859747e+001	-1.618425e+002	-8.326770e+001	1.733317e+002	-1.131860e+000	-1.056895e+002
110024002	-9.357923e-001	-1.078857e+002	-7.844051e+001	-1.709441e+002	-7.735914e+001	-1.361803e+002	-1.129565e+000	-1.056879e+002
110026003	-9.352620e-001	-1.078802e+002	-7.813682e+001	-1.448827e+002	-7.817166e+001	-1.695115e+002	-1.132277e+000	-1.056864e+002
110028003	-9.362052e-001	-1.078857e+002	-7.844138e+001	1.746653e+002	-8.002665e+001	-1.647275e+002	-1.130274e+000	-1.056854e+002
110030003	-9.359677e-001	-1.078856e+002	-8.326527e+001	-1.355205e+002	-7.793659e+001	1.785873e+002	-1.131000e+000	-1.056879e+002
110032003	-9.346178e-001	-1.078931e+002	-7.828180e+001	-1.716487e+002	-7.759225e+001	1.665630e+002	-1.131832e+000	-1.056899e+002
110034003	-9.341199e-001	-1.078886e+002	-7.895800e+001	-1.329724e+002	-7.822611e+001	-1.676875e+002	-1.129033e+000	-1.057091e+002
110036004	-9.359632e-001	-1.078968e+002	-7.660263e+001	-1.629362e+002	-8.254176e+001	-1.372583e+002	-1.130213e+000	-1.057080e+002
110038004	-9.326483e-001	-1.078897e+002	-8.315039e+001	-1.425050e+002	-7.891659e+001	-1.759690e+002	-1.129772e+000	-1.056916e+002
110040004	-9.343254e-001	-1.078811e+002	-8.294254e+001	1.748286e+002	-7.749255e+001	-1.692842e+002	-1.130972e+000	-1.057123e+002
110042004	-9.345005e-001	-1.078767e+002	-7.724731e+001	-1.662556e+002	-7.542064e+001	-1.711047e+002	-1.132583e+000	-1.057112e+002
110044004	-9.350440e-001	-1.079034e+002	-7.623948e+001	-1.591908e+002	-8.481007e+001	-1.497794e+002	-1.130860e+000	-1.057063e+002
110046005	-9.330834e-001	-1.078863e+002	-8.054486e+001	-1.459216e+002	-7.544603e+001	1.727438e+002	-1.132988e+000	-1.057127e+002
110048005	-9.336554e-001	-1.078928e+002	-7.939955e+001	-1.538136e+002	-7.746162e+001	-1.573237e+002	-1.130918e+000	-1.057199e+002
110050005	-9.370051e-001	-1.078891e+002	-7.713941e+001	-1.623123e+002	-7.914415e+001	-1.576608e+002	-1.132952e+000	-1.057220e+002
110052005	-9.367142e-001	-1.079080e+002	-7.705770e+001	1.752330e+002	-7.842634e+001	-1.698805e+002	-1.131725e+000	-1.057111e+002
110054005	-9.339972e-001	-1.078954e+002	-8.121910e+001	1.768544e+002	-8.279208e+001	1.615812e+002	-1.130718e+000	-1.057171e+002
110056006	-9.328678e-001	-1.079006e+002	-8.111816e+001	-1.649114e+002	-7.663899e+001	-1.759811e+002	-1.131692e+000	-1.057261e+002
110058006	-9.339039e-001	-1.079068e+002	-7.664476e+001	-1.636766e+002	-8.182144e+001	1.633496e+002	-1.132492e+000	-1.057318e+002
110060006	-9.346201e-001	-1.079125e+002	-7.755677e+001	1.597758e+002	-8.096854e+001	-1.619313e+002	-1.131833e+000	-1.057309e+002
110062006	-9.342488e-001	-1.079157e+002	-7.776044e+001	1.562201e+002	-7.959763e+001	-1.753940e+002	-1.132281e+000	-1.057468e+002
110064006	-9.349793e-001	-1.078982e+002	-7.852858e+001	-1.449777e+002	-7.732098e+001	-1.580833e+002	-1.131794e+000	-1.057344e+002
110066007	-9.343128e-001	-1.079254e+002	-7.917484e+001	-1.739775e+002	-7.767049e+001	1.704179e+002	-1.130003e+000	-1.057381e+002
110068007	-9.367948e-001	-1.079148e+002	-8.235194e+001	-1.599281e+002	-7.596651e+001	1.778611e+002	-1.131966e+000	-1.057288e+002
110070007	-9.327696e-001	-1.079111e+002	-8.064679e+001	-1.694163e+002	-8.691675e+001	1.376000e+002	-1.133553e+000	-1.057339e+002
110072007	-9.338435e-001	-1.079065e+002	-7.936294e+001	-1.466225e+002	-8.068778e+001	-1.717203e+002	-1.131541e+000	-1.057366e+002
110074007	-9.350401e-001	-1.079279e+002	-8.301079e+001	-1.552867e+002	-7.848239e+001	-1.679956e+002	-1.133062e+000	-1.057397e+002
110076008	-9.363817e-001	-1.079231e+002	-7.746260e+001	1.643861e+002	-7.876384e+001	-1.427645e+002	-1.132912e+000	-1.057440e+002
110078008	-9.335743e-001	-1.079221e+002	-7.740329e+001	-1.680590e+002	-7.781654e+001	-1.761888e+002	-1.132058e+000	-1.057508e+002
110080008	-9.353816e-001	-1.079353e+002	-8.248021e+001	1.761265e+002	-7.913694e+001	1.755734e+002	-1.133287e+000	-1.057393e+002
110082008	-9.349851e-001	-1.079378e+002	-8.185095e+001	-1.517533e+002	-7.820847e+001	-1.610639e+002	-1.129970e+000	-1.057508e+002
110084008	-9.338247e-001	-1.079370e+002	-7.827783e+001	-1.580699e+002	-7.670529e+001	1.660745e+002	-1.132901e+000	-1.057582e+002
110086009	-9.341925e-001	-1.079326e+002	-7.802789e+001	-1.431266e+002	-7.965786e+001	1.656342e+002	-1.133242e+000	-1.057600e+002
110088009	-9.347459e-001	-1.079481e+002	-8.027400e+001	1.679399e+002	-8.031709e+001	-1.274153e+002	-1.133577e+000	-1.057499e+002
110090009	-9.343212e-001	-1.079461e+002	-7.968725e+001	-1.662120e+002	-7.781596e+001	-1.511789e+002	-1.132507e+000	-1.057662e+002
110092009	-9.357451e-001	-1.079436e+002	-7.835331e+001	1.655019e+002	-7.831249e+001	1.673906e+002	-1.134071e+000	-1.057638e+002
110094009	-9.328311e-001	-1.079564e+002	-7.694879e+001	1.762957e+002	-7.790365e+001	1.787361e+002	-1.132439e+000	-1.057611e+002
110096010	-9.352193e-001	-1.079392e+002	-8.153208e+001	-1.716490e+002	-7.845536e+001	-1.311236e+002	-1.131781e+000	-1.057651e+002
110098010	-9.368077e-001	-1.079557e+002	-7.768549e+001	-1.419053e+002	-7.811094e+001	-1.646846e+002	-1.131416e+000	-1.057661e+002
110100010	-9.348509e-001	-1.079464e+002	-8.109886e+001	1.657624e+002	-7.594259e+001	-1.662536e+002	-1.131759e+000	-1.057656e+002
110102010	-9.354594e-001	-1.079574e+002	-8.392476e+001	1.673823e+002	-7.899498e+001	1.580195e+002	-1.131911e+000	-1.057613e+002
110104010	-9.349884e-001	-1.079638e+002	-8.127881e+001	-1.726087e+002	-7.859523e+001	1.718602e+002	-1.134851e+000	-1.057613e+002
110106011	-9.355908e-001	-1.079520e+002	-8.525040e+001	1.637092e+002	-7.543996e+001	-1.602500e+002	-1.134043e+000	-1.057752e+002
110108011	-9.365137e-001	-1.079614e+002	-8.173981e+001	-1.706581e+002	-8.343875e+001	-1.589220e+002	-1.132074e+000	-1.057909e+002
110110011	-9.343032e-001	-1.079526e+002	-7.962120e+001	-1.394036e+002	-7.830382e+001	-1.715747e+002	-1.133375e+000	-1.057668e+002
110112011	-9.360691e-001	-1.079646e+002	-8.101455e+001	-1.523515e+002	-8.457686e+001	-1.691037e+002	-1.132443e+000	-1.057846e+002
110114011	-9.355106e-001	-1.079589e+002	-7.984026e+001	-1.761693e+002	-7.805276e+001	-1.665169e+002	-1.131794e+000	-1.057720e+002
110116012	-9.369275e-001	-1.079644e+002	-7.891382e+001	-1.714722e+002	-8.138747e+001	-1.730703e+002	-1.133856e+000	-1.057707e+002
110118012	-9.373889e-001	-1.079561e+002	-8.065848e+001	-1.527456e+002	-8.148785e+001	-1.705405e+002	-1.134635e+000	-1.057981e+002
110120012	-9.376820e-001	-1.079611e+002	-8.167812e+001	1.646736e+002	-8.149944e+001	-1.705350e+002	-1.132534e+000	-1.057820e+002
110122012	-9.346247e-001	-1.079734e+002	-8.007785e+001	-1.698245e+002	-8.215838e+001	-1.794438e+002	-1.133393e+000	-1.057804e+002
110124012	-9.321035e-001	-1.079765e+002	-8.010555e+001	1.646864e+002	-7.800559e+001	-1.618124e+002	-1.132835e+000	-1.057945e+002
110126013	-9.346953e-001	-1.079772e+002	-8.245813e+001	-1.450881e+002	-8.479008e+001	-1.574535e+002	-1.130888e+000	-1.057967e+002
110128013	-9.356997e-001	-1.079727e+002	-8.000764e+001	-1.273317e+002	-7.947640e+001	-1.479649e+002	-1.131458e+000	-1.057961e+002
110130013	-9.394073e-001	-1.079666e+002	-7.877562e+001	-1.781625e+002	-7.396300e+001	-1.446118e+002	-1.134990e+000	-1.057845e+002
110132013	-9.364823e-001	-1.079676e+002	-7.827651e+001	-1.516145e+002	-8.784664e+001	-1.667724e+002	-1.130557e+000	-1.058045e+002
110134013	-9.356539e-001	-1.079749e+002	-8.482297e+001	-9.550573e+001	-8.255916e+001	-1.302647e+002	-1.133027e+000	-1.058097e+002
110136014	-9.373870e-001	-1.079650e+002	-8.130064e+001	-1.429091e+002	-7.783448e+001	-1.421469e+002	-1.132775e+000	-1.058012e+002
110138014	-9.360639e-001	-1.079904e+002	-7.863122e+001	1.499414e+002	-7.864399e+001	-1.455959e+002	-1.132528e+000	-1.057990e+002
110140014	-9.362632e-001	-1.079874e+002	-8.018817e+001	-1.608941e+002	-8.051686e+001	-1.207870e+002	-1.132827e+000	-1.058031e+002
110142014	-9.368285e-001	-1.079999e+002	-7.535172e+001	-1.591002e+002	-7.819579e+001	-1.554777e+002	-1.132065e+000	-1.058008e+002
110144014	-9.359939e-001	-1.079931e+002	-8.219202e+001	1.673403e+002	-7.711991e+001	1.783513e+002	-1.132741e+000	-1.058210e+002
110146015	-9.351814e-001	-1.079900e+002	-8.018756e+001	-1.163156e+002	-8.016760e+001	-1.472527e+002	-1.133224e+000	-1.057961e+002
110148015	-9.361935e-001	-1.079987e+002	-7.756385e+001	-1.428658e+002	-8.149858e+001	1.596285e+002	-1.133486e+000	-1.058124e+002
110150015	-9.342623e-001	-1.080066e+002	-8.433485e+001	1.655756e+002	-8.216366e+001	-1.626929e+002	-1.132965e+000	-1.058124e+002
110152015	-9.370530e-001	-1.079899e+002	-7.795093e+001	-1.614522e+002	-7.967891e+001	1.784863e+002	-1.134785e+000	-1.058174e+002
110154015	-9.350366e-001	-1.080073e+002	-7.893088e+001	-1.774706e+002	-8.200640e+001	-1.424448e+002	-1.135093e+000	-1.058091e+002
110156016	-9.356787e-001	-1.080005e+002	-8.017680e+001	-1.710060e+002	-7.825309e+001	-1.685033e+002	-1.131541e+000	-1.058197e+002
110158016	-9.358501e-001	-1.080251e+002	-8.271048e+001	-1.365275e+002	-7.710908e+001	-1.754006e+002	-1.134616e+000	-1.058322e+002
110160016	-9.381345e-001	-1.080152e+002	-7.642918e+001	-1.767892e+002	-7.695440e+001	-1.666810e+002	-1.134007e+000	-1.058397e+002
110162016	-9.347871e-001	-1.079949e+002	-8.280534e+001	-1.489532e+002	-8.818492e+001	-1.701476e+002	-1.133998e+000	-1.058357e+002
110164016	-9.374391e-001	-1.079995e+002	-8.825575e+001	-1.653995e+002	-8.121099e+001	1.614330e+002	-1.134758e+000	-1.058364e+002
110166017	-9.370714e-001	-1.080176e+002	-8.366254e+001	-1.563107e+002	-7.658336e+001	-1.398842e+002	-1.134332e+000	-1.058474e+002
110168017	-9.348774e-001	-1.080267e+002	-8.065763e+001	-1.728356e+002	-8.451910e+001	-1.185575e+002	-1.134081e+000	-1.058320e+002
110170017	-9.365488e-001	-1.080217e+002	-8.957354e+001	-1.497025e+002	-7.921243e+001	-1.502590e+002	-1.132258e+000	-1.058341e+002
110172017	-9.350178e-001	-1.080197e+002	-8.294728e+001	-1.581568e+002	-7.865431e+001	-1.455598e+002	-1.133572e+000	-1.058347e+002
110174017	-9.378546e-001	-1.080252e+002	-8.361937e+001	-1.663780e+002	-8.088446e+001	-1.361678e+002	-1.132890e+000	-1.058289e+002
110176018	-9.363829e-001	-1.080341e+002	-8.277991e+001	1.683090e+002	-8.117696e+001	-1.579391e+002	-1.136564e+000	-1.058469e+002
110178018	-9.392494e-001	-1.080301e+002	-7.999332e+001	-1.440128e+002	-8.200663e+001	-1.582388e+002	-1.135344e+000	-1.058520e+002
110180018	-9.367541e-001	-1.080286e+002	-8.134890e+001	-1.518939e+002	-7.760874e+001	-1.622171e+002	-1.133390e+000	-1.058433e+002
110182018	-9.356283e-001	-1.080350e+002	-8.423228e+001	-1.274665e+002	-7.854172e+001	-1.467069e+002	-1.135670e+000	-1.058508e+002
110184018	-9.357557e-001	-1.080268e+002	-8.046253e+001	-1.537891e+002	-8.527099e+001	-1.448341e+002	-1.135107e+000	-1.058427e+002
110186019	-9.364704e-001	-1.080219e+002	-8.747398e+001	-1.295809e+002	-7.889795e+001	-1.604092e+002	-1.132637e+000	-1.058364e+002
110188019	-9.359241e-001	-1.080398e+002	-8.341358e+001	-1.580046e+002	-8.210683e+001	1.616962e+002	-1.133464e+000	-1.058444e+002
110190019	-9.360177e-001	-1.080385e+002	-8.144924e+001	-1.354465e+002	-8.007551e+001	-1.553605e+002	-1.136417e+000	-1.058615e+002
110192019	-9.363649e-001	-1.080367e+002	-8.476624e+001	-1.339175e+002	-8.322428e+001	-1.369144e+002	-1.134977e+000	-1.058547e+002
110194019	-9.355877e-001	-1.080435e+002	-8.172111e+001	1.768597e+002	-7.889961e+001	-1.674314e+002	-1.134524e+000	-1.058665e+002
110196020	-9.358009e-001	-1.080384e+002	-7.889639e+001	-1.694476e+002	-8.148855e+001	-1.402974e+002	-1.134158e+000	-1.058711e+002
110198020	-9.371766e-001	-1.080437e+002	-8.105729e+001	-1.483352e+002	-8.152829e+001	-1.607770e+002	-1.134852e+000	-1.058558e+002
110200020	-9.356648e-001	-1.080530e+002	-7.530995e+001	-1.772718e+002	-8.093450e+001	-1.304595e+002	-1.133984e+000	-1.058647e+002
110202020	-9.358729e-001	-1.080394e+002	-8.817799e+001	-1.393925e+002	-8.135351e+001	-1.592584e+002	-1.136015e+000	-1.058621e+002
110204020	-9.378663e-001	-1.080579e+002	-8.124763e+001	-1.608876e+002	-8.316967e+001	-1.569594e+002	-1.134269e+000	-1.058681e+002
110206021	-9.379157e-001	-1.080639e+002	-7.942933e+001	-1.219223e+002	-8.072153e+001	-1.478994e+002	-1.133322e+000	-1.058672e+002
110208021	-9.379740e-001	-1.080599e+002	-1.017491e+002	-1.145954e+002	-8.205360e+001	-1.267802e+002	-1.136111e+000	-1.058724e+002
110210021	-9.369566e-001	-1.080459e+002	-8.373618e+001	-1.476882e+002	-7.962453e+001	-1.640489e+002	-1.137594e+000	-1.058618e+002
110212021	-9.377787e-001	-1.080531e+002	-8.028307e+001	-1.550612e+002	-7.678006e+001	-1.560698e+002	-1.135060e+000	-1.058687e+002
110214021	-9.348631e-001	-1.080574e+002	-7.928597e+001	-1.534707e+002	-8.177006e+001	-1.063334e+002	-1.133278e+000	-1.058796e+002
110216022	-9.395888e-001	-1.080568e+002	-8.062883e+001	-1.196819e+002	-7.994292e+001	-1.701712e+002	-1.136391e+000	-1.058786e+002
110218022	-9.376280e-001	-1.080596e+002	-7.768013e+001	-1.254437e+002	-8.114482e+001	-1.526687e+002	-1.134833e+000	-1.058839e+002
110220022	-9.376206e-001	-1.080623e+002	-8.481947e+001	1.581266e+002	-8.267266e+001	-1.168485e+002	-1.136636e+000	-1.058794e+002
110222022	-9.369998e-001	-1.080698e+002	-7.558794e+001	-1.556383e+002	-8.439401e+001	-1.725679e+002	-1.131319e+000	-1.058742e+002
110224022	-9.357931e-001	-1.080713e+002	-7.913724e+001	-1.347713e+002	-7.954924e+001	-1.564023e+002	-1.134008e+000	-1.058944e+002
110226023	-9.379554e-001	-1.080668e+002	-7.736374e+001	-1.238415e+002	-7.955313e+001	-1.542427e+002	-1.135315e+000	-1.058825e+002
110228023	-9.380576e-001	-1.080878e+002	-8.483198e+001	-1.173080e+002	-8.441250e+001	-1.476963e+002	-1.135092e+000	-1.058773e+002
110230023	-9.377978e-001	-1.080666e+002	-8.442555e+001	-1.093511e+002	-7.871550e+001	-1.158732e+002	-1.135424e+000	-1.058850e+002
110232023	-9.366065e-001	-1.080904e+002	-8.361548e+001	-1.528699e+002	-8.183114e+001	-1.305880e+002	-1.133880e+000	-1.058857e+002
110234023	-9.374667e-001	-1.080916e+002	-8.761904e+001	-1.462040e+002	-8.418424e+001	-1.402690e+002	-1.134378e+000	-1.058833e+002
110236024	-9.391378e-001	-1.080784e+002	-8.041729e+001	-1.735836e+002	-8.329124e+001	-1.294372e+002	-1.133398e+000	-1.059006e+002
110238024	-9.386308e-001	-1.080944e+002	-8.266283e+001	-1.145713e+002	-8.164955e+001	1.499753e+002	-1.134115e+000	-1.059009e+002
110240024	-9.381985e-001	-1.080940e+002	-7.988754e+001	-1.452163e+002	-7.937104e+001	-1.531110e+002	-1.136543e+000	-1.059070e+002
110242024	-9.404197e-001	-1.081015e+002	-8.322834e+001	-1.329882e+002	-8.433597e+001	1.731513e+002	-1.134373e+000	-1.058957e+002
110244024	-9.392946e-001	-1.080882e+002	-8.070849e+001	-1.335508e+002	-8.664180e+001	-1.351962e+002	-1.135383e+000	-1.058911e+002
110246025	-9.386219e-001	-1.080905e+002	-7.758671e+001	-1.662506e+002	-7.893061e+001	-1.561937e+002	-1.136411e+000	-1.058989e+002
110248025	-9.345952e-001	-1.080970e+002	-7.552688e+001	-1.364551e+002	-7.899363e+001	-1.633418e+002	-1.135783e+000	-1.059040e+002
110250025	-9.395054e-001	-1.081084e+002	-8.181791e+001	-1.568413e+002	-7.816714e+001	-1.515872e+002	-1.137370e+000	-1.059074e+002
110252025	-9.385899e-001	-1.080927e+002	-7.560663e+001	-1.317830e+002	-8.151721e+001	-1.237857e+002	-1.136659e+000	-1.059086e+002
110254025	-9.375347e-001	-1.080970e+002	-7.617520e+001	-1.360785e+002	-9.194190e+001	-1.101734e+002	-1.135939e+000	-1.059202e+002
110256026	-9.383298e-001	-1.080954e+002	-7.739273e+001	-1.595483e+002	-8.528226e+001	1.716560e+002	-1.137316e+000	-1.059151e+002
110258026	-9.387726e-001	-1.080996e+002	-7.863654e+001	-1.767797e+002	-8.135731e+001	-1.565299e+002	-1.136975e+000	-1.059111e+002
110260026	-9.366464e-001	-1.081123e+002	-7.690723e+001	-1.381672e+002	-8.057405e+001	-1.588537e+002	-1.136721e+000	-1.059074e+002
110262026	-9.401515e-001	-1.081162e+002	-8.033296e+001	-1.396324e+002	-7.921762e+001	-1.562917e+002	-1.134925e+000	-1.059108e+002
110264026	-9.400010e-001	-1.081143e+002	-8.066431e+001	-1.145008e+002	-7.968933e+001	-1.574140e+002	-1.135851e+000	-1.059258e+002
110266027	-9.403835e-001	-1.081092e+002	-8.659678e+001	-1.689805e+002	-7.919631e+001	-1.520738e+002	-1.135244e+000	-1.059319e+002
110268027	-9.390011e-001	-1.081154e+002	-7.997396e+001	-1.573550e+002	-7.947763e+001	-1.421618e+002	-1.135230e+000	-1.059401e+002
110270027	-9.370847e-001	-1.081192e+002	-8.190208e+001	-1.384621e+002	-8.273931e+001	-1.258418e+002	-1.136202e+000	-1.059253e+002
110272027	-9.358556e-001	-1.081271e+002	-7.957324e+001	-1.310267e+002	-8.015899e+001	-1.374548e+002	-1.137721e+000	-1.059121e+002
110274027	-9.391436e-001	-1.081180e+002	-8.265138e+001	1.597067e+002	-8.006603e+001	-1.655619e+002	-1.135015e+000	-1.059467e+002
110276028	-9.378633e-001	-1.081153e+002	-8.332023e+001	-1.121493e+002	-8.001362e+001	-1.316749e+002	-1.135403e+000	-1.059238e+002
110278028	-9.386321e-001	-1.081311e+002	-7.690247e+001	-1.277405e+002	-8.334453e+001	-1.399483e+002	-1.133806e+000	-1.059258e+002
110280028	-9.370903e-001	-1.081153e+002	-8.050236e+001	-1.477205e+002	-7.949335e+001	-1.497879e+002	-1.135734e+000	-1.059381e+002
110282028	-9.385574e-001	-1.081310e+002	-7.570657e+001	-1.500062e+002	-7.797447e+001	-1.338613e+002	-1.135769e+000	-1.059158e+002
110284028	-9.383090e-001	-1.081215e+002	-7.828055e+001	-1.549316e+002	-8.217843e+001	-1.226927e+002	-1.137871e+000	-1.059424e+002
110286029	-9.386889e-001	-1.081361e+002	-8.120296e+001	-1.531210e+002	-7.887298e+001	-1.601859e+002	-1.136351e+000	-1.059311e+002
110288029	-9.373580e-001	-1.081433e+002	-7.860220e+001	-1.171284e+002	-7.928777e+001	-1.635950e+002	-1.137464e+000	-1.059402e+002
110290029	-9.400423e-001	-1.081405e+002	-8.257504e+001	-1.759992e+002	-8.174192e+001	-1.367626e+002	-1.136924e+000	-1.059458e+002
110292029	-9.394990e-001	-1.081496e+002	-7.593945e+001	-1.396866e+002	-7.603210e+001	-1.214823e+002	-1.137011e+000	-1.059307e+002
110294029	-9.402345e-001	-1.081441e+002	-8.020195e+001	-1.503882e+002	-8.001936e+001	-1.678155e+002	-1.139230e+000	-1.059412e+002
110296030	-9.397498e-001	-1.081327e+002	-8.500450e+001	-1.535755e+002	-8.306259e+001	-1.470093e+002	-1.138167e+000	-1.059551e+002
110298030	-9.389625e-001	-1.081335e+002	-8.083680e+001	-1.557749e+002	-7.776902e+001	-1.226474e+002	-1.137190e+000	-1.059500e+002
110300030	-9.398435e-001	-1.081327e+002	-8.260326e+001	-1.315377e+002	-8.449750e+001	1.680151e+002	-1.137764e+000	-1.059667e+002
