!Agilent Technologies,E5071C,MY46520923,B.12.03
!Date: Wed Feb 07 10:59:04 2024
!Data & Calibration Information:
!Freq	S11:SOLT2(ON)	S21:SOLT2(ON)	S12:SOLT2(ON)	S22:SOLT2(ON)
!PortZ  Port1:50+j0    Port2:50+j0
!Above PortZ is port z conversion or system Z0 setting when saving the data.
!When reading, reference impedance value at option line is always used.
# Hz S dB R 50
110000000	-9.315729e-001	-1.070070e+002	-7.840726e+001	-1.492998e+002	-8.058380e+001	1.792988e+002	-1.138939e+000	-1.062412e+002
110002000	-9.315296e-001	-1.069927e+002	-7.654260e+001	-1.661123e+002	-8.210558e+001	-1.414100e+002	-1.141851e+000	-1.062469e+002
110004000	-9.317966e-001	-1.069990e+002	-7.746277e+001	-1.638592e+002	-8.138131e+001	-1.558513e+002	-1.139849e+000	-1.062438e+002
110006001	-9.327056e-001	-1.070166e+002	-8.072226e+001	-1.715600e+002	-8.073090e+001	-1.595635e+002	-1.141337e+000	-1.062390e+002
110008001	-9.316266e-001	-1.070066e+002	-7.930692e+001	-1.204829e+002	-8.053842e+001	-1.671318e+002	-1.143188e+000	-1.062394e+002
110010001	-9.350381e-001	-1.070094e+002	-9.346223e+001	-1.350117e+002	-8.246198e+001	-1.744374e+002	-1.140138e+000	-1.062664e+002
110012001	-9.330197e-001	-1.070023e+002	-7.886580e+001	-1.354392e+002	-7.689122e+001	-1.661865e+002	-1.139496e+000	-1.062598e+002
110014001	-9.331284e-001	-1.070091e+002	-8.369935e+001	-1.368314e+002	-8.277756e+001	-1.741747e+002	-1.139762e+000	-1.062423e+002
110016002	-9.324074e-001	-1.070062e+002	-7.777280e+001	-1.427917e+002	-7.847331e+001	-1.795065e+002	-1.142014e+000	-1.062477e+002
110018002	-9.346520e-001	-1.070225e+002	-8.901415e+001	-1.178467e+002	-8.130078e+001	-1.789730e+002	-1.140295e+000	-1.062643e+002
110020002	-9.324909e-001	-1.070222e+002	-7.879019e+001	-1.629492e+002	-7.714235e+001	-1.773811e+002	-1.141298e+000	-1.062490e+002
110022002	-9.339022e-001	-1.070015e+002	-7.800784e+001	-1.727015e+002	-7.960235e+001	-1.700464e+002	-1.141387e+000	-1.062498e+002
110024002	-9.319121e-001	-1.070101e+002	-8.956917e+001	-1.757371e+002	-7.681085e+001	-1.303100e+002	-1.140705e+000	-1.062574e+002
110026003	-9.319811e-001	-1.070341e+002	-8.064370e+001	1.611260e+002	-7.660355e+001	-1.688243e+002	-1.141181e+000	-1.062687e+002
110028003	-9.317255e-001	-1.070393e+002	-7.946656e+001	-1.370709e+002	-7.539521e+001	-1.596192e+002	-1.139659e+000	-1.062724e+002
110030003	-9.338754e-001	-1.070285e+002	-7.815513e+001	-1.546469e+002	-7.768521e+001	1.792611e+002	-1.140550e+000	-1.062694e+002
110032003	-9.350258e-001	-1.070173e+002	-7.833120e+001	-1.626270e+002	-7.470380e+001	-1.604252e+002	-1.142540e+000	-1.062710e+002
110034003	-9.316936e-001	-1.070273e+002	-8.473441e+001	-1.770488e+002	-7.911439e+001	-1.471420e+002	-1.139598e+000	-1.062653e+002
110036004	-9.342474e-001	-1.070365e+002	-8.121326e+001	-1.724800e+002	-7.797823e+001	-1.357489e+002	-1.142712e+000	-1.062735e+002
110038004	-9.339003e-001	-1.070215e+002	-7.616216e+001	-1.667287e+002	-7.841800e+001	-1.631532e+002	-1.139668e+000	-1.062813e+002
110040004	-9.336449e-001	-1.070404e+002	-8.227826e+001	-1.577027e+002	-7.794033e+001	-1.474023e+002	-1.141811e+000	-1.062919e+002
110042004	-9.342820e-001	-1.070239e+002	-7.827532e+001	-1.511362e+002	-7.689169e+001	-1.602191e+002	-1.139358e+000	-1.062838e+002
110044004	-9.339285e-001	-1.070353e+002	-8.189156e+001	1.650807e+002	-8.518806e+001	-1.567709e+002	-1.140383e+000	-1.063016e+002
110046005	-9.345676e-001	-1.070297e+002	-7.886192e+001	-1.499486e+002	-7.925484e+001	-1.792680e+002	-1.140650e+000	-1.062813e+002
110048005	-9.339340e-001	-1.070266e+002	-7.958636e+001	-1.359583e+002	-7.646062e+001	-1.327379e+002	-1.142312e+000	-1.062929e+002
110050005	-9.358409e-001	-1.070465e+002	-7.886299e+001	-1.392045e+002	-7.619500e+001	-1.550757e+002	-1.142363e+000	-1.062994e+002
110052005	-9.350484e-001	-1.070442e+002	-7.937632e+001	-1.657637e+002	-7.784500e+001	-1.268814e+002	-1.142555e+000	-1.062808e+002
110054005	-9.344269e-001	-1.070564e+002	-7.879806e+001	1.734702e+002	-8.114609e+001	-1.500704e+002	-1.141491e+000	-1.063056e+002
110056006	-9.326109e-001	-1.070537e+002	-8.345829e+001	-1.733475e+002	-8.046088e+001	-1.773799e+002	-1.140641e+000	-1.062853e+002
110058006	-9.355941e-001	-1.070503e+002	-8.163022e+001	-1.775850e+002	-7.786393e+001	-1.490864e+002	-1.143130e+000	-1.062873e+002
110060006	-9.341382e-001	-1.070548e+002	-7.666099e+001	-1.318066e+002	-8.131107e+001	-1.449471e+002	-1.140860e+000	-1.062976e+002
110062006	-9.348373e-001	-1.070499e+002	-7.770802e+001	-1.358956e+002	-8.069172e+001	-1.789552e+002	-1.141129e+000	-1.062937e+002
110064006	-9.333605e-001	-1.070512e+002	-8.006046e+001	-1.787878e+002	-8.452643e+001	-1.319217e+002	-1.142508e+000	-1.062898e+002
110066007	-9.348896e-001	-1.070681e+002	-8.058247e+001	1.782353e+002	-7.659486e+001	-1.349173e+002	-1.141444e+000	-1.063138e+002
110068007	-9.334516e-001	-1.070707e+002	-8.555435e+001	-1.572438e+002	-7.700825e+001	-1.561004e+002	-1.142974e+000	-1.063157e+002
110070007	-9.345152e-001	-1.070562e+002	-7.813188e+001	-1.500378e+002	-7.590079e+001	-1.737012e+002	-1.140438e+000	-1.063191e+002
110072007	-9.332179e-001	-1.070649e+002	-8.097107e+001	-1.450977e+002	-7.655072e+001	-1.575196e+002	-1.141224e+000	-1.063050e+002
110074007	-9.317939e-001	-1.070516e+002	-7.824904e+001	-1.373591e+002	-7.685372e+001	-1.672312e+002	-1.141399e+000	-1.063109e+002
110076008	-9.336757e-001	-1.070639e+002	-9.137976e+001	-1.611560e+002	-8.382734e+001	-1.462700e+002	-1.142318e+000	-1.063098e+002
110078008	-9.356779e-001	-1.070636e+002	-8.294523e+001	-1.625159e+002	-7.398776e+001	-1.540800e+002	-1.142182e+000	-1.063193e+002
110080008	-9.333063e-001	-1.070601e+002	-7.396817e+001	1.725490e+002	-7.729922e+001	-1.700333e+002	-1.140467e+000	-1.063111e+002
110082008	-9.338775e-001	-1.070768e+002	-7.845195e+001	1.383323e+002	-8.550353e+001	1.793274e+002	-1.140059e+000	-1.063105e+002
110084008	-9.317390e-001	-1.070735e+002	-7.823368e+001	-1.585551e+002	-7.931756e+001	-1.272896e+002	-1.140892e+000	-1.063273e+002
110086009	-9.355929e-001	-1.070833e+002	-8.035268e+001	-1.541476e+002	-7.877048e+001	-1.415988e+002	-1.142657e+000	-1.063180e+002
110088009	-9.346932e-001	-1.070662e+002	-7.808668e+001	-1.774658e+002	-8.076823e+001	-1.572254e+002	-1.142130e+000	-1.063009e+002
110090009	-9.343845e-001	-1.070834e+002	-8.264577e+001	1.483976e+002	-8.208824e+001	-1.641580e+002	-1.142559e+000	-1.063100e+002
110092009	-9.352329e-001	-1.070770e+002	-7.816177e+001	-1.682553e+002	-7.872841e+001	-1.723629e+002	-1.142182e+000	-1.063463e+002
110094009	-9.343607e-001	-1.070837e+002	-8.431144e+001	-1.666303e+002	-8.383474e+001	-1.781953e+002	-1.142709e+000	-1.063322e+002
110096010	-9.332866e-001	-1.070926e+002	-7.840124e+001	-1.578968e+002	-8.018272e+001	1.777354e+002	-1.143591e+000	-1.063228e+002
110098010	-9.364407e-001	-1.070926e+002	-8.097235e+001	-1.576966e+002	-7.828660e+001	-1.713611e+002	-1.143169e+000	-1.063301e+002
110100010	-9.327506e-001	-1.070992e+002	-7.855707e+001	-1.632297e+002	-8.269926e+001	1.727773e+002	-1.140792e+000	-1.063432e+002
110102010	-9.340530e-001	-1.070885e+002	-7.701302e+001	-1.584694e+002	-7.664685e+001	-1.417712e+002	-1.141135e+000	-1.063360e+002
110104010	-9.353446e-001	-1.070858e+002	-7.768698e+001	-1.546914e+002	-7.561766e+001	-1.618672e+002	-1.142887e+000	-1.063498e+002
110106011	-9.357038e-001	-1.071020e+002	-8.021183e+001	-1.752962e+002	-8.179661e+001	-1.766214e+002	-1.140936e+000	-1.063403e+002
110108011	-9.333976e-001	-1.071088e+002	-8.027483e+001	-1.785409e+002	-7.724022e+001	1.758770e+002	-1.140664e+000	-1.063471e+002
110110011	-9.343665e-001	-1.071107e+002	-8.000918e+001	-1.640841e+002	-8.069218e+001	1.793823e+002	-1.143155e+000	-1.063566e+002
110112011	-9.327630e-001	-1.071121e+002	-8.520218e+001	1.749828e+002	-8.015784e+001	-1.773035e+002	-1.143941e+000	-1.063417e+002
110114011	-9.354794e-001	-1.071125e+002	-8.070508e+001	-1.216324e+002	-7.431010e+001	-1.730857e+002	-1.140749e+000	-1.063347e+002
110116012	-9.366312e-001	-1.071027e+002	-7.979401e+001	-1.543138e+002	-8.159464e+001	-1.382993e+002	-1.143897e+000	-1.063666e+002
110118012	-9.355132e-001	-1.071035e+002	-8.553161e+001	1.659734e+002	-7.916796e+001	-1.283502e+002	-1.142957e+000	-1.063490e+002
110120012	-9.327778e-001	-1.071164e+002	-7.920534e+001	-1.460501e+002	-7.984854e+001	-1.561584e+002	-1.141812e+000	-1.063656e+002
110122012	-9.355037e-001	-1.070984e+002	-7.910090e+001	-1.389937e+002	-8.058869e+001	-1.736840e+002	-1.142287e+000	-1.063616e+002
110124012	-9.372730e-001	-1.071104e+002	-8.552459e+001	-1.228925e+002	-8.396797e+001	1.666200e+002	-1.142085e+000	-1.063477e+002
110126013	-9.355781e-001	-1.071255e+002	-8.206143e+001	-1.729150e+002	-7.697913e+001	-1.560126e+002	-1.141821e+000	-1.063549e+002
110128013	-9.345305e-001	-1.071206e+002	-7.705826e+001	-1.593889e+002	-8.231351e+001	-1.567976e+002	-1.143869e+000	-1.063700e+002
110130013	-9.346427e-001	-1.071191e+002	-7.844700e+001	-1.560714e+002	-7.705304e+001	-1.519311e+002	-1.143559e+000	-1.063580e+002
110132013	-9.332001e-001	-1.071414e+002	-8.133890e+001	-1.794512e+002	-8.119507e+001	1.757277e+002	-1.145198e+000	-1.063778e+002
110134013	-9.341604e-001	-1.071238e+002	-7.958147e+001	-1.550282e+002	-8.669513e+001	-1.665075e+002	-1.144299e+000	-1.063708e+002
110136014	-9.355158e-001	-1.071250e+002	-8.649339e+001	-1.494562e+002	-7.480225e+001	-1.607206e+002	-1.141994e+000	-1.063769e+002
110138014	-9.364686e-001	-1.071283e+002	-8.101641e+001	-1.247521e+002	-7.765878e+001	1.695593e+002	-1.142927e+000	-1.063734e+002
110140014	-9.337958e-001	-1.071337e+002	-7.551416e+001	-1.554488e+002	-8.158633e+001	-1.608624e+002	-1.142333e+000	-1.063828e+002
110142014	-9.369090e-001	-1.071332e+002	-8.164589e+001	1.750435e+002	-7.920426e+001	-1.407578e+002	-1.143060e+000	-1.063790e+002
110144014	-9.358797e-001	-1.071316e+002	-8.081154e+001	1.715317e+002	-7.873195e+001	-1.576755e+002	-1.144616e+000	-1.063870e+002
110146015	-9.354698e-001	-1.071300e+002	-7.500298e+001	-1.591978e+002	-8.459361e+001	-1.551971e+002	-1.143015e+000	-1.063826e+002
110148015	-9.369198e-001	-1.071313e+002	-7.889917e+001	-1.590458e+002	-8.039878e+001	-1.788258e+002	-1.144306e+000	-1.063638e+002
110150015	-9.364923e-001	-1.071332e+002	-7.716521e+001	-1.359006e+002	-7.909051e+001	-1.598137e+002	-1.144131e+000	-1.063960e+002
110152015	-9.371459e-001	-1.071348e+002	-7.671573e+001	1.707567e+002	-8.124435e+001	-1.514187e+002	-1.142271e+000	-1.063978e+002
110154015	-9.371991e-001	-1.071546e+002	-7.685063e+001	1.695783e+002	-8.041990e+001	-1.185554e+002	-1.144105e+000	-1.063926e+002
110156016	-9.360229e-001	-1.071433e+002	-8.230056e+001	-1.638361e+002	-8.077528e+001	-1.626653e+002	-1.142820e+000	-1.063990e+002
110158016	-9.360161e-001	-1.071449e+002	-7.809200e+001	-1.416895e+002	-7.602436e+001	1.733748e+002	-1.142387e+000	-1.063991e+002
110160016	-9.363621e-001	-1.071454e+002	-9.258776e+001	-2.554006e+001	-7.786126e+001	-1.426394e+002	-1.143618e+000	-1.063963e+002
110162016	-9.367912e-001	-1.071613e+002	-7.989339e+001	-1.399646e+002	-8.213865e+001	-1.659884e+002	-1.145154e+000	-1.063937e+002
110164016	-9.341675e-001	-1.071578e+002	-7.735031e+001	-1.557781e+002	-7.854765e+001	-1.667799e+002	-1.144285e+000	-1.063813e+002
110166017	-9.365993e-001	-1.071525e+002	-7.632836e+001	-1.681220e+002	-8.098950e+001	-1.342099e+002	-1.141275e+000	-1.064103e+002
110168017	-9.340579e-001	-1.071544e+002	-7.683324e+001	-1.484890e+002	-7.848204e+001	1.714033e+002	-1.144552e+000	-1.063801e+002
110170017	-9.364819e-001	-1.071502e+002	-8.214007e+001	1.649288e+002	-8.146188e+001	-1.650551e+002	-1.143403e+000	-1.064048e+002
110172017	-9.364167e-001	-1.071584e+002	-7.904463e+001	-1.106397e+002	-8.185385e+001	-1.241969e+002	-1.144207e+000	-1.064058e+002
110174017	-9.372497e-001	-1.071730e+002	-7.643696e+001	-1.540946e+002	-8.093563e+001	-1.786714e+002	-1.145197e+000	-1.063945e+002
110176018	-9.358144e-001	-1.071653e+002	-7.970517e+001	-1.409817e+002	-7.611541e+001	-1.711426e+002	-1.143254e+000	-1.064103e+002
110178018	-9.356550e-001	-1.071780e+002	-8.160639e+001	-1.102858e+002	-7.632423e+001	-1.633755e+002	-1.146118e+000	-1.064147e+002
110180018	-9.345841e-001	-1.071641e+002	-7.879947e+001	-1.497283e+002	-7.684482e+001	-1.634881e+002	-1.144012e+000	-1.064063e+002
110182018	-9.344856e-001	-1.071731e+002	-7.804206e+001	-1.773029e+002	-7.883539e+001	-1.182980e+002	-1.143774e+000	-1.064103e+002
110184018	-9.361799e-001	-1.071818e+002	-8.578893e+001	-1.311230e+002	-7.863864e+001	-1.563633e+002	-1.144875e+000	-1.064116e+002
110186019	-9.374254e-001	-1.071775e+002	-7.852391e+001	-1.196574e+002	-7.609507e+001	-1.701621e+002	-1.144309e+000	-1.064144e+002
110188019	-9.372511e-001	-1.071676e+002	-8.072535e+001	-1.435010e+002	-8.149677e+001	-1.273028e+002	-1.147757e+000	-1.064273e+002
110190019	-9.350374e-001	-1.071786e+002	-8.159047e+001	-1.006139e+002	-7.881647e+001	-1.691265e+002	-1.145350e+000	-1.064281e+002
110192019	-9.357971e-001	-1.071884e+002	-7.890629e+001	1.792625e+002	-7.979065e+001	-1.709609e+002	-1.144407e+000	-1.064306e+002
110194019	-9.349458e-001	-1.071952e+002	-7.716557e+001	-1.183223e+002	-7.703647e+001	1.795358e+002	-1.142438e+000	-1.064062e+002
110196020	-9.340780e-001	-1.071763e+002	-7.886661e+001	-1.526636e+002	-8.409273e+001	-1.445895e+002	-1.145543e+000	-1.064215e+002
110198020	-9.363070e-001	-1.071855e+002	-8.276008e+001	-1.321311e+002	-7.677064e+001	-1.623672e+002	-1.144812e+000	-1.064405e+002
110200020	-9.359960e-001	-1.071847e+002	-8.150017e+001	-1.264546e+002	-8.017501e+001	-1.412228e+002	-1.142037e+000	-1.064358e+002
110202020	-9.345020e-001	-1.071896e+002	-8.231673e+001	-1.472076e+002	-7.901627e+001	-1.551472e+002	-1.143400e+000	-1.064260e+002
110204020	-9.373088e-001	-1.071847e+002	-8.154518e+001	-1.385371e+002	-7.680569e+001	-1.538922e+002	-1.146022e+000	-1.064366e+002
110206021	-9.366743e-001	-1.071844e+002	-8.201260e+001	-1.708409e+002	-8.305917e+001	-1.781484e+002	-1.145379e+000	-1.064311e+002
110208021	-9.373162e-001	-1.071956e+002	-8.032898e+001	-1.184724e+002	-8.135748e+001	-1.572243e+002	-1.147638e+000	-1.064242e+002
110210021	-9.371879e-001	-1.072008e+002	-7.804672e+001	-1.451781e+002	-7.930633e+001	-1.524875e+002	-1.145730e+000	-1.064456e+002
110212021	-9.355779e-001	-1.071914e+002	-8.397268e+001	-1.292148e+002	-8.418316e+001	-1.503562e+002	-1.143605e+000	-1.064462e+002
110214021	-9.381698e-001	-1.072180e+002	-7.931935e+001	-1.654557e+002	-8.165507e+001	-1.625460e+002	-1.145933e+000	-1.064392e+002
110216022	-9.347980e-001	-1.072134e+002	-7.980278e+001	1.783088e+002	-7.807768e+001	-1.215932e+002	-1.145733e+000	-1.064522e+002
110218022	-9.349243e-001	-1.072060e+002	-8.160928e+001	-1.633767e+002	-7.941429e+001	-1.504990e+002	-1.145788e+000	-1.064521e+002
110220022	-9.382349e-001	-1.072162e+002	-7.749988e+001	-1.577031e+002	-7.816959e+001	-1.335807e+002	-1.145007e+000	-1.064444e+002
110222022	-9.365408e-001	-1.072048e+002	-7.734517e+001	-1.472420e+002	-7.625203e+001	-1.622652e+002	-1.145705e+000	-1.064509e+002
110224022	-9.378003e-001	-1.072164e+002	-7.668279e+001	-1.405605e+002	-8.057244e+001	-1.592158e+002	-1.145314e+000	-1.064491e+002
110226023	-9.376966e-001	-1.072207e+002	-7.747022e+001	-1.271801e+002	-7.700030e+001	-1.492728e+002	-1.145570e+000	-1.064480e+002
110228023	-9.376676e-001	-1.072236e+002	-8.020805e+001	-1.684665e+002	-8.188948e+001	-1.151359e+002	-1.147193e+000	-1.064607e+002
110230023	-9.372972e-001	-1.072315e+002	-8.750527e+001	-1.734741e+002	-7.912370e+001	-1.531841e+002	-1.145086e+000	-1.064623e+002
110232023	-9.357570e-001	-1.072160e+002	-7.971762e+001	-1.506927e+002	-7.752324e+001	-1.456973e+002	-1.144913e+000	-1.064595e+002
110234023	-9.373645e-001	-1.072168e+002	-7.683742e+001	-1.726213e+002	-7.933314e+001	-1.416865e+002	-1.145903e+000	-1.064604e+002
110236024	-9.367862e-001	-1.072232e+002	-8.285545e+001	1.708344e+002	-7.861449e+001	-1.636713e+002	-1.144879e+000	-1.064636e+002
110238024	-9.350412e-001	-1.072367e+002	-7.848222e+001	-1.426155e+002	-7.938406e+001	-1.374941e+002	-1.144881e+000	-1.064706e+002
110240024	-9.378382e-001	-1.072281e+002	-8.126504e+001	-1.320085e+002	-8.004583e+001	-1.376701e+002	-1.145743e+000	-1.064665e+002
110242024	-9.373286e-001	-1.072372e+002	-8.043595e+001	-1.552247e+002	-7.724827e+001	-1.522391e+002	-1.146556e+000	-1.064835e+002
110244024	-9.403844e-001	-1.072332e+002	-7.702630e+001	1.797143e+002	-8.571745e+001	-1.353715e+002	-1.147402e+000	-1.064638e+002
110246025	-9.361520e-001	-1.072337e+002	-7.931852e+001	-1.576053e+002	-7.733288e+001	-1.623092e+002	-1.147164e+000	-1.064725e+002
110248025	-9.376774e-001	-1.072329e+002	-7.767304e+001	-1.544018e+002	-7.963059e+001	-1.757225e+002	-1.146406e+000	-1.064745e+002
110250025	-9.380539e-001	-1.072410e+002	-7.643269e+001	-1.633026e+002	-8.098787e+001	-1.521469e+002	-1.148166e+000	-1.064873e+002
110252025	-9.362425e-001	-1.072294e+002	-8.118842e+001	-1.663529e+002	-8.041060e+001	-1.667051e+002	-1.146570e+000	-1.064827e+002
110254025	-9.371557e-001	-1.072381e+002	-7.608126e+001	-1.663472e+002	-7.627982e+001	-1.457332e+002	-1.146070e+000	-1.064804e+002
110256026	-9.368765e-001	-1.072392e+002	-8.164593e+001	-1.478983e+002	-7.631678e+001	-1.443005e+002	-1.147392e+000	-1.064853e+002
110258026	-9.365314e-001	-1.072528e+002	-8.333216e+001	-1.161288e+002	-7.784135e+001	-1.515228e+002	-1.144283e+000	-1.064860e+002
110260026	-9.407588e-001	-1.072416e+002	-8.124280e+001	-1.320280e+002	-7.891005e+001	-1.718212e+002	-1.148797e+000	-1.064783e+002
110262026	-9.396170e-001	-1.072565e+002	-7.919087e+001	-1.594809e+002	-8.079324e+001	-1.353277e+002	-1.147325e+000	-1.064923e+002
110264026	-9.377271e-001	-1.072534e+002	-8.658110e+001	-1.444959e+002	-7.750093e+001	-1.378895e+002	-1.145195e+000	-1.064978e+002
110266027	-9.379194e-001	-1.072599e+002	-7.818971e+001	-1.506625e+002	-7.918981e+001	1.752582e+002	-1.147201e+000	-1.064998e+002
110268027	-9.402889e-001	-1.072501e+002	-7.903952e+001	-1.149510e+002	-7.606352e+001	-1.560816e+002	-1.148139e+000	-1.064919e+002
110270027	-9.386932e-001	-1.072667e+002	-7.880664e+001	-1.495304e+002	-8.198962e+001	-1.483034e+002	-1.144829e+000	-1.065026e+002
110272027	-9.399996e-001	-1.072626e+002	-7.871038e+001	1.752941e+002	-7.742957e+001	-1.607756e+002	-1.147279e+000	-1.065089e+002
110274027	-9.372421e-001	-1.072738e+002	-8.209734e+001	-1.339967e+002	-7.680310e+001	-1.432277e+002	-1.145514e+000	-1.065020e+002
110276028	-9.382197e-001	-1.072589e+002	-8.645469e+001	-1.302764e+002	-8.169420e+001	-1.724558e+002	-1.147067e+000	-1.065031e+002
110278028	-9.381041e-001	-1.072820e+002	-7.500349e+001	-1.517535e+002	-7.773754e+001	-1.778139e+002	-1.146703e+000	-1.065015e+002
110280028	-9.363173e-001	-1.072667e+002	-8.077315e+001	-1.596501e+002	-7.325534e+001	-1.379324e+002	-1.145424e+000	-1.065251e+002
110282028	-9.408152e-001	-1.072670e+002	-8.034275e+001	-1.455277e+002	-8.032964e+001	-1.281836e+002	-1.146853e+000	-1.064992e+002
110284028	-9.388630e-001	-1.072624e+002	-7.971071e+001	-1.407908e+002	-7.712816e+001	-1.353104e+002	-1.146687e+000	-1.065166e+002
110286029	-9.374195e-001	-1.072736e+002	-7.564169e+001	-1.464675e+002	-7.682866e+001	-1.596850e+002	-1.146456e+000	-1.064995e+002
110288029	-9.404511e-001	-1.072677e+002	-7.890045e+001	-1.662686e+002	-8.172700e+001	-1.581619e+002	-1.146795e+000	-1.065097e+002
110290029	-9.382426e-001	-1.072640e+002	-8.382683e+001	-1.537511e+002	-7.890727e+001	-1.569034e+002	-1.146993e+000	-1.065212e+002
110292029	-9.371083e-001	-1.072705e+002	-8.393801e+001	1.728704e+002	-7.664585e+001	-1.635731e+002	-1.145403e+000	-1.065210e+002
110294029	-9.392858e-001	-1.072896e+002	-7.683486e+001	-1.644963e+002	-8.014403e+001	-1.670264e+002	-1.147006e+000	-1.065290e+002
110296030	-9.379441e-001	-1.072859e+002	-7.931809e+001	-1.652843e+002	-7.537470e+001	-1.726869e+002	-1.148976e+000	-1.065200e+002
110298030	-9.396607e-001	-1.072928e+002	-7.704394e+001	-1.590973e+002	-7.979906e+001	-1.643504e+002	-1.147130e+000	-1.065296e+002
110300030	-9.375506e-001	-1.072854e+002	-8.037858e+001	-1.362065e+002	-7.515604e+001	-1.524788e+002	-1.145517e+000	-1.065294e+002
