!Agilent Technologies,E5071C,MY46520923,B.12.03
!Date: Tue Feb 06 10:50:02 2024
!Data & Calibration Information:
!Freq	S11:SOLT2(ON)	S21:SOLT2(ON)	S12:SOLT2(ON)	S22:SOLT2(ON)
!PortZ  Port1:50+j0    Port2:50+j0
!Above PortZ is port z conversion or system Z0 setting when saving the data.
!When reading, reference impedance value at option line is always used.
# Hz S dB R 50
110000000	-1.024614e+000	-1.085359e+002	-7.938168e+001	-1.328178e+002	-8.094746e+001	-1.669719e+002	-9.666042e-001	-1.061421e+002
110002000	-1.024979e+000	-1.085365e+002	-7.810877e+001	1.615882e+002	-7.782717e+001	-1.627560e+002	-9.673633e-001	-1.061483e+002
110004000	-1.026206e+000	-1.085325e+002	-7.838385e+001	-1.460565e+002	-7.889362e+001	-1.365945e+002	-9.696155e-001	-1.061535e+002
110006001	-1.023997e+000	-1.085408e+002	-8.082100e+001	-1.716738e+002	-7.541078e+001	-1.586049e+002	-9.693786e-001	-1.061558e+002
110008001	-1.023659e+000	-1.085454e+002	-8.479728e+001	-1.626792e+002	-8.244439e+001	-1.605755e+002	-9.661625e-001	-1.061671e+002
110010001	-1.026838e+000	-1.085364e+002	-7.832021e+001	-1.554007e+002	-7.898492e+001	-1.574198e+002	-9.687374e-001	-1.061484e+002
110012001	-1.025829e+000	-1.085332e+002	-7.799624e+001	-1.682359e+002	-8.063545e+001	-1.511337e+002	-9.668132e-001	-1.061710e+002
110014001	-1.022428e+000	-1.085479e+002	-7.784448e+001	1.792383e+002	-7.818372e+001	-1.698982e+002	-9.689363e-001	-1.061404e+002
110016002	-1.023839e+000	-1.085501e+002	-7.899870e+001	1.724691e+002	-7.980709e+001	-1.651102e+002	-9.685715e-001	-1.061639e+002
110018002	-1.028343e+000	-1.085539e+002	-8.329560e+001	-1.773660e+002	-7.787790e+001	-1.751362e+002	-9.680984e-001	-1.061499e+002
110020002	-1.025755e+000	-1.085376e+002	-8.161161e+001	-1.382532e+002	-7.952252e+001	-1.761754e+002	-9.672521e-001	-1.061818e+002
110022002	-1.025469e+000	-1.085379e+002	-8.255559e+001	1.696616e+002	-8.018484e+001	-1.222218e+002	-9.694207e-001	-1.061634e+002
110024002	-1.026508e+000	-1.085505e+002	-8.385019e+001	1.657492e+002	-7.943607e+001	1.748244e+002	-9.682364e-001	-1.061830e+002
110026003	-1.024270e+000	-1.085669e+002	-8.284150e+001	-1.292535e+002	-8.120864e+001	1.749946e+002	-9.688303e-001	-1.061589e+002
110028003	-1.028059e+000	-1.085490e+002	-8.279335e+001	-1.621467e+002	-7.794006e+001	-1.584621e+002	-9.675568e-001	-1.061668e+002
110030003	-1.023197e+000	-1.085526e+002	-7.842444e+001	-1.518588e+002	-7.746298e+001	-1.343231e+002	-9.695588e-001	-1.061757e+002
110032003	-1.026265e+000	-1.085628e+002	-7.758123e+001	-1.574803e+002	-7.786576e+001	1.619621e+002	-9.706274e-001	-1.061733e+002
110034003	-1.025524e+000	-1.085552e+002	-7.689780e+001	-1.753749e+002	-8.096369e+001	1.769853e+002	-9.686219e-001	-1.061832e+002
110036004	-1.025860e+000	-1.085483e+002	-8.436261e+001	1.596200e+002	-7.999652e+001	-1.546194e+002	-9.674980e-001	-1.061977e+002
110038004	-1.023963e+000	-1.085652e+002	-8.075663e+001	-1.645709e+002	-7.706434e+001	-1.602724e+002	-9.692076e-001	-1.061784e+002
110040004	-1.023918e+000	-1.085778e+002	-7.727902e+001	-1.656358e+002	-7.782410e+001	-1.788735e+002	-9.686273e-001	-1.061806e+002
110042004	-1.026172e+000	-1.085675e+002	-8.226335e+001	-1.544436e+002	-8.218464e+001	-1.565530e+002	-9.693364e-001	-1.061822e+002
110044004	-1.025331e+000	-1.085744e+002	-7.781667e+001	-1.526137e+002	-8.099266e+001	-1.631445e+002	-9.699460e-001	-1.061861e+002
110046005	-1.026196e+000	-1.085571e+002	-7.510565e+001	-1.711331e+002	-8.740616e+001	1.710450e+002	-9.694575e-001	-1.061997e+002
110048005	-1.026165e+000	-1.085744e+002	-8.021627e+001	-1.437333e+002	-7.763187e+001	-1.752032e+002	-9.686417e-001	-1.061765e+002
110050005	-1.026701e+000	-1.085807e+002	-8.109335e+001	1.727402e+002	-8.057031e+001	-1.510413e+002	-9.663287e-001	-1.061993e+002
110052005	-1.027884e+000	-1.085798e+002	-8.228836e+001	1.760528e+002	-8.249062e+001	-1.625163e+002	-9.683630e-001	-1.062147e+002
110054005	-1.028237e+000	-1.085608e+002	-8.290937e+001	-1.775266e+002	-7.708334e+001	-1.753270e+002	-9.698816e-001	-1.062068e+002
110056006	-1.026026e+000	-1.085823e+002	-8.017614e+001	-1.588777e+002	-8.723969e+001	1.374178e+002	-9.692201e-001	-1.062118e+002
110058006	-1.027461e+000	-1.085807e+002	-7.780298e+001	-1.794180e+002	-7.825934e+001	-1.670607e+002	-9.677403e-001	-1.061942e+002
110060006	-1.027146e+000	-1.086018e+002	-7.863207e+001	-1.655529e+002	-8.178544e+001	1.764864e+002	-9.699975e-001	-1.061974e+002
110062006	-1.026859e+000	-1.085839e+002	-8.204277e+001	1.640356e+002	-7.766813e+001	-1.360826e+002	-9.686978e-001	-1.061949e+002
110064006	-1.026038e+000	-1.086026e+002	-7.983493e+001	-1.455714e+002	-8.089127e+001	-1.557840e+002	-9.702916e-001	-1.062030e+002
110066007	-1.027584e+000	-1.085730e+002	-8.309660e+001	-1.563073e+002	-7.898468e+001	-1.718531e+002	-9.698517e-001	-1.062063e+002
110068007	-1.025614e+000	-1.085954e+002	-8.169847e+001	1.761941e+002	-8.307778e+001	-1.540554e+002	-9.685584e-001	-1.062134e+002
110070007	-1.026287e+000	-1.085846e+002	-7.958060e+001	-1.667368e+002	-8.253822e+001	-1.645932e+002	-9.674614e-001	-1.062107e+002
110072007	-1.026099e+000	-1.085938e+002	-7.836398e+001	-1.687947e+002	-8.478583e+001	-1.547646e+002	-9.713678e-001	-1.062236e+002
110074007	-1.025231e+000	-1.085912e+002	-7.877721e+001	-1.565254e+002	-8.420236e+001	-1.749229e+002	-9.688944e-001	-1.062278e+002
110076008	-1.026841e+000	-1.085883e+002	-8.294502e+001	1.781548e+002	-8.269636e+001	1.759001e+002	-9.682804e-001	-1.062060e+002
110078008	-1.024989e+000	-1.085895e+002	-8.117828e+001	-1.381043e+002	-8.307113e+001	1.778597e+002	-9.694767e-001	-1.062349e+002
110080008	-1.026806e+000	-1.086094e+002	-7.909779e+001	-1.616208e+002	-7.945869e+001	-1.790619e+002	-9.675593e-001	-1.062268e+002
110082008	-1.026375e+000	-1.086066e+002	-8.008931e+001	1.733759e+002	-8.136477e+001	-1.543302e+002	-9.694644e-001	-1.062323e+002
110084008	-1.027229e+000	-1.085991e+002	-7.628986e+001	-1.715174e+002	-7.977308e+001	-1.665512e+002	-9.709712e-001	-1.062432e+002
110086009	-1.025606e+000	-1.086097e+002	-8.097637e+001	1.602415e+002	-7.917080e+001	-1.627944e+002	-9.696786e-001	-1.062276e+002
110088009	-1.026646e+000	-1.086085e+002	-7.908356e+001	-1.489876e+002	-7.624056e+001	-1.504963e+002	-9.702680e-001	-1.062335e+002
110090009	-1.026935e+000	-1.086150e+002	-7.785787e+001	-1.668869e+002	-8.405897e+001	-1.672517e+002	-9.693643e-001	-1.062495e+002
110092009	-1.025324e+000	-1.086031e+002	-8.059437e+001	-1.415799e+002	-7.796269e+001	-1.724491e+002	-9.700941e-001	-1.062380e+002
110094009	-1.027367e+000	-1.086118e+002	-7.661190e+001	-1.634020e+002	-7.832115e+001	-1.515987e+002	-9.700284e-001	-1.062342e+002
110096010	-1.030253e+000	-1.086218e+002	-8.164708e+001	1.567652e+002	-7.997990e+001	-1.509467e+002	-9.690478e-001	-1.062318e+002
110098010	-1.027668e+000	-1.086123e+002	-8.022341e+001	-1.654210e+002	-7.797197e+001	-1.647022e+002	-9.713162e-001	-1.062465e+002
110100010	-1.028963e+000	-1.086266e+002	-8.083201e+001	1.799671e+002	-8.089576e+001	-1.704030e+002	-9.729342e-001	-1.062336e+002
110102010	-1.026224e+000	-1.086226e+002	-7.931263e+001	-1.545957e+002	-7.811762e+001	-1.416719e+002	-9.697536e-001	-1.062430e+002
110104010	-1.028382e+000	-1.086357e+002	-7.996145e+001	1.687591e+002	-7.968612e+001	1.635766e+002	-9.700015e-001	-1.062462e+002
110106011	-1.029500e+000	-1.086180e+002	-8.073969e+001	1.695673e+002	-7.805054e+001	-1.618622e+002	-9.686777e-001	-1.062468e+002
110108011	-1.027441e+000	-1.086242e+002	-7.899996e+001	1.610876e+002	-8.121645e+001	-1.567116e+002	-9.691902e-001	-1.062287e+002
110110011	-1.028649e+000	-1.086362e+002	-7.772413e+001	1.721350e+002	-7.823203e+001	-1.615765e+002	-9.684477e-001	-1.062502e+002
110112011	-1.026606e+000	-1.086334e+002	-7.851944e+001	-1.778219e+002	-8.163845e+001	-1.535314e+002	-9.673970e-001	-1.062494e+002
110114011	-1.028058e+000	-1.086488e+002	-7.959137e+001	-1.518391e+002	-7.976823e+001	-1.600462e+002	-9.675865e-001	-1.062538e+002
110116012	-1.029262e+000	-1.086423e+002	-8.003794e+001	-1.769509e+002	-7.954206e+001	-1.604918e+002	-9.686476e-001	-1.062407e+002
110118012	-1.030848e+000	-1.086426e+002	-8.633430e+001	-1.507786e+002	-8.849647e+001	-1.508448e+002	-9.724861e-001	-1.062676e+002
110120012	-1.028242e+000	-1.086465e+002	-8.277266e+001	-1.290504e+002	-7.589053e+001	-1.653806e+002	-9.702767e-001	-1.062749e+002
110122012	-1.027406e+000	-1.086309e+002	-8.738274e+001	1.632927e+002	-7.837092e+001	1.798367e+002	-9.704055e-001	-1.062740e+002
110124012	-1.026937e+000	-1.086511e+002	-7.685409e+001	-1.532261e+002	-8.368907e+001	-1.464387e+002	-9.712961e-001	-1.062777e+002
110126013	-1.027281e+000	-1.086569e+002	-7.670890e+001	-1.390619e+002	-7.731603e+001	1.730747e+002	-9.706100e-001	-1.062640e+002
110128013	-1.027178e+000	-1.086550e+002	-7.962187e+001	1.598544e+002	-8.339657e+001	-1.529784e+002	-9.695117e-001	-1.062694e+002
110130013	-1.028633e+000	-1.086467e+002	-8.346290e+001	-1.625118e+002	-7.872270e+001	-1.402517e+002	-9.719071e-001	-1.062711e+002
110132013	-1.028573e+000	-1.086500e+002	-7.977409e+001	-1.510638e+002	-8.037201e+001	-1.569055e+002	-9.692371e-001	-1.062719e+002
110134013	-1.025226e+000	-1.086511e+002	-7.676628e+001	-1.719126e+002	-8.566595e+001	1.462977e+002	-9.710212e-001	-1.062813e+002
110136014	-1.027761e+000	-1.086501e+002	-8.032615e+001	-1.448273e+002	-7.875331e+001	-1.633678e+002	-9.729971e-001	-1.062634e+002
110138014	-1.028419e+000	-1.086557e+002	-7.896173e+001	-1.366768e+002	-8.298686e+001	1.734387e+002	-9.677325e-001	-1.062767e+002
110140014	-1.028647e+000	-1.086706e+002	-8.260652e+001	-1.666588e+002	-7.904999e+001	-1.385322e+002	-9.717535e-001	-1.062784e+002
110142014	-1.027753e+000	-1.086706e+002	-8.010504e+001	-1.688306e+002	-7.975151e+001	-1.481271e+002	-9.711438e-001	-1.062866e+002
110144014	-1.028313e+000	-1.086882e+002	-8.335289e+001	-1.677123e+002	-8.116861e+001	1.770655e+002	-9.696785e-001	-1.062652e+002
110146015	-1.030327e+000	-1.086622e+002	-8.808479e+001	-1.696105e+002	-8.385703e+001	-1.541961e+002	-9.708727e-001	-1.062928e+002
110148015	-1.028355e+000	-1.086587e+002	-8.334879e+001	1.642437e+002	-7.878278e+001	1.699393e+002	-9.712024e-001	-1.062710e+002
110150015	-1.029023e+000	-1.086702e+002	-8.105176e+001	-1.559250e+002	-8.037120e+001	-1.455558e+002	-9.715639e-001	-1.062813e+002
110152015	-1.029441e+000	-1.086693e+002	-8.216020e+001	-1.496461e+002	-8.036338e+001	-1.723532e+002	-9.695066e-001	-1.063082e+002
110154015	-1.028270e+000	-1.086794e+002	-7.894505e+001	-1.386966e+002	-8.112358e+001	1.560500e+002	-9.719416e-001	-1.062828e+002
110156016	-1.027730e+000	-1.086775e+002	-7.813429e+001	-1.688606e+002	-7.942015e+001	-8.733207e+001	-9.710599e-001	-1.062937e+002
110158016	-1.030037e+000	-1.086867e+002	-7.925568e+001	-1.655311e+002	-7.774050e+001	1.788683e+002	-9.721158e-001	-1.063099e+002
110160016	-1.028200e+000	-1.086798e+002	-8.397192e+001	1.783213e+002	-8.425344e+001	1.666840e+002	-9.744954e-001	-1.062930e+002
110162016	-1.027954e+000	-1.086747e+002	-8.284171e+001	-1.751006e+002	-7.786002e+001	-1.395609e+002	-9.718619e-001	-1.062950e+002
110164016	-1.027421e+000	-1.086880e+002	-8.705730e+001	1.711809e+002	-8.089134e+001	-1.516141e+002	-9.735597e-001	-1.063015e+002
110166017	-1.029674e+000	-1.086882e+002	-7.503911e+001	-1.700126e+002	-7.926184e+001	-1.654324e+002	-9.701346e-001	-1.063147e+002
110168017	-1.028949e+000	-1.087077e+002	-8.380162e+001	-1.314400e+002	-8.563801e+001	-1.236498e+002	-9.719669e-001	-1.063148e+002
110170017	-1.026736e+000	-1.086771e+002	-8.053384e+001	-1.498322e+002	-8.449886e+001	-1.285205e+002	-9.721031e-001	-1.063247e+002
110172017	-1.028393e+000	-1.086947e+002	-8.028444e+001	-1.616662e+002	-8.318601e+001	-1.456222e+002	-9.706517e-001	-1.063126e+002
110174017	-1.027965e+000	-1.086909e+002	-8.216411e+001	-1.337783e+002	-8.475209e+001	-1.264604e+002	-9.727664e-001	-1.063137e+002
110176018	-1.030349e+000	-1.087129e+002	-8.357531e+001	-1.646688e+002	-8.361573e+001	-1.650996e+002	-9.722259e-001	-1.063146e+002
110178018	-1.029929e+000	-1.087004e+002	-8.521694e+001	1.608456e+002	-8.504558e+001	-1.597863e+002	-9.712253e-001	-1.063097e+002
110180018	-1.029156e+000	-1.087182e+002	-8.801611e+001	-1.479438e+002	-7.862735e+001	1.716097e+002	-9.705522e-001	-1.063129e+002
110182018	-1.030240e+000	-1.087090e+002	-7.941422e+001	-1.376804e+002	-8.608408e+001	-1.346532e+002	-9.712897e-001	-1.063212e+002
110184018	-1.027355e+000	-1.086995e+002	-8.190545e+001	-1.506648e+002	-7.978836e+001	-1.678500e+002	-9.720037e-001	-1.063126e+002
110186019	-1.030685e+000	-1.086935e+002	-7.560490e+001	-1.768552e+002	-8.283733e+001	-1.638122e+002	-9.740555e-001	-1.063392e+002
110188019	-1.027996e+000	-1.087118e+002	-7.853244e+001	-1.695436e+002	-8.030301e+001	-1.515867e+002	-9.699349e-001	-1.063174e+002
110190019	-1.028321e+000	-1.087065e+002	-7.976879e+001	-1.509086e+002	-7.933457e+001	1.580962e+002	-9.728281e-001	-1.063215e+002
110192019	-1.027682e+000	-1.087132e+002	-8.489066e+001	-1.425282e+002	-7.775701e+001	-1.723335e+002	-9.735967e-001	-1.063079e+002
110194019	-1.028317e+000	-1.087156e+002	-7.933358e+001	-1.622882e+002	-8.173891e+001	-1.714360e+002	-9.726089e-001	-1.063313e+002
110196020	-1.027678e+000	-1.087210e+002	-7.946371e+001	-1.503968e+002	-7.720850e+001	-1.738162e+002	-9.713392e-001	-1.063368e+002
110198020	-1.028422e+000	-1.087288e+002	-7.972944e+001	-1.474875e+002	-7.887737e+001	-1.615659e+002	-9.711776e-001	-1.063266e+002
110200020	-1.028331e+000	-1.087221e+002	-8.286982e+001	-1.490940e+002	-7.721833e+001	-1.655619e+002	-9.727957e-001	-1.063532e+002
110202020	-1.029846e+000	-1.087372e+002	-8.114685e+001	-1.353427e+002	-7.632262e+001	-1.450749e+002	-9.723631e-001	-1.063290e+002
110204020	-1.030061e+000	-1.087243e+002	-8.420916e+001	1.518447e+002	-7.952788e+001	-1.521243e+002	-9.727166e-001	-1.063488e+002
110206021	-1.029309e+000	-1.087350e+002	-8.003908e+001	-1.332524e+002	-7.756079e+001	-1.736006e+002	-9.729909e-001	-1.063435e+002
110208021	-1.027235e+000	-1.087202e+002	-8.528614e+001	1.544666e+002	-8.149551e+001	-1.772951e+002	-9.731196e-001	-1.063485e+002
110210021	-1.030123e+000	-1.087310e+002	-8.773527e+001	-1.392756e+002	-8.224074e+001	-1.581772e+002	-9.724196e-001	-1.063434e+002
110212021	-1.028566e+000	-1.087342e+002	-8.003688e+001	-1.671729e+002	-8.006632e+001	-1.521439e+002	-9.739461e-001	-1.063479e+002
110214021	-1.028532e+000	-1.087266e+002	-7.740040e+001	-1.407372e+002	-7.663204e+001	-1.696350e+002	-9.713560e-001	-1.063588e+002
110216022	-1.029688e+000	-1.087475e+002	-8.312780e+001	-1.631590e+002	-8.088313e+001	1.773966e+002	-9.738829e-001	-1.063475e+002
110218022	-1.030688e+000	-1.087486e+002	-7.633083e+001	-1.409673e+002	-8.171567e+001	-1.253153e+002	-9.706206e-001	-1.063629e+002
110220022	-1.032024e+000	-1.087524e+002	-8.394534e+001	1.759478e+002	-8.259345e+001	-1.399424e+002	-9.719148e-001	-1.063523e+002
110222022	-1.029187e+000	-1.087427e+002	-8.511462e+001	-1.181641e+002	-7.985591e+001	-1.628329e+002	-9.707960e-001	-1.063679e+002
110224022	-1.028673e+000	-1.087469e+002	-7.993981e+001	-1.721496e+002	-8.327906e+001	-1.678125e+002	-9.740096e-001	-1.063466e+002
110226023	-1.029572e+000	-1.087442e+002	-7.711601e+001	-1.677727e+002	-7.920295e+001	-1.514115e+002	-9.716404e-001	-1.063526e+002
110228023	-1.029510e+000	-1.087576e+002	-7.685202e+001	-1.037412e+002	-7.995732e+001	1.648464e+002	-9.730997e-001	-1.063694e+002
110230023	-1.029674e+000	-1.087479e+002	-8.415310e+001	-1.238072e+002	-8.362491e+001	-1.573201e+002	-9.725786e-001	-1.063568e+002
110232023	-1.029144e+000	-1.087614e+002	-9.720013e+001	-1.446797e+002	-7.907641e+001	-1.565659e+002	-9.732285e-001	-1.063595e+002
110234023	-1.027842e+000	-1.087506e+002	-8.033612e+001	-1.446595e+002	-8.087971e+001	-1.718646e+002	-9.732132e-001	-1.063726e+002
110236024	-1.030539e+000	-1.087486e+002	-8.111431e+001	-1.493713e+002	-7.754796e+001	-1.561334e+002	-9.734385e-001	-1.063644e+002
110238024	-1.029359e+000	-1.087601e+002	-8.472526e+001	1.757076e+002	-8.171911e+001	-1.391676e+002	-9.705385e-001	-1.063796e+002
110240024	-1.029406e+000	-1.087550e+002	-8.366074e+001	-1.592563e+002	-7.943962e+001	-1.587681e+002	-9.753150e-001	-1.063925e+002
110242024	-1.030472e+000	-1.087639e+002	-8.400792e+001	-1.526551e+002	-8.540681e+001	1.356323e+002	-9.722611e-001	-1.063762e+002
110244024	-1.031189e+000	-1.087660e+002	-8.131197e+001	-1.338706e+002	-8.056867e+001	-1.614741e+002	-9.738979e-001	-1.063911e+002
110246025	-1.029635e+000	-1.087762e+002	-8.238198e+001	-1.350655e+002	-7.687970e+001	-1.491698e+002	-9.711622e-001	-1.063815e+002
110248025	-1.028088e+000	-1.087781e+002	-7.561548e+001	-1.358335e+002	-7.918184e+001	1.798172e+002	-9.709979e-001	-1.063802e+002
110250025	-1.029919e+000	-1.087677e+002	-8.547987e+001	-1.127899e+002	-8.002494e+001	-1.276856e+002	-9.735797e-001	-1.063800e+002
110252025	-1.031751e+000	-1.087787e+002	-8.880813e+001	-1.727406e+002	-8.448719e+001	1.746661e+002	-9.739517e-001	-1.063771e+002
110254025	-1.028372e+000	-1.087796e+002	-7.978425e+001	-1.507848e+002	-8.835267e+001	-1.232104e+002	-9.720190e-001	-1.063786e+002
110256026	-1.031267e+000	-1.087809e+002	-8.156710e+001	-1.472749e+002	-7.855553e+001	-1.785557e+002	-9.733681e-001	-1.064078e+002
110258026	-1.029269e+000	-1.087860e+002	-8.074141e+001	1.715923e+002	-7.618861e+001	-1.418099e+002	-9.744867e-001	-1.063949e+002
110260026	-1.031725e+000	-1.087853e+002	-7.509434e+001	-1.352476e+002	-7.961818e+001	-1.534203e+002	-9.719748e-001	-1.063800e+002
110262026	-1.032298e+000	-1.087863e+002	-7.859110e+001	-1.422014e+002	-8.421292e+001	-1.612376e+002	-9.730252e-001	-1.064028e+002
110264026	-1.031723e+000	-1.087703e+002	-8.550387e+001	-1.428014e+002	-7.999630e+001	-1.390342e+002	-9.744041e-001	-1.064069e+002
110266027	-1.031806e+000	-1.087953e+002	-8.215308e+001	-1.144061e+002	-7.986794e+001	1.796100e+002	-9.721715e-001	-1.064158e+002
110268027	-1.028136e+000	-1.087858e+002	-7.594635e+001	-1.643271e+002	-7.732418e+001	-1.527208e+002	-9.703609e-001	-1.063986e+002
110270027	-1.029971e+000	-1.087827e+002	-7.878896e+001	-1.573681e+002	-7.922917e+001	-1.426970e+002	-9.730589e-001	-1.063941e+002
110272027	-1.029646e+000	-1.087958e+002	-8.342250e+001	-1.264894e+002	-8.446748e+001	-1.691287e+002	-9.732882e-001	-1.064076e+002
110274027	-1.029236e+000	-1.088006e+002	-8.454819e+001	-1.536929e+002	-8.325646e+001	-1.421614e+002	-9.745243e-001	-1.064191e+002
110276028	-1.031386e+000	-1.087989e+002	-7.979620e+001	-1.576414e+002	-8.348927e+001	-1.625730e+002	-9.745048e-001	-1.064013e+002
110278028	-1.031611e+000	-1.088043e+002	-8.031725e+001	-1.505257e+002	-7.906423e+001	-1.670131e+002	-9.726799e-001	-1.064099e+002
110280028	-1.031610e+000	-1.087944e+002	-8.257915e+001	-1.228377e+002	-7.763319e+001	-1.461980e+002	-9.760055e-001	-1.064187e+002
110282028	-1.031407e+000	-1.088086e+002	-7.621120e+001	-1.465956e+002	-8.437311e+001	-1.494247e+002	-9.723808e-001	-1.064177e+002
110284028	-1.032652e+000	-1.088027e+002	-8.053723e+001	-1.533640e+002	-8.110724e+001	-1.374024e+002	-9.759450e-001	-1.064175e+002
110286029	-1.032655e+000	-1.088023e+002	-8.006768e+001	-1.513025e+002	-8.134397e+001	-1.308021e+002	-9.735664e-001	-1.064145e+002
110288029	-1.031138e+000	-1.088009e+002	-7.938928e+001	-1.634425e+002	-8.013263e+001	-1.461661e+002	-9.726488e-001	-1.064222e+002
110290029	-1.032716e+000	-1.088186e+002	-7.716775e+001	-1.502410e+002	-7.738986e+001	-1.415045e+002	-9.739669e-001	-1.064226e+002
110292029	-1.029901e+000	-1.088091e+002	-7.934744e+001	-1.489713e+002	-8.107383e+001	1.736903e+002	-9.741672e-001	-1.064282e+002
110294029	-1.029638e+000	-1.088059e+002	-8.465505e+001	-1.364772e+002	-7.652566e+001	-1.452279e+002	-9.748564e-001	-1.064246e+002
110296030	-1.030477e+000	-1.088216e+002	-7.800264e+001	-1.554335e+002	-8.376738e+001	-1.796039e+002	-9.723730e-001	-1.064315e+002
110298030	-1.030984e+000	-1.088289e+002	-7.969148e+001	-1.200419e+002	-8.411324e+001	-1.587026e+002	-9.740016e-001	-1.064280e+002
110300030	-1.031004e+000	-1.088216e+002	-7.834852e+001	-1.400790e+002	-7.829963e+001	-1.349766e+002	-9.720758e-001	-1.064309e+002
