!Agilent Technologies,E5071C,MY46520923,B.12.03
!Date: Wed Feb 07 10:03:11 2024
!Data & Calibration Information:
!Freq	S11:SOLT2(ON)	S21:SOLT2(ON)	S12:SOLT2(ON)	S22:SOLT2(ON)
!PortZ  Port1:50+j0    Port2:50+j0
!Above PortZ is port z conversion or system Z0 setting when saving the data.
!When reading, reference impedance value at option line is always used.
# Hz S dB R 50
110000000	-9.032029e-001	-1.070138e+002	-7.856503e+001	-1.527482e+002	-7.829465e+001	1.758026e+002	-1.057372e+000	-1.064921e+002
110002000	-9.040014e-001	-1.070173e+002	-7.732008e+001	-1.564274e+002	-7.872900e+001	1.758051e+002	-1.059712e+000	-1.064779e+002
110004000	-9.020852e-001	-1.070253e+002	-8.206470e+001	-1.792314e+002	-7.949117e+001	-1.677609e+002	-1.059523e+000	-1.065000e+002
110006001	-9.059688e-001	-1.069978e+002	-7.733967e+001	-1.759110e+002	-8.262058e+001	1.746202e+002	-1.058623e+000	-1.065027e+002
110008001	-9.051091e-001	-1.070284e+002	-8.070373e+001	-1.667031e+002	-8.047944e+001	-1.521219e+002	-1.059429e+000	-1.064840e+002
110010001	-9.063827e-001	-1.070296e+002	-8.177354e+001	-1.652033e+002	-8.014417e+001	-1.491407e+002	-1.055371e+000	-1.064825e+002
110012001	-9.045767e-001	-1.070341e+002	-7.842519e+001	-1.684663e+002	-7.776283e+001	-1.687458e+002	-1.059423e+000	-1.065047e+002
110014001	-9.043332e-001	-1.070147e+002	-7.699317e+001	-1.677412e+002	-8.399021e+001	-1.740916e+002	-1.057994e+000	-1.065049e+002
110016002	-9.088222e-001	-1.070379e+002	-7.694471e+001	-1.687994e+002	-7.573240e+001	-1.695771e+002	-1.058905e+000	-1.065016e+002
110018002	-9.055188e-001	-1.070313e+002	-7.851953e+001	-1.792391e+002	-7.909510e+001	-1.559801e+002	-1.060041e+000	-1.065169e+002
110020002	-9.029385e-001	-1.070339e+002	-8.013726e+001	-1.696482e+002	-7.903103e+001	-1.517519e+002	-1.059066e+000	-1.064998e+002
110022002	-9.062517e-001	-1.070343e+002	-7.743770e+001	-1.562989e+002	-7.728682e+001	1.771973e+002	-1.060608e+000	-1.064962e+002
110024002	-9.057049e-001	-1.070366e+002	-7.792255e+001	-1.323640e+002	-7.857311e+001	-1.738633e+002	-1.058669e+000	-1.065084e+002
110026003	-9.068411e-001	-1.070382e+002	-7.670541e+001	-1.492378e+002	-8.361246e+001	1.789287e+002	-1.059812e+000	-1.065225e+002
110028003	-9.036560e-001	-1.070397e+002	-8.141159e+001	1.465016e+002	-8.213448e+001	-1.313547e+002	-1.057909e+000	-1.065000e+002
110030003	-9.045207e-001	-1.070502e+002	-7.945642e+001	-1.676524e+002	-7.638215e+001	-1.726123e+002	-1.058118e+000	-1.064990e+002
110032003	-9.053844e-001	-1.070557e+002	-8.088627e+001	-1.343569e+002	-8.037380e+001	1.716246e+002	-1.060302e+000	-1.065034e+002
110034003	-9.040391e-001	-1.070534e+002	-8.035891e+001	1.621273e+002	-7.840318e+001	-1.399612e+002	-1.060268e+000	-1.065161e+002
110036004	-9.066192e-001	-1.070448e+002	-7.892760e+001	-1.728829e+002	-7.842178e+001	-1.453882e+002	-1.059777e+000	-1.065324e+002
110038004	-9.067963e-001	-1.070639e+002	-8.199385e+001	-1.691516e+002	-8.162385e+001	-1.452131e+002	-1.059407e+000	-1.065136e+002
110040004	-9.045651e-001	-1.070427e+002	-7.561692e+001	-1.546776e+002	-8.107007e+001	-1.346194e+002	-1.059539e+000	-1.065254e+002
110042004	-9.081195e-001	-1.070534e+002	-7.939565e+001	-1.705678e+002	-7.928884e+001	-1.573536e+002	-1.059185e+000	-1.065269e+002
110044004	-9.057720e-001	-1.070623e+002	-7.780948e+001	1.756628e+002	-7.862222e+001	-1.546550e+002	-1.059408e+000	-1.065171e+002
110046005	-9.040883e-001	-1.070696e+002	-8.313493e+001	-1.519273e+002	-7.696304e+001	-1.565218e+002	-1.060234e+000	-1.065147e+002
110048005	-9.080555e-001	-1.070541e+002	-8.000756e+001	-1.538313e+002	-7.660981e+001	-1.785744e+002	-1.058638e+000	-1.065212e+002
110050005	-9.068095e-001	-1.070706e+002	-7.716886e+001	-1.723444e+002	-9.326916e+001	-1.190273e+002	-1.058025e+000	-1.065376e+002
110052005	-9.078256e-001	-1.070553e+002	-8.268634e+001	1.702169e+002	-7.746676e+001	-1.551994e+002	-1.058616e+000	-1.065399e+002
110054005	-9.049165e-001	-1.070611e+002	-8.009910e+001	-1.776550e+002	-7.848760e+001	-1.751154e+002	-1.059274e+000	-1.065415e+002
110056006	-9.066236e-001	-1.070641e+002	-8.340679e+001	1.650358e+002	-7.647669e+001	-1.491601e+002	-1.059442e+000	-1.065459e+002
110058006	-9.064034e-001	-1.070765e+002	-8.111949e+001	-1.685685e+002	-8.184046e+001	-1.627390e+002	-1.057104e+000	-1.065241e+002
110060006	-9.070548e-001	-1.070715e+002	-7.689217e+001	1.706965e+002	-8.148652e+001	-1.663530e+002	-1.057848e+000	-1.065517e+002
110062006	-9.063002e-001	-1.070751e+002	-7.960799e+001	-1.433573e+002	-8.044298e+001	1.610138e+002	-1.059901e+000	-1.065442e+002
110064006	-9.095569e-001	-1.070762e+002	-8.286234e+001	-1.719213e+002	-8.136660e+001	-1.397664e+002	-1.058700e+000	-1.065536e+002
110066007	-9.049406e-001	-1.070814e+002	-7.864465e+001	-1.524794e+002	-8.439213e+001	1.675610e+002	-1.060681e+000	-1.065448e+002
110068007	-9.064284e-001	-1.070794e+002	-8.053698e+001	-1.715801e+002	-7.846503e+001	-1.479423e+002	-1.059900e+000	-1.065468e+002
110070007	-9.048119e-001	-1.070838e+002	-8.191965e+001	-1.553922e+002	-8.322839e+001	1.798407e+002	-1.059655e+000	-1.065632e+002
110072007	-9.068734e-001	-1.070779e+002	-8.200552e+001	1.504082e+002	-7.969172e+001	-1.634339e+002	-1.058574e+000	-1.065594e+002
110074007	-9.038694e-001	-1.070837e+002	-8.652914e+001	-1.276615e+002	-7.756300e+001	1.665787e+002	-1.059848e+000	-1.065658e+002
110076008	-9.063579e-001	-1.070830e+002	-8.190745e+001	-1.553090e+002	-8.153172e+001	-1.568210e+002	-1.058291e+000	-1.065693e+002
110078008	-9.062421e-001	-1.070922e+002	-7.801538e+001	-1.518803e+002	-7.781035e+001	-1.575197e+002	-1.060213e+000	-1.065671e+002
110080008	-9.057142e-001	-1.070724e+002	-8.266730e+001	1.702719e+002	-8.044218e+001	-1.553465e+002	-1.059459e+000	-1.065538e+002
110082008	-9.063514e-001	-1.070929e+002	-7.741614e+001	-1.666775e+002	-8.178825e+001	-1.746762e+002	-1.061753e+000	-1.065698e+002
110084008	-9.058063e-001	-1.070936e+002	-8.124151e+001	-1.741509e+002	-8.635649e+001	1.657454e+002	-1.060460e+000	-1.065698e+002
110086009	-9.076049e-001	-1.070979e+002	-8.126042e+001	-1.521974e+002	-8.510969e+001	1.603577e+002	-1.062400e+000	-1.065558e+002
110088009	-9.058298e-001	-1.071066e+002	-7.773243e+001	-1.355297e+002	-7.591270e+001	-1.527028e+002	-1.060366e+000	-1.065529e+002
110090009	-9.072221e-001	-1.071046e+002	-8.138810e+001	-1.594646e+002	-7.872348e+001	-1.670334e+002	-1.060057e+000	-1.065740e+002
110092009	-9.054296e-001	-1.071095e+002	-7.916396e+001	-1.574542e+002	-7.970802e+001	-1.556033e+002	-1.060820e+000	-1.065780e+002
110094009	-9.061414e-001	-1.071011e+002	-8.119867e+001	-1.758562e+002	-8.035123e+001	-1.670680e+002	-1.060004e+000	-1.065596e+002
110096010	-9.055503e-001	-1.071038e+002	-8.133803e+001	1.703352e+002	-8.130455e+001	1.655726e+002	-1.063713e+000	-1.065703e+002
110098010	-9.068763e-001	-1.071049e+002	-8.293987e+001	-1.631442e+002	-8.196559e+001	1.647626e+002	-1.062582e+000	-1.065959e+002
110100010	-9.056104e-001	-1.071170e+002	-8.194362e+001	1.658874e+002	-7.991588e+001	-1.731515e+002	-1.062322e+000	-1.065842e+002
110102010	-9.080658e-001	-1.071155e+002	-7.877833e+001	-1.631177e+002	-8.055426e+001	-1.484112e+002	-1.059208e+000	-1.065822e+002
110104010	-9.072893e-001	-1.071056e+002	-7.816904e+001	-1.631308e+002	-7.642847e+001	-1.738045e+002	-1.058589e+000	-1.065941e+002
110106011	-9.058337e-001	-1.071216e+002	-8.048233e+001	-1.336039e+002	-8.012946e+001	-1.652482e+002	-1.061060e+000	-1.065915e+002
110108011	-9.079563e-001	-1.071093e+002	-8.111411e+001	-1.595908e+002	-7.899990e+001	-1.543752e+002	-1.059877e+000	-1.065827e+002
110110011	-9.080725e-001	-1.071265e+002	-8.153008e+001	-1.743791e+002	-8.102222e+001	-1.459692e+002	-1.061670e+000	-1.065838e+002
110112011	-9.066607e-001	-1.071278e+002	-8.150492e+001	1.778671e+002	-8.063155e+001	-1.375006e+002	-1.061889e+000	-1.065935e+002
110114011	-9.054704e-001	-1.071359e+002	-8.129686e+001	-1.405994e+002	-7.835421e+001	-1.249353e+002	-1.059287e+000	-1.065928e+002
110116012	-9.053425e-001	-1.071369e+002	-7.830212e+001	1.784435e+002	-8.160185e+001	-1.389880e+002	-1.059861e+000	-1.066025e+002
110118012	-9.064016e-001	-1.071226e+002	-8.117024e+001	-1.389231e+002	-7.709403e+001	-1.749544e+002	-1.060166e+000	-1.066150e+002
110120012	-9.072675e-001	-1.071389e+002	-8.117554e+001	-1.757622e+002	-8.245918e+001	-1.586263e+002	-1.061554e+000	-1.066227e+002
110122012	-9.078514e-001	-1.071236e+002	-8.058214e+001	-1.647331e+002	-7.698104e+001	-1.770837e+002	-1.059632e+000	-1.065853e+002
110124012	-9.069390e-001	-1.071533e+002	-8.084708e+001	-1.613675e+002	-8.672369e+001	-1.726508e+002	-1.061832e+000	-1.065991e+002
110126013	-9.077142e-001	-1.071394e+002	-7.675018e+001	-1.521943e+002	-7.642633e+001	-1.586156e+002	-1.062674e+000	-1.066026e+002
110128013	-9.067515e-001	-1.071184e+002	-7.874293e+001	-1.450493e+002	-7.670944e+001	-1.641343e+002	-1.059437e+000	-1.066086e+002
110130013	-9.072009e-001	-1.071445e+002	-7.769179e+001	1.510418e+002	-8.246286e+001	-1.368257e+002	-1.062360e+000	-1.066066e+002
110132013	-9.087278e-001	-1.071424e+002	-7.990633e+001	-1.406970e+002	-8.054684e+001	-1.759986e+002	-1.060874e+000	-1.066066e+002
110134013	-9.070129e-001	-1.071523e+002	-8.023821e+001	-1.466638e+002	-7.953760e+001	-1.190297e+002	-1.060288e+000	-1.066028e+002
110136014	-9.077313e-001	-1.071459e+002	-7.774059e+001	-1.679747e+002	-8.422693e+001	-1.344295e+002	-1.058594e+000	-1.066095e+002
110138014	-9.071701e-001	-1.071540e+002	-7.994214e+001	-1.741030e+002	-7.588283e+001	-1.656359e+002	-1.060982e+000	-1.066090e+002
110140014	-9.054073e-001	-1.071450e+002	-8.260414e+001	-1.412456e+002	-8.106198e+001	1.667179e+002	-1.060920e+000	-1.066212e+002
110142014	-9.078738e-001	-1.071446e+002	-9.008475e+001	-1.783512e+002	-8.067940e+001	-1.586054e+002	-1.062247e+000	-1.066139e+002
110144014	-9.083983e-001	-1.071536e+002	-7.909357e+001	-1.715691e+002	-7.782074e+001	-1.598855e+002	-1.056723e+000	-1.066199e+002
110146015	-9.076604e-001	-1.071640e+002	-8.214722e+001	-1.528948e+002	-7.794833e+001	-1.766723e+002	-1.061471e+000	-1.066225e+002
110148015	-9.070385e-001	-1.071643e+002	-8.021288e+001	-1.533249e+002	-8.112519e+001	-1.493975e+002	-1.060888e+000	-1.066371e+002
110150015	-9.055857e-001	-1.071570e+002	-8.217415e+001	1.650189e+002	-7.890810e+001	-1.428770e+002	-1.061637e+000	-1.066360e+002
110152015	-9.090397e-001	-1.071462e+002	-7.946262e+001	-1.525897e+002	-8.478030e+001	1.723684e+002	-1.060315e+000	-1.066323e+002
110154015	-9.103454e-001	-1.071784e+002	-7.855473e+001	-1.352329e+002	-7.946007e+001	-1.570798e+002	-1.060858e+000	-1.066517e+002
110156016	-9.071372e-001	-1.071671e+002	-8.047186e+001	-1.798692e+002	-7.995701e+001	1.712180e+002	-1.061125e+000	-1.066438e+002
110158016	-9.083004e-001	-1.071758e+002	-7.793919e+001	-1.642551e+002	-8.042354e+001	1.564494e+002	-1.061050e+000	-1.066379e+002
110160016	-9.068990e-001	-1.071663e+002	-7.927258e+001	1.762470e+002	-8.343381e+001	-1.561790e+002	-1.061995e+000	-1.066410e+002
110162016	-9.044943e-001	-1.071622e+002	-7.823577e+001	-1.720468e+002	-8.866887e+001	-1.672932e+002	-1.060604e+000	-1.066486e+002
110164016	-9.065161e-001	-1.071741e+002	-8.178977e+001	-1.513228e+002	-7.662633e+001	-1.672882e+002	-1.061825e+000	-1.066493e+002
110166017	-9.076530e-001	-1.071685e+002	-7.872023e+001	-1.684346e+002	-8.177757e+001	1.522374e+002	-1.059916e+000	-1.066352e+002
110168017	-9.082419e-001	-1.071779e+002	-8.083118e+001	-1.612739e+002	-7.587931e+001	1.788902e+002	-1.061842e+000	-1.066619e+002
110170017	-9.063628e-001	-1.071739e+002	-8.375235e+001	1.606076e+002	-7.976784e+001	-1.695542e+002	-1.061578e+000	-1.066599e+002
110172017	-9.113391e-001	-1.071745e+002	-8.562607e+001	-1.599946e+002	-8.091709e+001	-1.549544e+002	-1.062583e+000	-1.066487e+002
110174017	-9.069601e-001	-1.071854e+002	-7.929486e+001	1.697985e+002	-7.490209e+001	-1.621034e+002	-1.061287e+000	-1.066480e+002
110176018	-9.071073e-001	-1.071853e+002	-8.892697e+001	-1.630007e+002	-7.976800e+001	-1.326631e+002	-1.061524e+000	-1.066641e+002
110178018	-9.077642e-001	-1.071864e+002	-8.386727e+001	1.716114e+002	-8.379761e+001	-1.535083e+002	-1.063233e+000	-1.066549e+002
110180018	-9.084205e-001	-1.071911e+002	-7.730081e+001	-1.548218e+002	-7.949133e+001	-1.707514e+002	-1.062789e+000	-1.066475e+002
110182018	-9.084904e-001	-1.071869e+002	-7.873068e+001	-1.601967e+002	-7.922508e+001	-1.451774e+002	-1.062260e+000	-1.066681e+002
110184018	-9.074800e-001	-1.071912e+002	-8.280762e+001	-1.542730e+002	-8.093249e+001	-1.621256e+002	-1.062015e+000	-1.066572e+002
110186019	-9.106841e-001	-1.071983e+002	-8.648136e+001	-1.529345e+002	-7.777100e+001	-1.548124e+002	-1.062487e+000	-1.066670e+002
110188019	-9.087729e-001	-1.071936e+002	-8.090866e+001	-1.506115e+002	-8.023300e+001	-1.701438e+002	-1.063579e+000	-1.066606e+002
110190019	-9.099650e-001	-1.071875e+002	-8.829548e+001	-1.629342e+002	-8.084474e+001	-1.496138e+002	-1.062305e+000	-1.066650e+002
110192019	-9.079011e-001	-1.072066e+002	-7.560643e+001	-1.667739e+002	-7.794142e+001	-1.765851e+002	-1.062630e+000	-1.066703e+002
110194019	-9.098600e-001	-1.072158e+002	-8.273847e+001	-1.738514e+002	-8.137618e+001	-1.352793e+002	-1.064663e+000	-1.066894e+002
110196020	-9.087425e-001	-1.072172e+002	-7.850044e+001	-1.495358e+002	-8.733972e+001	-1.698533e+002	-1.062513e+000	-1.066615e+002
110198020	-9.101460e-001	-1.072220e+002	-7.423455e+001	-1.785148e+002	-7.769472e+001	-1.330068e+002	-1.063270e+000	-1.066697e+002
110200020	-9.080637e-001	-1.072046e+002	-7.647711e+001	-1.368768e+002	-9.117324e+001	1.354433e+002	-1.063388e+000	-1.066827e+002
110202020	-9.092030e-001	-1.072107e+002	-8.592590e+001	-1.405681e+002	-7.910466e+001	-1.791844e+002	-1.063298e+000	-1.066895e+002
110204020	-9.081913e-001	-1.072043e+002	-8.422092e+001	-1.526268e+002	-8.560445e+001	-1.740043e+002	-1.064325e+000	-1.066879e+002
110206021	-9.091032e-001	-1.072135e+002	-8.289776e+001	-1.650947e+002	-8.157315e+001	-1.781331e+002	-1.061858e+000	-1.066941e+002
110208021	-9.095053e-001	-1.072025e+002	-8.154284e+001	1.738958e+002	-8.679223e+001	-1.478123e+002	-1.062181e+000	-1.066947e+002
110210021	-9.076915e-001	-1.072122e+002	-8.053474e+001	-1.476399e+002	-8.641013e+001	1.612779e+002	-1.061319e+000	-1.066687e+002
110212021	-9.097320e-001	-1.072177e+002	-8.196089e+001	1.535033e+002	-7.806239e+001	-1.125519e+002	-1.060930e+000	-1.066795e+002
110214021	-9.097254e-001	-1.072149e+002	-8.079257e+001	-1.577308e+002	-8.066195e+001	-1.602065e+002	-1.061537e+000	-1.066856e+002
110216022	-9.077877e-001	-1.072185e+002	-8.218623e+001	-1.309013e+002	-7.922955e+001	1.723933e+002	-1.064628e+000	-1.066948e+002
110218022	-9.083629e-001	-1.072130e+002	-8.315026e+001	-1.538014e+002	-8.352455e+001	-1.362054e+002	-1.063919e+000	-1.066951e+002
110220022	-9.092677e-001	-1.072364e+002	-7.816371e+001	-1.306647e+002	-7.962137e+001	1.652645e+002	-1.062358e+000	-1.066936e+002
110222022	-9.088269e-001	-1.072306e+002	-7.866652e+001	-1.362965e+002	-8.695718e+001	-1.584073e+002	-1.063793e+000	-1.067016e+002
110224022	-9.088030e-001	-1.072325e+002	-7.516907e+001	-1.510363e+002	-7.886464e+001	-1.485382e+002	-1.065005e+000	-1.067151e+002
110226023	-9.096225e-001	-1.072326e+002	-7.912307e+001	-1.485440e+002	-7.817231e+001	-1.571836e+002	-1.063125e+000	-1.067189e+002
110228023	-9.085124e-001	-1.072391e+002	-7.911886e+001	-1.280453e+002	-7.984927e+001	-1.520484e+002	-1.064047e+000	-1.067029e+002
110230023	-9.102770e-001	-1.072316e+002	-8.020887e+001	-1.531745e+002	-7.896496e+001	-1.641400e+002	-1.063227e+000	-1.067065e+002
110232023	-9.094059e-001	-1.072403e+002	-8.249955e+001	-1.713000e+002	-8.310430e+001	-1.421835e+002	-1.060450e+000	-1.067002e+002
110234023	-9.082396e-001	-1.072356e+002	-8.127781e+001	1.746135e+002	-8.005416e+001	-1.748199e+002	-1.066604e+000	-1.067081e+002
110236024	-9.098379e-001	-1.072471e+002	-7.720861e+001	-1.605579e+002	-8.098918e+001	-1.146628e+002	-1.062944e+000	-1.067021e+002
110238024	-9.084983e-001	-1.072496e+002	-7.817566e+001	1.677080e+002	-7.613998e+001	-1.281457e+002	-1.061870e+000	-1.067122e+002
110240024	-9.091622e-001	-1.072510e+002	-7.508298e+001	-1.727839e+002	-8.202033e+001	1.695153e+002	-1.063905e+000	-1.067193e+002
110242024	-9.094846e-001	-1.072389e+002	-8.394598e+001	1.627540e+002	-7.745425e+001	-1.426329e+002	-1.064146e+000	-1.067155e+002
110244024	-9.098570e-001	-1.072432e+002	-7.748679e+001	-1.545699e+002	-7.654435e+001	-1.616298e+002	-1.064257e+000	-1.067290e+002
110246025	-9.118238e-001	-1.072526e+002	-7.492433e+001	-1.522144e+002	-7.899966e+001	-1.584088e+002	-1.064279e+000	-1.067355e+002
110248025	-9.086018e-001	-1.072479e+002	-7.507706e+001	-1.628445e+002	-8.012167e+001	-1.649201e+002	-1.063631e+000	-1.067135e+002
110250025	-9.093249e-001	-1.072604e+002	-7.776031e+001	-1.640275e+002	-8.011898e+001	-1.238189e+002	-1.062773e+000	-1.067259e+002
110252025	-9.078487e-001	-1.072698e+002	-8.466794e+001	-1.178506e+002	-7.754086e+001	-1.511144e+002	-1.063002e+000	-1.067109e+002
110254025	-9.094626e-001	-1.072689e+002	-8.191805e+001	1.662213e+002	-8.564087e+001	1.653981e+002	-1.065326e+000	-1.067284e+002
110256026	-9.092943e-001	-1.072714e+002	-7.640500e+001	-1.297435e+002	-7.941223e+001	-1.720675e+002	-1.063225e+000	-1.067321e+002
110258026	-9.101188e-001	-1.072643e+002	-7.518226e+001	-1.518712e+002	-8.036843e+001	-1.736533e+002	-1.064562e+000	-1.067404e+002
110260026	-9.105435e-001	-1.072752e+002	-7.962918e+001	-1.750182e+002	-7.855475e+001	-1.624476e+002	-1.066098e+000	-1.067394e+002
110262026	-9.086031e-001	-1.072739e+002	-8.375500e+001	-1.506256e+002	-7.829655e+001	-1.518063e+002	-1.062253e+000	-1.067336e+002
110264026	-9.106202e-001	-1.072719e+002	-8.043946e+001	-1.369649e+002	-7.841532e+001	-1.475985e+002	-1.064104e+000	-1.067395e+002
110266027	-9.118420e-001	-1.072775e+002	-7.831025e+001	-1.415240e+002	-7.910272e+001	-1.496218e+002	-1.063909e+000	-1.067398e+002
110268027	-9.095178e-001	-1.072654e+002	-7.635403e+001	-1.659658e+002	-7.992844e+001	-1.583726e+002	-1.064104e+000	-1.067568e+002
110270027	-9.099705e-001	-1.072748e+002	-7.871639e+001	-1.600778e+002	-7.809114e+001	-1.439856e+002	-1.064281e+000	-1.067470e+002
110272027	-9.088674e-001	-1.072866e+002	-7.732751e+001	1.794858e+002	-7.616719e+001	-1.521231e+002	-1.065050e+000	-1.067437e+002
110274027	-9.075143e-001	-1.072918e+002	-7.830248e+001	-1.641032e+002	-8.375805e+001	-1.407242e+002	-1.064565e+000	-1.067452e+002
110276028	-9.099708e-001	-1.072894e+002	-8.274786e+001	1.598832e+002	-8.045103e+001	-1.394312e+002	-1.063905e+000	-1.067532e+002
110278028	-9.109987e-001	-1.072860e+002	-7.611031e+001	-1.421344e+002	-7.778442e+001	-1.583797e+002	-1.064838e+000	-1.067555e+002
110280028	-9.075839e-001	-1.072941e+002	-7.980200e+001	-1.488244e+002	-8.655536e+001	-1.756992e+002	-1.064613e+000	-1.067426e+002
110282028	-9.101816e-001	-1.072747e+002	-8.320281e+001	-1.581882e+002	-7.703184e+001	-1.698911e+002	-1.062319e+000	-1.067411e+002
110284028	-9.111482e-001	-1.072916e+002	-7.605263e+001	-1.516966e+002	-7.794547e+001	-1.545214e+002	-1.064837e+000	-1.067570e+002
110286029	-9.112863e-001	-1.072749e+002	-7.762664e+001	-1.531425e+002	-8.414552e+001	-1.531503e+002	-1.064148e+000	-1.067649e+002
110288029	-9.116268e-001	-1.072925e+002	-7.870306e+001	-1.448147e+002	-8.808559e+001	-1.624547e+002	-1.063872e+000	-1.067577e+002
110290029	-9.092610e-001	-1.072840e+002	-7.397219e+001	-1.556397e+002	-8.273922e+001	-1.740294e+002	-1.065097e+000	-1.067546e+002
110292029	-9.102849e-001	-1.072908e+002	-8.131473e+001	-1.682817e+002	-8.195535e+001	-1.481699e+002	-1.062800e+000	-1.067766e+002
110294029	-9.106608e-001	-1.073106e+002	-7.917262e+001	-1.311025e+002	-7.894206e+001	-1.640732e+002	-1.064936e+000	-1.067623e+002
110296030	-9.092342e-001	-1.073030e+002	-7.843902e+001	-1.548018e+002	-8.189272e+001	-1.461906e+002	-1.066711e+000	-1.067638e+002
110298030	-9.094366e-001	-1.073092e+002	-7.790795e+001	-1.450841e+002	-7.727819e+001	-1.391699e+002	-1.066106e+000	-1.067806e+002
110300030	-9.116511e-001	-1.073116e+002	-7.943789e+001	-1.522930e+002	-7.601302e+001	-1.644629e+002	-1.067291e+000	-1.067761e+002
