!Agilent Technologies,E5071C,MY46520923,B.12.03
!Date: Wed Feb 07 10:05:18 2024
!Data & Calibration Information:
!Freq	S11:SOLT2(ON)	S21:SOLT2(ON)	S12:SOLT2(ON)	S22:SOLT2(ON)
!PortZ  Port1:50+j0    Port2:50+j0
!Above PortZ is port z conversion or system Z0 setting when saving the data.
!When reading, reference impedance value at option line is always used.
# Hz S dB R 50
110000000	-9.046582e-001	-1.070176e+002	-7.882719e+001	-1.697851e+002	-8.838316e+001	-1.431072e+002	-1.060274e+000	-1.064859e+002
110002000	-9.049699e-001	-1.070125e+002	-8.393232e+001	1.774647e+002	-8.221124e+001	-1.568835e+002	-1.059423e+000	-1.064738e+002
110004000	-9.039380e-001	-1.070219e+002	-7.621578e+001	1.753670e+002	-7.813299e+001	-1.734587e+002	-1.060339e+000	-1.064877e+002
110006001	-9.048535e-001	-1.070301e+002	-7.569955e+001	-1.786938e+002	-7.544074e+001	-1.790679e+002	-1.060980e+000	-1.064823e+002
110008001	-9.029623e-001	-1.070398e+002	-7.866820e+001	-1.606017e+002	-7.857664e+001	-1.571218e+002	-1.061574e+000	-1.064936e+002
110010001	-9.063800e-001	-1.070220e+002	-8.299070e+001	1.692236e+002	-8.375811e+001	1.742645e+002	-1.058458e+000	-1.064983e+002
110012001	-9.045697e-001	-1.070318e+002	-8.290199e+001	-1.626896e+002	-7.464445e+001	1.718971e+002	-1.058354e+000	-1.064893e+002
110014001	-9.046688e-001	-1.070474e+002	-8.782193e+001	-1.461736e+002	-8.050110e+001	-1.785248e+002	-1.060177e+000	-1.064893e+002
110016002	-9.050763e-001	-1.070411e+002	-8.221180e+001	1.762899e+002	-8.078139e+001	-1.716819e+002	-1.059230e+000	-1.065035e+002
110018002	-9.057868e-001	-1.070271e+002	-7.668056e+001	-1.507658e+002	-8.131756e+001	-1.771490e+002	-1.060421e+000	-1.065042e+002
110020002	-9.046097e-001	-1.070439e+002	-8.426339e+001	-1.777279e+002	-8.186322e+001	-1.575361e+002	-1.060764e+000	-1.064956e+002
110022002	-9.056617e-001	-1.070455e+002	-7.771942e+001	-1.495947e+002	-7.602027e+001	-1.724336e+002	-1.059698e+000	-1.065117e+002
110024002	-9.054782e-001	-1.070372e+002	-7.802885e+001	1.584014e+002	-8.175823e+001	-1.556123e+002	-1.062659e+000	-1.065203e+002
110026003	-9.058996e-001	-1.070594e+002	-8.003297e+001	-1.574269e+002	-8.007224e+001	-1.469070e+002	-1.061394e+000	-1.065133e+002
110028003	-9.041436e-001	-1.070490e+002	-7.908262e+001	-1.475325e+002	-8.012910e+001	-1.353163e+002	-1.062101e+000	-1.064966e+002
110030003	-9.056004e-001	-1.070366e+002	-8.453432e+001	1.744703e+002	-7.675057e+001	-1.657665e+002	-1.061897e+000	-1.064838e+002
110032003	-9.053178e-001	-1.070472e+002	-7.430287e+001	-1.745577e+002	-7.946761e+001	-1.535852e+002	-1.060335e+000	-1.065178e+002
110034003	-9.058534e-001	-1.070640e+002	-8.081482e+001	-1.794008e+002	-7.732461e+001	-1.616657e+002	-1.062293e+000	-1.065252e+002
110036004	-9.045269e-001	-1.070502e+002	-8.245909e+001	1.656895e+002	-7.731781e+001	-1.710645e+002	-1.062234e+000	-1.065207e+002
110038004	-9.061836e-001	-1.070654e+002	-7.917048e+001	-1.735587e+002	-7.912015e+001	-1.618318e+002	-1.062700e+000	-1.065244e+002
110040004	-9.058349e-001	-1.070628e+002	-7.835524e+001	1.784521e+002	-8.198835e+001	-1.613052e+002	-1.058954e+000	-1.065310e+002
110042004	-9.057187e-001	-1.070630e+002	-7.961935e+001	-1.358777e+002	-8.053576e+001	-1.543995e+002	-1.060639e+000	-1.065161e+002
110044004	-9.054534e-001	-1.070515e+002	-7.830450e+001	-1.713590e+002	-7.760894e+001	-1.549604e+002	-1.061879e+000	-1.065272e+002
110046005	-9.054352e-001	-1.070725e+002	-8.095682e+001	1.736977e+002	-8.314646e+001	1.579564e+002	-1.062104e+000	-1.065249e+002
110048005	-9.044883e-001	-1.070734e+002	-8.036808e+001	-1.597897e+002	-7.766407e+001	-1.611396e+002	-1.061247e+000	-1.065239e+002
110050005	-9.061972e-001	-1.070575e+002	-8.412738e+001	-1.702493e+002	-8.211436e+001	-1.568404e+002	-1.061353e+000	-1.065312e+002
110052005	-9.057012e-001	-1.070619e+002	-7.794330e+001	1.688496e+002	-7.816118e+001	1.788583e+002	-1.062350e+000	-1.065300e+002
110054005	-9.045775e-001	-1.070719e+002	-8.121646e+001	-1.687998e+002	-8.046170e+001	-1.750509e+002	-1.059525e+000	-1.065292e+002
110056006	-9.042447e-001	-1.070712e+002	-8.193218e+001	-1.641271e+002	-7.834709e+001	-1.654169e+002	-1.061290e+000	-1.065191e+002
110058006	-9.070239e-001	-1.070847e+002	-7.774123e+001	1.763274e+002	-7.773851e+001	-1.584286e+002	-1.061769e+000	-1.065494e+002
110060006	-9.059631e-001	-1.070661e+002	-8.377501e+001	-1.729646e+002	-7.932982e+001	-1.615157e+002	-1.061767e+000	-1.065362e+002
110062006	-9.056521e-001	-1.070838e+002	-7.793627e+001	1.612355e+002	-7.949817e+001	-1.764265e+002	-1.062291e+000	-1.065293e+002
110064006	-9.047020e-001	-1.070632e+002	-7.730394e+001	-1.628490e+002	-7.799671e+001	-1.784619e+002	-1.062463e+000	-1.065464e+002
110066007	-9.052095e-001	-1.070833e+002	-7.640001e+001	-1.653665e+002	-7.970752e+001	-1.779815e+002	-1.062484e+000	-1.065417e+002
110068007	-9.057674e-001	-1.070849e+002	-7.936122e+001	-1.791175e+002	-7.734246e+001	-1.478558e+002	-1.062486e+000	-1.065551e+002
110070007	-9.057987e-001	-1.070906e+002	-8.343834e+001	-1.776649e+002	-7.828184e+001	-1.574400e+002	-1.062715e+000	-1.065501e+002
110072007	-9.071812e-001	-1.071013e+002	-8.156880e+001	-1.568623e+002	-8.131084e+001	-1.484592e+002	-1.061272e+000	-1.065438e+002
110074007	-9.062684e-001	-1.070871e+002	-8.239810e+001	1.658297e+002	-8.376311e+001	-1.478408e+002	-1.060543e+000	-1.065466e+002
110076008	-9.065074e-001	-1.070810e+002	-7.417750e+001	-1.575046e+002	-7.808318e+001	-1.496717e+002	-1.060264e+000	-1.065452e+002
110078008	-9.068643e-001	-1.071096e+002	-7.596358e+001	-1.747518e+002	-7.915784e+001	1.779089e+002	-1.061264e+000	-1.065594e+002
110080008	-9.038614e-001	-1.071044e+002	-8.200251e+001	-1.678464e+002	-8.275042e+001	1.541553e+002	-1.060221e+000	-1.065538e+002
110082008	-9.063182e-001	-1.071036e+002	-7.593989e+001	-1.619267e+002	-7.979762e+001	-1.559068e+002	-1.062459e+000	-1.065622e+002
110084008	-9.049165e-001	-1.071057e+002	-7.862961e+001	-1.697024e+002	-7.906367e+001	-1.512964e+002	-1.062872e+000	-1.065601e+002
110086009	-9.058481e-001	-1.071037e+002	-7.927238e+001	-1.542906e+002	-8.070008e+001	-1.699063e+002	-1.060669e+000	-1.065634e+002
110088009	-9.052408e-001	-1.071163e+002	-7.753751e+001	-1.484332e+002	-8.454948e+001	1.785398e+002	-1.060360e+000	-1.065508e+002
110090009	-9.062318e-001	-1.071020e+002	-7.596829e+001	-1.785912e+002	-7.760867e+001	-1.757722e+002	-1.060521e+000	-1.065719e+002
110092009	-9.066892e-001	-1.071153e+002	-8.076394e+001	-1.350102e+002	-8.224349e+001	-1.607396e+002	-1.062573e+000	-1.065764e+002
110094009	-9.055820e-001	-1.071141e+002	-7.852218e+001	1.706016e+002	-7.974676e+001	-1.404950e+002	-1.064365e+000	-1.065661e+002
110096010	-9.066739e-001	-1.071016e+002	-7.590019e+001	1.756270e+002	-8.535338e+001	1.654269e+002	-1.059891e+000	-1.065748e+002
110098010	-9.095594e-001	-1.070997e+002	-8.247243e+001	-1.565236e+002	-8.043772e+001	-1.489862e+002	-1.063903e+000	-1.065816e+002
110100010	-9.045787e-001	-1.071065e+002	-8.248803e+001	-1.253323e+002	-7.900572e+001	-1.675577e+002	-1.062745e+000	-1.065836e+002
110102010	-9.077793e-001	-1.071080e+002	-7.944386e+001	1.736031e+002	-7.702201e+001	-1.653172e+002	-1.061901e+000	-1.065927e+002
110104010	-9.069746e-001	-1.071263e+002	-7.970282e+001	-1.577182e+002	-8.312197e+001	-1.570273e+002	-1.063579e+000	-1.065777e+002
110106011	-9.056450e-001	-1.071057e+002	-7.836924e+001	-1.619859e+002	-7.860080e+001	-1.760445e+002	-1.061656e+000	-1.065929e+002
110108011	-9.076456e-001	-1.071229e+002	-7.890257e+001	-1.789483e+002	-8.396355e+001	-1.318371e+002	-1.061486e+000	-1.065943e+002
110110011	-9.048370e-001	-1.071185e+002	-8.182767e+001	-1.775994e+002	-8.020345e+001	-1.600397e+002	-1.064339e+000	-1.065845e+002
110112011	-9.058397e-001	-1.071269e+002	-7.759467e+001	-1.669143e+002	-7.866006e+001	1.656855e+002	-1.063482e+000	-1.065823e+002
110114011	-9.058329e-001	-1.071453e+002	-7.905033e+001	-1.547147e+002	-8.153778e+001	-1.363940e+002	-1.063569e+000	-1.065843e+002
110116012	-9.056071e-001	-1.071289e+002	-7.620547e+001	-1.613122e+002	-7.850126e+001	-1.637866e+002	-1.059966e+000	-1.065938e+002
110118012	-9.058798e-001	-1.071191e+002	-7.786670e+001	-1.411530e+002	-8.235511e+001	-1.494884e+002	-1.061508e+000	-1.065948e+002
110120012	-9.058699e-001	-1.071231e+002	-7.982963e+001	-1.489285e+002	-7.884992e+001	-1.517008e+002	-1.062023e+000	-1.066007e+002
110122012	-9.084907e-001	-1.071323e+002	-7.748661e+001	-1.483567e+002	-7.917429e+001	-1.659479e+002	-1.062754e+000	-1.066109e+002
110124012	-9.075671e-001	-1.071297e+002	-7.940058e+001	1.723096e+002	-8.042380e+001	-1.698878e+002	-1.062737e+000	-1.066115e+002
110126013	-9.081640e-001	-1.071393e+002	-7.978158e+001	-1.652932e+002	-8.041337e+001	-1.698880e+002	-1.063787e+000	-1.066074e+002
110128013	-9.079304e-001	-1.071365e+002	-7.903245e+001	1.596434e+002	-7.984966e+001	-1.417189e+002	-1.062909e+000	-1.066040e+002
110130013	-9.080257e-001	-1.071415e+002	-7.732542e+001	-1.514573e+002	-7.857193e+001	-1.691566e+002	-1.061953e+000	-1.066199e+002
110132013	-9.069246e-001	-1.071394e+002	-7.872037e+001	-1.401302e+002	-8.033471e+001	1.783780e+002	-1.064913e+000	-1.066178e+002
110134013	-9.057357e-001	-1.071430e+002	-8.033356e+001	-1.677652e+002	-8.382192e+001	-1.757566e+002	-1.063267e+000	-1.066119e+002
110136014	-9.070631e-001	-1.071512e+002	-8.031741e+001	-1.393628e+002	-7.863409e+001	-1.522057e+002	-1.064841e+000	-1.065996e+002
110138014	-9.081888e-001	-1.071411e+002	-7.885562e+001	-1.490962e+002	-8.424629e+001	-1.074751e+002	-1.062712e+000	-1.066163e+002
110140014	-9.070827e-001	-1.071539e+002	-7.600211e+001	-1.646500e+002	-8.257055e+001	-1.534569e+002	-1.062946e+000	-1.066312e+002
110142014	-9.070240e-001	-1.071383e+002	-7.771027e+001	-1.786568e+002	-7.981177e+001	-1.572851e+002	-1.063733e+000	-1.066215e+002
110144014	-9.067852e-001	-1.071490e+002	-7.872220e+001	1.717292e+002	-8.239987e+001	-1.689805e+002	-1.062078e+000	-1.066039e+002
110146015	-9.079508e-001	-1.071582e+002	-8.351337e+001	-1.509603e+002	-8.211549e+001	-1.731863e+002	-1.062739e+000	-1.066243e+002
110148015	-9.077016e-001	-1.071746e+002	-8.237462e+001	-1.426574e+002	-7.529069e+001	-1.571116e+002	-1.062512e+000	-1.066215e+002
110150015	-9.074844e-001	-1.071578e+002	-8.254398e+001	1.720704e+002	-8.575657e+001	-1.326461e+002	-1.062774e+000	-1.066389e+002
110152015	-9.075360e-001	-1.071755e+002	-8.929659e+001	-1.590474e+002	-7.828688e+001	-1.501871e+002	-1.064147e+000	-1.066246e+002
110154015	-9.086770e-001	-1.071639e+002	-7.824383e+001	1.645047e+002	-8.101324e+001	-1.604782e+002	-1.062562e+000	-1.066306e+002
110156016	-9.077003e-001	-1.071707e+002	-8.335863e+001	-1.774321e+002	-7.848756e+001	-1.496647e+002	-1.061651e+000	-1.066396e+002
110158016	-9.071012e-001	-1.071630e+002	-7.505347e+001	-1.418459e+002	-8.121180e+001	-1.768530e+002	-1.063041e+000	-1.066453e+002
110160016	-9.064695e-001	-1.071831e+002	-7.628204e+001	-1.454741e+002	-8.477378e+001	1.639746e+002	-1.065233e+000	-1.066299e+002
110162016	-9.059774e-001	-1.071729e+002	-7.879139e+001	1.757284e+002	-7.826345e+001	-1.639296e+002	-1.063510e+000	-1.066424e+002
110164016	-9.058876e-001	-1.071719e+002	-7.528560e+001	-1.655832e+002	-7.914758e+001	-1.491732e+002	-1.064568e+000	-1.066401e+002
110166017	-9.071459e-001	-1.071871e+002	-7.921536e+001	-1.703410e+002	-8.403620e+001	-1.409237e+002	-1.062350e+000	-1.066422e+002
110168017	-9.083405e-001	-1.071836e+002	-8.203550e+001	-1.715777e+002	-8.512085e+001	-1.322354e+002	-1.062418e+000	-1.066409e+002
110170017	-9.070488e-001	-1.071911e+002	-7.884690e+001	-1.551141e+002	-8.028794e+001	-1.510271e+002	-1.062688e+000	-1.066438e+002
110172017	-9.085398e-001	-1.071901e+002	-7.922334e+001	-1.703299e+002	-8.119151e+001	-1.256043e+002	-1.060898e+000	-1.066493e+002
110174017	-9.084793e-001	-1.071969e+002	-7.746201e+001	-1.456730e+002	-7.991528e+001	-1.699932e+002	-1.061566e+000	-1.066711e+002
110176018	-9.084492e-001	-1.071885e+002	-7.989610e+001	-1.697345e+002	-7.991867e+001	-1.700179e+002	-1.062042e+000	-1.066448e+002
110178018	-9.088275e-001	-1.071968e+002	-8.138807e+001	1.734010e+002	-8.215243e+001	1.658318e+002	-1.063670e+000	-1.066508e+002
110180018	-9.063696e-001	-1.071935e+002	-7.843093e+001	-1.643001e+002	-8.191079e+001	-1.438676e+002	-1.067519e+000	-1.066656e+002
110182018	-9.075111e-001	-1.071936e+002	-7.825707e+001	-1.451615e+002	-8.084719e+001	-1.394122e+002	-1.064706e+000	-1.066593e+002
110184018	-9.070031e-001	-1.071992e+002	-7.805639e+001	-1.648719e+002	-8.105453e+001	-1.384583e+002	-1.064520e+000	-1.066482e+002
110186019	-9.097375e-001	-1.071902e+002	-8.040316e+001	-1.625442e+002	-7.884527e+001	-1.618054e+002	-1.065408e+000	-1.066508e+002
110188019	-9.087974e-001	-1.071956e+002	-7.719637e+001	-1.671643e+002	-7.934807e+001	-1.217787e+002	-1.064850e+000	-1.066693e+002
110190019	-9.084868e-001	-1.072077e+002	-8.229676e+001	1.744319e+002	-7.986474e+001	-1.451068e+002	-1.064176e+000	-1.066630e+002
110192019	-9.083530e-001	-1.072113e+002	-7.476970e+001	-1.341467e+002	-7.779007e+001	-1.743997e+002	-1.064711e+000	-1.066781e+002
110194019	-9.081431e-001	-1.071938e+002	-8.201221e+001	-1.714840e+002	-7.988192e+001	-1.683603e+002	-1.064171e+000	-1.066703e+002
110196020	-9.113519e-001	-1.072085e+002	-8.010689e+001	-1.694257e+002	-8.035543e+001	-1.578569e+002	-1.064685e+000	-1.066724e+002
110198020	-9.080330e-001	-1.072070e+002	-8.081971e+001	1.652583e+002	-8.133339e+001	-1.214227e+002	-1.064119e+000	-1.066753e+002
110200020	-9.081924e-001	-1.072118e+002	-8.000763e+001	1.602360e+002	-7.982806e+001	-1.521040e+002	-1.062618e+000	-1.066613e+002
110202020	-9.075098e-001	-1.072162e+002	-7.897269e+001	1.742727e+002	-8.006690e+001	-1.649573e+002	-1.065857e+000	-1.066606e+002
110204020	-9.069474e-001	-1.072011e+002	-7.549634e+001	-1.680822e+002	-8.022367e+001	-1.614956e+002	-1.066340e+000	-1.066825e+002
110206021	-9.064907e-001	-1.072296e+002	-7.857484e+001	-1.389234e+002	-8.561296e+001	1.714116e+002	-1.063793e+000	-1.066871e+002
110208021	-9.072829e-001	-1.072108e+002	-8.021887e+001	-1.472248e+002	-8.035461e+001	-1.578432e+002	-1.065313e+000	-1.066957e+002
110210021	-9.068845e-001	-1.072105e+002	-7.784339e+001	-1.600518e+002	-8.419410e+001	-1.225634e+002	-1.065462e+000	-1.066778e+002
110212021	-9.078713e-001	-1.072292e+002	-8.259697e+001	-1.535467e+002	-8.119142e+001	-1.280708e+002	-1.064351e+000	-1.066845e+002
110214021	-9.099771e-001	-1.072286e+002	-7.794962e+001	-1.419273e+002	-8.141105e+001	-1.636029e+002	-1.062946e+000	-1.066928e+002
110216022	-9.070632e-001	-1.072104e+002	-8.413945e+001	-1.541535e+002	-8.507554e+001	1.693541e+002	-1.069365e+000	-1.066830e+002
110218022	-9.081154e-001	-1.072229e+002	-8.096290e+001	-1.577548e+002	-8.242021e+001	-1.708993e+002	-1.064177e+000	-1.066864e+002
110220022	-9.098876e-001	-1.072198e+002	-7.804402e+001	-1.502532e+002	-8.336370e+001	-1.659587e+002	-1.067211e+000	-1.066841e+002
110222022	-9.116645e-001	-1.072368e+002	-8.301439e+001	-1.547072e+002	-7.537467e+001	-1.267658e+002	-1.063376e+000	-1.067005e+002
110224022	-9.096766e-001	-1.072401e+002	-8.172188e+001	1.769457e+002	-7.898977e+001	-1.773347e+002	-1.065017e+000	-1.066907e+002
110226023	-9.084245e-001	-1.072346e+002	-7.925498e+001	-1.730641e+002	-7.977249e+001	-1.620331e+002	-1.064823e+000	-1.067000e+002
110228023	-9.094027e-001	-1.072347e+002	-7.959513e+001	-1.668805e+002	-7.594634e+001	-1.424342e+002	-1.065174e+000	-1.067002e+002
110230023	-9.087256e-001	-1.072575e+002	-7.647527e+001	-1.711158e+002	-8.234498e+001	-1.190968e+002	-1.064892e+000	-1.066962e+002
110232023	-9.089537e-001	-1.072450e+002	-7.852483e+001	-1.406926e+002	-8.450624e+001	-1.649083e+002	-1.063847e+000	-1.066936e+002
110234023	-9.116941e-001	-1.072543e+002	-8.313837e+001	-1.567397e+002	-8.591862e+001	-1.393140e+002	-1.063609e+000	-1.067129e+002
110236024	-9.075091e-001	-1.072394e+002	-8.210920e+001	1.490066e+002	-7.865024e+001	-1.489096e+002	-1.064563e+000	-1.066889e+002
110238024	-9.101876e-001	-1.072550e+002	-8.174571e+001	-1.558787e+002	-8.088183e+001	-1.368733e+002	-1.064418e+000	-1.067034e+002
110240024	-9.086233e-001	-1.072400e+002	-8.502949e+001	-1.545057e+002	-7.834488e+001	-1.512061e+002	-1.066613e+000	-1.067159e+002
110242024	-9.096431e-001	-1.072444e+002	-7.724256e+001	-1.118559e+002	-8.133866e+001	-1.617471e+002	-1.066136e+000	-1.067134e+002
110244024	-9.071029e-001	-1.072446e+002	-8.898034e+001	-1.197895e+002	-7.868817e+001	-1.646986e+002	-1.065053e+000	-1.066960e+002
110246025	-9.099849e-001	-1.072616e+002	-8.162767e+001	-1.283315e+002	-7.764866e+001	-1.631106e+002	-1.066396e+000	-1.067001e+002
110248025	-9.094045e-001	-1.072554e+002	-7.766846e+001	-1.784677e+002	-7.965916e+001	-1.541058e+002	-1.065153e+000	-1.067275e+002
110250025	-9.085785e-001	-1.072457e+002	-8.267117e+001	-1.554421e+002	-7.875551e+001	-1.170537e+002	-1.065063e+000	-1.067145e+002
110252025	-9.082645e-001	-1.072672e+002	-8.016418e+001	-1.578653e+002	-7.672126e+001	-1.429856e+002	-1.065976e+000	-1.067177e+002
110254025	-9.099739e-001	-1.072548e+002	-8.259641e+001	-1.157100e+002	-7.471854e+001	-1.385750e+002	-1.065381e+000	-1.067221e+002
110256026	-9.095389e-001	-1.072722e+002	-8.106743e+001	-1.298337e+002	-8.015810e+001	-1.746291e+002	-1.066919e+000	-1.067325e+002
110258026	-9.095939e-001	-1.072438e+002	-8.363983e+001	-1.170244e+002	-7.723286e+001	-1.741952e+002	-1.065523e+000	-1.067145e+002
110260026	-9.123839e-001	-1.072669e+002	-7.789948e+001	-1.611245e+002	-7.518444e+001	-1.711290e+002	-1.066657e+000	-1.067270e+002
110262026	-9.110462e-001	-1.072664e+002	-7.859530e+001	-1.639358e+002	-7.928699e+001	-1.625302e+002	-1.065117e+000	-1.067243e+002
110264026	-9.118579e-001	-1.072762e+002	-8.394593e+001	-1.305084e+002	-8.319083e+001	-1.516375e+002	-1.065093e+000	-1.067456e+002
110266027	-9.092017e-001	-1.072566e+002	-7.849923e+001	-1.407104e+002	-7.581626e+001	-1.392556e+002	-1.067749e+000	-1.067529e+002
110268027	-9.088485e-001	-1.072600e+002	-7.932820e+001	-1.435877e+002	-7.983665e+001	-1.414816e+002	-1.065800e+000	-1.067329e+002
110270027	-9.102516e-001	-1.072771e+002	-8.151367e+001	-1.641022e+002	-8.003264e+001	-1.233861e+002	-1.067103e+000	-1.067497e+002
110272027	-9.079933e-001	-1.072838e+002	-8.290989e+001	-1.049716e+002	-8.848030e+001	-1.095607e+002	-1.065379e+000	-1.067464e+002
110274027	-9.087708e-001	-1.072767e+002	-7.706931e+001	-1.531475e+002	-7.789916e+001	-1.589581e+002	-1.066829e+000	-1.067498e+002
110276028	-9.112272e-001	-1.072759e+002	-8.221799e+001	-1.671696e+002	-8.266565e+001	-1.552127e+002	-1.064077e+000	-1.067446e+002
110278028	-9.099045e-001	-1.072863e+002	-7.863972e+001	-1.523951e+002	-8.967580e+001	1.670685e+002	-1.067247e+000	-1.067417e+002
110280028	-9.091962e-001	-1.072941e+002	-7.689518e+001	-1.462162e+002	-8.594015e+001	-1.729619e+002	-1.065924e+000	-1.067477e+002
110282028	-9.108737e-001	-1.072996e+002	-7.947041e+001	-1.546183e+002	-8.006316e+001	1.619318e+002	-1.064993e+000	-1.067488e+002
110284028	-9.127427e-001	-1.072951e+002	-7.820215e+001	-1.494962e+002	-7.828311e+001	-1.469795e+002	-1.065401e+000	-1.067495e+002
110286029	-9.071587e-001	-1.072927e+002	-7.535572e+001	-1.526713e+002	-7.565330e+001	-1.314248e+002	-1.062475e+000	-1.067434e+002
110288029	-9.095843e-001	-1.072944e+002	-8.057449e+001	-1.130436e+002	-7.666720e+001	-1.295040e+002	-1.066635e+000	-1.067696e+002
110290029	-9.092608e-001	-1.072991e+002	-8.144044e+001	-1.716926e+002	-7.751399e+001	-1.426448e+002	-1.066519e+000	-1.067738e+002
110292029	-9.110285e-001	-1.072884e+002	-7.810849e+001	-1.483753e+002	-8.019092e+001	-1.337303e+002	-1.066679e+000	-1.067751e+002
110294029	-9.099419e-001	-1.073107e+002	-7.466802e+001	-1.310145e+002	-8.084536e+001	-1.511497e+002	-1.067181e+000	-1.067667e+002
110296030	-9.073181e-001	-1.073159e+002	-8.015745e+001	-1.578003e+002	-7.988720e+001	-1.312397e+002	-1.065470e+000	-1.067502e+002
110298030	-9.092944e-001	-1.073040e+002	-7.827732e+001	-1.367465e+002	-8.617710e+001	-1.139461e+002	-1.068708e+000	-1.067599e+002
110300030	-9.074793e-001	-1.073104e+002	-7.706528e+001	-1.530951e+002	-7.715402e+001	-1.659815e+002	-1.067660e+000	-1.067729e+002
