!Agilent Technologies,E5071C,MY46520923,B.12.03
!Date: Wed Feb 07 10:14:02 2024
!Data & Calibration Information:
!Freq	S11:SOLT2(ON)	S21:SOLT2(ON)	S12:SOLT2(ON)	S22:SOLT2(ON)
!PortZ  Port1:50+j0    Port2:50+j0
!Above PortZ is port z conversion or system Z0 setting when saving the data.
!When reading, reference impedance value at option line is always used.
# Hz S dB R 50
110000000	-9.520093e-001	-1.069424e+002	-8.493931e+001	-1.541438e+002	-7.600990e+001	-1.587432e+002	-1.240048e+000	-1.058553e+002
110002000	-9.531798e-001	-1.069414e+002	-7.943321e+001	-1.628708e+002	-8.005309e+001	-1.450226e+002	-1.243286e+000	-1.058256e+002
110004000	-9.505500e-001	-1.069501e+002	-8.523255e+001	-1.339270e+002	-7.831358e+001	-1.284541e+002	-1.242258e+000	-1.058387e+002
110006001	-9.492790e-001	-1.069409e+002	-8.322342e+001	-1.655244e+002	-7.572502e+001	-1.517940e+002	-1.242580e+000	-1.058499e+002
110008001	-9.517724e-001	-1.069526e+002	-8.108348e+001	-1.647969e+002	-8.079340e+001	-1.481026e+002	-1.240972e+000	-1.058470e+002
110010001	-9.518563e-001	-1.069558e+002	-7.845601e+001	-1.554642e+002	-7.884102e+001	-1.567670e+002	-1.243178e+000	-1.058469e+002
110012001	-9.516833e-001	-1.069367e+002	-8.247558e+001	-1.798446e+002	-7.622913e+001	-1.591864e+002	-1.241904e+000	-1.058522e+002
110014001	-9.510520e-001	-1.069461e+002	-7.642597e+001	-1.677305e+002	-8.317365e+001	-1.498812e+002	-1.241089e+000	-1.058430e+002
110016002	-9.537081e-001	-1.069657e+002	-7.747627e+001	-1.588134e+002	-7.788126e+001	-1.523684e+002	-1.241799e+000	-1.058526e+002
110018002	-9.507570e-001	-1.069656e+002	-8.018622e+001	-1.573801e+002	-7.866234e+001	-1.471174e+002	-1.243026e+000	-1.058504e+002
110020002	-9.504351e-001	-1.069642e+002	-8.126965e+001	-1.669059e+002	-7.663588e+001	-1.520249e+002	-1.242796e+000	-1.058595e+002
110022002	-9.525741e-001	-1.069517e+002	-8.021508e+001	-1.771303e+002	-7.847148e+001	-1.485256e+002	-1.241315e+000	-1.058600e+002
110024002	-9.513190e-001	-1.069628e+002	-8.011591e+001	1.778417e+002	-7.720492e+001	-1.748638e+002	-1.244708e+000	-1.058718e+002
110026003	-9.524009e-001	-1.069608e+002	-7.565551e+001	-1.617819e+002	-7.905604e+001	-1.628066e+002	-1.242532e+000	-1.058512e+002
110028003	-9.529686e-001	-1.069651e+002	-7.775100e+001	-1.626614e+002	-7.886382e+001	-1.625002e+002	-1.243504e+000	-1.058465e+002
110030003	-9.533084e-001	-1.069605e+002	-7.868060e+001	-1.704787e+002	-8.060968e+001	-1.324692e+002	-1.243896e+000	-1.058744e+002
110032003	-9.491160e-001	-1.069668e+002	-7.839584e+001	-1.541834e+002	-7.745372e+001	-1.557624e+002	-1.242453e+000	-1.058701e+002
110034003	-9.532157e-001	-1.069771e+002	-7.611184e+001	1.587352e+002	-7.712194e+001	-1.544190e+002	-1.240965e+000	-1.058585e+002
110036004	-9.536099e-001	-1.069676e+002	-7.711405e+001	-1.310990e+002	-7.779184e+001	1.775384e+002	-1.243456e+000	-1.058699e+002
110038004	-9.513016e-001	-1.069747e+002	-7.789849e+001	-1.691320e+002	-7.725928e+001	-1.790161e+002	-1.242812e+000	-1.058775e+002
110040004	-9.527619e-001	-1.069630e+002	-7.978575e+001	1.619335e+002	-8.099037e+001	-1.462596e+002	-1.241000e+000	-1.058750e+002
110042004	-9.503021e-001	-1.069757e+002	-8.046268e+001	-1.657974e+002	-8.348401e+001	-1.545407e+002	-1.242680e+000	-1.058833e+002
110044004	-9.519339e-001	-1.069787e+002	-8.063631e+001	-1.558509e+002	-7.772019e+001	-1.596797e+002	-1.239764e+000	-1.058804e+002
110046005	-9.530774e-001	-1.069870e+002	-7.625657e+001	-1.602125e+002	-7.974939e+001	-1.482236e+002	-1.244224e+000	-1.058861e+002
110048005	-9.507242e-001	-1.069772e+002	-8.037861e+001	1.689865e+002	-8.069767e+001	-1.786642e+002	-1.243945e+000	-1.058669e+002
110050005	-9.530418e-001	-1.069918e+002	-7.819222e+001	-1.332783e+002	-7.561435e+001	-1.430460e+002	-1.243344e+000	-1.058893e+002
110052005	-9.524201e-001	-1.069954e+002	-7.899409e+001	-1.667873e+002	-8.152814e+001	-1.797488e+002	-1.242183e+000	-1.058683e+002
110054005	-9.538425e-001	-1.069839e+002	-8.017702e+001	1.699319e+002	-8.263426e+001	-1.202957e+002	-1.243337e+000	-1.058905e+002
110056006	-9.517574e-001	-1.069844e+002	-8.066536e+001	-1.351727e+002	-7.531849e+001	-1.717724e+002	-1.242495e+000	-1.058806e+002
110058006	-9.521302e-001	-1.069956e+002	-7.959547e+001	-1.740230e+002	-8.289322e+001	-1.363042e+002	-1.242211e+000	-1.058893e+002
110060006	-9.498093e-001	-1.069874e+002	-8.369843e+001	1.728099e+002	-7.452186e+001	1.610388e+002	-1.244617e+000	-1.058836e+002
110062006	-9.506647e-001	-1.070025e+002	-7.942739e+001	-1.541242e+002	-8.120183e+001	-1.553295e+002	-1.242911e+000	-1.058792e+002
110064006	-9.520455e-001	-1.070095e+002	-7.847678e+001	1.740100e+002	-8.017734e+001	-1.697672e+002	-1.243452e+000	-1.059108e+002
110066007	-9.531520e-001	-1.069919e+002	-8.240458e+001	-1.666351e+002	-8.334679e+001	-1.306141e+002	-1.242928e+000	-1.059063e+002
110068007	-9.502314e-001	-1.070091e+002	-8.033477e+001	-1.573745e+002	-7.772422e+001	-1.647316e+002	-1.244785e+000	-1.059012e+002
110070007	-9.527497e-001	-1.070024e+002	-8.071272e+001	1.694247e+002	-7.764200e+001	-1.790552e+002	-1.243008e+000	-1.059035e+002
110072007	-9.518828e-001	-1.069821e+002	-8.152404e+001	1.542636e+002	-7.785105e+001	-1.611013e+002	-1.243128e+000	-1.059127e+002
110074007	-9.530327e-001	-1.069922e+002	-8.397161e+001	-1.590667e+002	-7.744221e+001	-1.704537e+002	-1.244329e+000	-1.059177e+002
110076008	-9.514434e-001	-1.069985e+002	-7.636571e+001	1.779652e+002	-8.353897e+001	1.772398e+002	-1.243288e+000	-1.059000e+002
110078008	-9.537636e-001	-1.070077e+002	-7.863228e+001	-1.746373e+002	-8.040550e+001	-1.702381e+002	-1.245798e+000	-1.059116e+002
110080008	-9.513108e-001	-1.070114e+002	-8.141439e+001	-1.391217e+002	-8.769457e+001	-1.780320e+002	-1.242414e+000	-1.059147e+002
110082008	-9.515173e-001	-1.070110e+002	-7.591197e+001	-1.609127e+002	-7.963050e+001	-1.652478e+002	-1.243171e+000	-1.059100e+002
110084008	-9.522126e-001	-1.070263e+002	-8.130277e+001	-1.632872e+002	-7.883142e+001	1.633455e+002	-1.242875e+000	-1.059156e+002
110086009	-9.538826e-001	-1.070095e+002	-7.735169e+001	-1.680847e+002	-7.903067e+001	-1.367554e+002	-1.245557e+000	-1.059331e+002
110088009	-9.520336e-001	-1.070142e+002	-7.723178e+001	-1.575253e+002	-8.086411e+001	1.766323e+002	-1.244203e+000	-1.059225e+002
110090009	-9.531576e-001	-1.070153e+002	-8.086700e+001	-1.680834e+002	-8.032235e+001	-1.596839e+002	-1.241094e+000	-1.059112e+002
110092009	-9.538760e-001	-1.070291e+002	-7.917758e+001	-1.540813e+002	-8.215159e+001	-1.476358e+002	-1.243102e+000	-1.059249e+002
110094009	-9.529537e-001	-1.070318e+002	-7.881760e+001	-1.651448e+002	-7.915282e+001	1.798774e+002	-1.245657e+000	-1.059180e+002
110096010	-9.539950e-001	-1.070185e+002	-8.104975e+001	-1.702511e+002	-7.677320e+001	-1.485659e+002	-1.243814e+000	-1.059457e+002
110098010	-9.519725e-001	-1.070298e+002	-8.218992e+001	1.637620e+002	-8.196081e+001	-1.376199e+002	-1.243613e+000	-1.059204e+002
110100010	-9.524828e-001	-1.070353e+002	-8.161285e+001	-1.615966e+002	-7.903670e+001	-1.510927e+002	-1.244247e+000	-1.059142e+002
110102010	-9.529424e-001	-1.070476e+002	-7.874606e+001	-1.567536e+002	-8.160006e+001	-1.299906e+002	-1.244829e+000	-1.059227e+002
110104010	-9.517981e-001	-1.070376e+002	-8.177427e+001	1.609426e+002	-7.809904e+001	-1.587566e+002	-1.245587e+000	-1.059259e+002
110106011	-9.511619e-001	-1.070430e+002	-8.224539e+001	-1.704927e+002	-7.900691e+001	-1.366699e+002	-1.245363e+000	-1.059529e+002
110108011	-9.530075e-001	-1.070468e+002	-8.129863e+001	-1.631650e+002	-8.111604e+001	-1.405489e+002	-1.241688e+000	-1.059466e+002
110110011	-9.532712e-001	-1.070448e+002	-8.004823e+001	-1.603743e+002	-7.895464e+001	-1.568042e+002	-1.243576e+000	-1.059335e+002
110112011	-9.538453e-001	-1.070476e+002	-8.428819e+001	-1.617457e+002	-7.956860e+001	-1.748959e+002	-1.245948e+000	-1.059419e+002
110114011	-9.532971e-001	-1.070401e+002	-8.405336e+001	1.771915e+002	-8.308900e+001	-1.782459e+002	-1.245335e+000	-1.059430e+002
110116012	-9.528185e-001	-1.070420e+002	-8.076329e+001	1.646326e+002	-7.923408e+001	-1.270298e+002	-1.244033e+000	-1.059317e+002
110118012	-9.530586e-001	-1.070391e+002	-8.022644e+001	-1.754795e+002	-7.993457e+001	-1.465304e+002	-1.244597e+000	-1.059496e+002
110120012	-9.541190e-001	-1.070467e+002	-8.103900e+001	-1.611271e+002	-8.011647e+001	-1.431663e+002	-1.244820e+000	-1.059484e+002
110122012	-9.521622e-001	-1.070579e+002	-8.013741e+001	1.758753e+002	-8.868139e+001	-1.409081e+002	-1.246653e+000	-1.059569e+002
110124012	-9.526797e-001	-1.070382e+002	-7.815378e+001	-1.552790e+002	-8.244695e+001	-1.346042e+002	-1.245127e+000	-1.059649e+002
110126013	-9.536164e-001	-1.070614e+002	-8.154710e+001	-1.445399e+002	-7.934442e+001	-1.742570e+002	-1.248035e+000	-1.059343e+002
110128013	-9.549283e-001	-1.070530e+002	-7.916536e+001	1.691007e+002	-7.944379e+001	-1.633705e+002	-1.244062e+000	-1.059641e+002
110130013	-9.520855e-001	-1.070541e+002	-7.756567e+001	-1.575160e+002	-7.874752e+001	-1.636723e+002	-1.246807e+000	-1.059600e+002
110132013	-9.532190e-001	-1.070595e+002	-7.956817e+001	-1.494499e+002	-7.798319e+001	-1.457965e+002	-1.246452e+000	-1.059540e+002
110134013	-9.550439e-001	-1.070615e+002	-8.054807e+001	-1.489291e+002	-8.261246e+001	-1.605357e+002	-1.246320e+000	-1.059507e+002
110136014	-9.526414e-001	-1.070594e+002	-8.151104e+001	-1.426519e+002	-8.437101e+001	-1.362392e+002	-1.244996e+000	-1.059613e+002
110138014	-9.531266e-001	-1.070735e+002	-7.571517e+001	-1.616996e+002	-8.219327e+001	-1.752992e+002	-1.246336e+000	-1.059673e+002
110140014	-9.529648e-001	-1.070743e+002	-7.833721e+001	-1.752802e+002	-8.066907e+001	-1.513773e+002	-1.246376e+000	-1.059669e+002
110142014	-9.542742e-001	-1.070759e+002	-8.696999e+001	1.635497e+002	-8.119854e+001	1.653884e+002	-1.245419e+000	-1.059793e+002
110144014	-9.520303e-001	-1.070731e+002	-9.036084e+001	-1.487617e+002	-8.308622e+001	-1.519441e+002	-1.244673e+000	-1.059797e+002
110146015	-9.529520e-001	-1.070661e+002	-7.984823e+001	-1.508359e+002	-7.948252e+001	-1.618041e+002	-1.248785e+000	-1.059596e+002
110148015	-9.530734e-001	-1.070856e+002	-7.692722e+001	-1.730750e+002	-7.722888e+001	-1.461153e+002	-1.246793e+000	-1.059922e+002
110150015	-9.548308e-001	-1.070881e+002	-7.911040e+001	-1.773173e+002	-7.923669e+001	-1.787806e+002	-1.245931e+000	-1.059685e+002
110152015	-9.556532e-001	-1.070908e+002	-8.171841e+001	-1.143716e+002	-8.009540e+001	-1.560787e+002	-1.243731e+000	-1.059674e+002
110154015	-9.530536e-001	-1.070811e+002	-8.531684e+001	1.756362e+002	-7.922288e+001	-1.721985e+002	-1.247026e+000	-1.059697e+002
110156016	-9.547557e-001	-1.070771e+002	-8.148593e+001	-1.426391e+002	-7.786652e+001	-1.648494e+002	-1.244395e+000	-1.059908e+002
110158016	-9.540991e-001	-1.070885e+002	-8.397320e+001	-1.539038e+002	-8.142660e+001	-1.571693e+002	-1.243170e+000	-1.059874e+002
110160016	-9.531432e-001	-1.070906e+002	-7.972945e+001	-1.630768e+002	-8.874017e+001	-1.539688e+002	-1.246657e+000	-1.059825e+002
110162016	-9.528386e-001	-1.070845e+002	-7.942414e+001	1.715711e+002	-8.544325e+001	-1.495466e+002	-1.245315e+000	-1.059865e+002
110164016	-9.518132e-001	-1.070910e+002	-8.218332e+001	-1.619966e+002	-7.797872e+001	-1.482670e+002	-1.248848e+000	-1.059810e+002
110166017	-9.539952e-001	-1.070931e+002	-7.947469e+001	-1.643451e+002	-7.669538e+001	1.779655e+002	-1.247307e+000	-1.059820e+002
110168017	-9.531017e-001	-1.071029e+002	-8.162913e+001	-1.693233e+002	-7.931007e+001	-1.599888e+002	-1.246276e+000	-1.059936e+002
110170017	-9.566890e-001	-1.070983e+002	-7.966511e+001	-1.756973e+002	-8.258227e+001	-1.604291e+002	-1.245569e+000	-1.059942e+002
110172017	-9.532551e-001	-1.070969e+002	-7.811722e+001	-1.552014e+002	-7.817171e+001	-1.614007e+002	-1.248069e+000	-1.059968e+002
110174017	-9.550219e-001	-1.071111e+002	-7.906400e+001	-1.623663e+002	-7.751851e+001	-1.744874e+002	-1.248383e+000	-1.060049e+002
110176018	-9.540578e-001	-1.071028e+002	-8.550942e+001	-1.259762e+002	-8.003534e+001	-1.592611e+002	-1.244484e+000	-1.060025e+002
110178018	-9.520473e-001	-1.071146e+002	-7.721171e+001	-1.561906e+002	-7.802504e+001	-1.732318e+002	-1.247293e+000	-1.059953e+002
110180018	-9.557874e-001	-1.071063e+002	-8.121765e+001	-1.648142e+002	-8.063812e+001	-1.745858e+002	-1.245946e+000	-1.059959e+002
110182018	-9.530701e-001	-1.070899e+002	-8.347180e+001	-1.730342e+002	-8.149366e+001	-1.238198e+002	-1.246406e+000	-1.060096e+002
110184018	-9.554588e-001	-1.071106e+002	-7.590191e+001	-1.419415e+002	-7.489839e+001	-1.450782e+002	-1.247135e+000	-1.060048e+002
110186019	-9.547987e-001	-1.071155e+002	-7.845020e+001	-1.685026e+002	-8.026844e+001	-1.274194e+002	-1.246275e+000	-1.060039e+002
110188019	-9.549078e-001	-1.071057e+002	-8.114802e+001	-1.256523e+002	-8.076897e+001	-1.769146e+002	-1.246146e+000	-1.060160e+002
110190019	-9.547679e-001	-1.071332e+002	-7.765926e+001	-1.315874e+002	-8.464950e+001	-1.662051e+002	-1.246640e+000	-1.060193e+002
110192019	-9.563279e-001	-1.071315e+002	-7.979038e+001	-1.300569e+002	-7.966339e+001	-1.479671e+002	-1.246545e+000	-1.060064e+002
110194019	-9.568775e-001	-1.071176e+002	-7.841686e+001	-1.458935e+002	-7.864836e+001	-1.398032e+002	-1.245425e+000	-1.060185e+002
110196020	-9.564871e-001	-1.071214e+002	-8.403225e+001	-1.385752e+002	-7.914147e+001	-1.767236e+002	-1.248567e+000	-1.060056e+002
110198020	-9.548086e-001	-1.071227e+002	-7.749852e+001	-9.355085e+001	-8.068697e+001	-1.354635e+002	-1.247859e+000	-1.060100e+002
110200020	-9.538257e-001	-1.071253e+002	-8.239015e+001	-1.729153e+002	-7.899336e+001	-1.624567e+002	-1.246398e+000	-1.060192e+002
110202020	-9.535152e-001	-1.071388e+002	-8.320176e+001	-1.583983e+002	-7.777576e+001	-1.469937e+002	-1.246261e+000	-1.060162e+002
110204020	-9.520969e-001	-1.071335e+002	-7.873210e+001	-1.538202e+002	-8.141929e+001	-1.571378e+002	-1.248297e+000	-1.060265e+002
110206021	-9.554227e-001	-1.071315e+002	-7.576319e+001	-1.548312e+002	-8.028219e+001	-1.326220e+002	-1.248641e+000	-1.060202e+002
110208021	-9.544246e-001	-1.071391e+002	-7.864004e+001	-1.619521e+002	-8.263659e+001	-1.407464e+002	-1.248176e+000	-1.060258e+002
110210021	-9.568461e-001	-1.071477e+002	-7.982415e+001	-1.727196e+002	-8.059396e+001	-1.564108e+002	-1.245041e+000	-1.060413e+002
110212021	-9.580454e-001	-1.071309e+002	-8.215552e+001	-1.218287e+002	-8.089133e+001	-1.548347e+002	-1.248373e+000	-1.060322e+002
110214021	-9.575300e-001	-1.071550e+002	-7.722040e+001	-1.736399e+002	-8.243102e+001	-1.344029e+002	-1.250215e+000	-1.060388e+002
110216022	-9.550965e-001	-1.071563e+002	-8.225279e+001	-1.558121e+002	-8.029502e+001	-1.752991e+002	-1.248337e+000	-1.060352e+002
110218022	-9.577014e-001	-1.071549e+002	-8.235391e+001	1.418367e+002	-7.787568e+001	-1.687138e+002	-1.248038e+000	-1.060448e+002
110220022	-9.540254e-001	-1.071686e+002	-8.039243e+001	-1.654422e+002	-7.767654e+001	-1.345273e+002	-1.246757e+000	-1.060432e+002
110222022	-9.552834e-001	-1.071609e+002	-7.775199e+001	-1.513823e+002	-7.895890e+001	-1.683447e+002	-1.248713e+000	-1.060397e+002
110224022	-9.543214e-001	-1.071567e+002	-7.872526e+001	-1.510566e+002	-8.062983e+001	-1.442703e+002	-1.249537e+000	-1.060415e+002
110226023	-9.558053e-001	-1.071394e+002	-8.032894e+001	-1.538036e+002	-9.245664e+001	-1.044303e+002	-1.245833e+000	-1.060550e+002
110228023	-9.563885e-001	-1.071490e+002	-7.811343e+001	-1.575679e+002	-8.040838e+001	-1.527961e+002	-1.247406e+000	-1.060622e+002
110230023	-9.566659e-001	-1.071544e+002	-7.666551e+001	-1.483993e+002	-8.094928e+001	-1.696214e+002	-1.245348e+000	-1.060535e+002
110232023	-9.569874e-001	-1.071543e+002	-8.153402e+001	-1.632785e+002	-7.836355e+001	-1.480935e+002	-1.247135e+000	-1.060562e+002
110234023	-9.565893e-001	-1.071561e+002	-7.973832e+001	-1.382074e+002	-8.440568e+001	-1.772471e+002	-1.245391e+000	-1.060488e+002
110236024	-9.572447e-001	-1.071578e+002	-8.225718e+001	-1.538394e+002	-8.074356e+001	-1.260138e+002	-1.247165e+000	-1.060574e+002
110238024	-9.558494e-001	-1.071630e+002	-8.163892e+001	-1.537579e+002	-8.759875e+001	-1.297903e+002	-1.248381e+000	-1.060580e+002
110240024	-9.552813e-001	-1.071666e+002	-8.434099e+001	-1.563579e+002	-7.757150e+001	-1.705356e+002	-1.246320e+000	-1.060643e+002
110242024	-9.562579e-001	-1.071572e+002	-8.158034e+001	-1.195854e+002	-7.855516e+001	-1.674460e+002	-1.246701e+000	-1.060516e+002
110244024	-9.542770e-001	-1.071729e+002	-8.049801e+001	-1.690032e+002	-7.775297e+001	-1.457002e+002	-1.248098e+000	-1.060475e+002
110246025	-9.551565e-001	-1.071694e+002	-7.703189e+001	-1.650643e+002	-8.270618e+001	-1.538441e+002	-1.247299e+000	-1.060740e+002
110248025	-9.565460e-001	-1.071693e+002	-7.931880e+001	-1.478660e+002	-7.807996e+001	-1.638172e+002	-1.246433e+000	-1.060734e+002
110250025	-9.561365e-001	-1.071850e+002	-8.176470e+001	-1.777022e+002	-8.296237e+001	-1.402980e+002	-1.248697e+000	-1.060714e+002
110252025	-9.583790e-001	-1.071751e+002	-7.946087e+001	-1.702858e+002	-7.704755e+001	-1.459724e+002	-1.248900e+000	-1.060863e+002
110254025	-9.541302e-001	-1.071785e+002	-7.888098e+001	-1.677545e+002	-7.987200e+001	-1.446848e+002	-1.247176e+000	-1.060760e+002
110256026	-9.554105e-001	-1.071928e+002	-7.574858e+001	1.502498e+002	-7.855903e+001	-1.507208e+002	-1.248008e+000	-1.060817e+002
110258026	-9.574286e-001	-1.071753e+002	-7.550847e+001	-1.442395e+002	-7.741281e+001	-1.727416e+002	-1.248532e+000	-1.060761e+002
110260026	-9.557486e-001	-1.071939e+002	-7.754455e+001	-1.744405e+002	-7.832264e+001	-1.072013e+002	-1.249275e+000	-1.060716e+002
110262026	-9.565884e-001	-1.071920e+002	-7.888120e+001	-1.592992e+002	-7.829224e+001	-1.640498e+002	-1.250794e+000	-1.060890e+002
110264026	-9.561254e-001	-1.071874e+002	-8.162995e+001	-1.498704e+002	-8.239185e+001	-1.515158e+002	-1.248943e+000	-1.060911e+002
110266027	-9.551598e-001	-1.072011e+002	-7.895704e+001	-1.752776e+002	-7.897969e+001	-1.508077e+002	-1.249700e+000	-1.060924e+002
110268027	-9.556671e-001	-1.071924e+002	-7.704079e+001	-1.424154e+002	-7.573545e+001	-1.543386e+002	-1.247919e+000	-1.060922e+002
110270027	-9.551383e-001	-1.071978e+002	-7.829913e+001	-1.485539e+002	-7.671064e+001	-1.516124e+002	-1.249502e+000	-1.060988e+002
110272027	-9.579747e-001	-1.072114e+002	-7.940681e+001	1.718431e+002	-7.861210e+001	-1.660788e+002	-1.249420e+000	-1.061008e+002
110274027	-9.562681e-001	-1.072022e+002	-8.246692e+001	-1.452982e+002	-7.875472e+001	-1.753419e+002	-1.248082e+000	-1.060970e+002
110276028	-9.563760e-001	-1.072020e+002	-7.812887e+001	-1.549764e+002	-8.065110e+001	-1.545515e+002	-1.248581e+000	-1.060989e+002
110278028	-9.572679e-001	-1.072084e+002	-8.343051e+001	-1.186976e+002	-7.702470e+001	-1.703444e+002	-1.249790e+000	-1.061009e+002
110280028	-9.552942e-001	-1.072157e+002	-7.917882e+001	-1.711990e+002	-8.030287e+001	-1.576958e+002	-1.249925e+000	-1.061113e+002
110282028	-9.564386e-001	-1.072027e+002	-7.899257e+001	-1.707778e+002	-7.793222e+001	-1.313422e+002	-1.247130e+000	-1.061145e+002
110284028	-9.582424e-001	-1.072083e+002	-7.715878e+001	-1.326954e+002	-7.654633e+001	-1.482909e+002	-1.248162e+000	-1.060976e+002
110286029	-9.565880e-001	-1.072046e+002	-7.849777e+001	-1.589959e+002	-7.836563e+001	-1.669351e+002	-1.249860e+000	-1.060945e+002
110288029	-9.565562e-001	-1.072077e+002	-7.619041e+001	-1.701545e+002	-7.849431e+001	-1.574739e+002	-1.250963e+000	-1.061058e+002
110290029	-9.575941e-001	-1.072185e+002	-8.077926e+001	-1.484883e+002	-7.738807e+001	-1.457996e+002	-1.248993e+000	-1.061040e+002
110292029	-9.576813e-001	-1.072170e+002	-7.844199e+001	-1.457049e+002	-7.960327e+001	-1.416341e+002	-1.250018e+000	-1.061093e+002
110294029	-9.583507e-001	-1.072135e+002	-7.922284e+001	1.634168e+002	-8.065640e+001	-1.475762e+002	-1.248312e+000	-1.060980e+002
110296030	-9.576243e-001	-1.072238e+002	-7.663499e+001	-1.362604e+002	-7.942513e+001	-1.478388e+002	-1.250076e+000	-1.061254e+002
110298030	-9.557511e-001	-1.072252e+002	-8.268764e+001	-1.193899e+002	-7.877643e+001	-1.620279e+002	-1.250460e+000	-1.061191e+002
110300030	-9.564692e-001	-1.072222e+002	-7.914009e+001	-1.551149e+002	-8.306713e+001	-1.515720e+002	-1.250154e+000	-1.061196e+002
