!Agilent Technologies,E5071C,MY46520923,B.12.03
!Date: Tue Feb 06 10:49:37 2024
!Data & Calibration Information:
!Freq	S11:SOLT2(ON)	S21:SOLT2(ON)	S12:SOLT2(ON)	S22:SOLT2(ON)
!PortZ  Port1:50+j0    Port2:50+j0
!Above PortZ is port z conversion or system Z0 setting when saving the data.
!When reading, reference impedance value at option line is always used.
# Hz S dB R 50
110000000	-1.044860e+000	-1.090592e+002	-7.488711e+001	-1.424281e+002	-7.762903e+001	-1.537119e+002	-9.672565e-001	-1.061470e+002
110002000	-1.045258e+000	-1.090461e+002	-7.889811e+001	-1.412759e+002	-7.916348e+001	-1.691681e+002	-9.691691e-001	-1.061555e+002
110004000	-1.046699e+000	-1.090670e+002	-7.726315e+001	-1.773910e+002	-8.112515e+001	-1.404230e+002	-9.686774e-001	-1.061512e+002
110006001	-1.043986e+000	-1.090511e+002	-8.142063e+001	-1.513195e+002	-7.718525e+001	-1.540445e+002	-9.679643e-001	-1.061557e+002
110008001	-1.044650e+000	-1.090580e+002	-8.067008e+001	-1.630012e+002	-7.909888e+001	-1.335839e+002	-9.685228e-001	-1.061414e+002
110010001	-1.046111e+000	-1.090652e+002	-8.000613e+001	-1.653010e+002	-8.016781e+001	-1.579861e+002	-9.681036e-001	-1.061421e+002
110012001	-1.045348e+000	-1.090636e+002	-7.677314e+001	-1.499281e+002	-7.877286e+001	-1.669743e+002	-9.692858e-001	-1.061521e+002
110014001	-1.044443e+000	-1.090611e+002	-7.687582e+001	1.765118e+002	-8.093404e+001	-1.649703e+002	-9.686798e-001	-1.061575e+002
110016002	-1.044789e+000	-1.090676e+002	-7.888624e+001	-1.670191e+002	-7.581952e+001	-1.601576e+002	-9.685812e-001	-1.061670e+002
110018002	-1.044656e+000	-1.090488e+002	-7.905634e+001	-1.601494e+002	-8.165831e+001	-1.750568e+002	-9.694585e-001	-1.061691e+002
110020002	-1.045686e+000	-1.090635e+002	-7.876485e+001	-1.773930e+002	-8.447023e+001	-1.341392e+002	-9.682442e-001	-1.061509e+002
110022002	-1.046902e+000	-1.090663e+002	-7.940280e+001	1.746972e+002	-8.020901e+001	1.715944e+002	-9.709701e-001	-1.061694e+002
110024002	-1.045303e+000	-1.090841e+002	-7.956215e+001	-1.290343e+002	-7.640149e+001	1.785518e+002	-9.707972e-001	-1.061575e+002
110026003	-1.047864e+000	-1.090809e+002	-8.364707e+001	1.665010e+002	-7.906596e+001	1.732712e+002	-9.707498e-001	-1.061759e+002
110028003	-1.044634e+000	-1.090888e+002	-8.391477e+001	-1.265382e+002	-7.863613e+001	-1.743578e+002	-9.675430e-001	-1.061701e+002
110030003	-1.044870e+000	-1.090592e+002	-7.896184e+001	-1.402461e+002	-7.802261e+001	1.733075e+002	-9.697918e-001	-1.061858e+002
110032003	-1.044554e+000	-1.090850e+002	-8.149984e+001	-1.779868e+002	-7.528238e+001	-1.735990e+002	-9.686739e-001	-1.061583e+002
110034003	-1.047379e+000	-1.090673e+002	-8.159774e+001	-1.447437e+002	-8.058102e+001	1.559313e+002	-9.701796e-001	-1.061710e+002
110036004	-1.045857e+000	-1.090845e+002	-7.546108e+001	-1.587340e+002	-8.312265e+001	-1.704657e+002	-9.687293e-001	-1.061717e+002
110038004	-1.045639e+000	-1.090731e+002	-9.042137e+001	1.688584e+002	-8.180575e+001	1.693281e+002	-9.701850e-001	-1.061714e+002
110040004	-1.043874e+000	-1.090877e+002	-7.769705e+001	-1.764934e+002	-8.098059e+001	1.750814e+002	-9.667016e-001	-1.061895e+002
110042004	-1.044332e+000	-1.090678e+002	-8.274999e+001	-1.712903e+002	-7.725868e+001	-1.749541e+002	-9.696921e-001	-1.061918e+002
110044004	-1.044213e+000	-1.091075e+002	-8.321129e+001	1.757977e+002	-7.895402e+001	-1.407334e+002	-9.691097e-001	-1.061888e+002
110046005	-1.047554e+000	-1.090919e+002	-7.837172e+001	-1.609740e+002	-8.147181e+001	-1.524664e+002	-9.712329e-001	-1.061768e+002
110048005	-1.046233e+000	-1.090926e+002	-7.662467e+001	-1.693131e+002	-7.802884e+001	-1.751455e+002	-9.694005e-001	-1.061935e+002
110050005	-1.045485e+000	-1.090973e+002	-7.717985e+001	-1.772851e+002	-8.019480e+001	-1.734962e+002	-9.689215e-001	-1.061923e+002
110052005	-1.044605e+000	-1.091110e+002	-7.786985e+001	-1.628744e+002	-7.957734e+001	-1.427926e+002	-9.683551e-001	-1.061945e+002
110054005	-1.045219e+000	-1.091034e+002	-8.094290e+001	-1.510345e+002	-8.745372e+001	-1.790518e+002	-9.688170e-001	-1.061982e+002
110056006	-1.045728e+000	-1.090875e+002	-8.809819e+001	1.441699e+002	-7.666408e+001	-1.689650e+002	-9.678476e-001	-1.061901e+002
110058006	-1.047422e+000	-1.090973e+002	-7.830300e+001	-1.656839e+002	-7.644554e+001	-1.577100e+002	-9.696219e-001	-1.062057e+002
110060006	-1.044202e+000	-1.091086e+002	-7.894892e+001	-1.499927e+002	-7.624239e+001	-1.596591e+002	-9.701943e-001	-1.062032e+002
110062006	-1.046586e+000	-1.091078e+002	-7.895363e+001	-1.480482e+002	-7.794050e+001	-1.561953e+002	-9.684798e-001	-1.062148e+002
110064006	-1.046035e+000	-1.091150e+002	-8.251586e+001	-1.739606e+002	-8.058445e+001	-1.780503e+002	-9.678365e-001	-1.062032e+002
110066007	-1.047321e+000	-1.091206e+002	-8.038638e+001	-1.726668e+002	-8.233296e+001	-1.782560e+002	-9.715342e-001	-1.062073e+002
110068007	-1.047896e+000	-1.091188e+002	-8.434937e+001	1.741799e+002	-7.664674e+001	1.521602e+002	-9.699476e-001	-1.061923e+002
110070007	-1.046590e+000	-1.091138e+002	-8.104541e+001	1.527290e+002	-8.401941e+001	-1.543592e+002	-9.692057e-001	-1.061957e+002
110072007	-1.048421e+000	-1.091253e+002	-7.926762e+001	1.791310e+002	-7.615500e+001	-1.731450e+002	-9.683506e-001	-1.062301e+002
110074007	-1.046879e+000	-1.091420e+002	-8.058143e+001	1.689757e+002	-8.215401e+001	1.522738e+002	-9.680497e-001	-1.061929e+002
110076008	-1.046813e+000	-1.091155e+002	-7.842504e+001	-1.709278e+002	-7.919590e+001	-1.541947e+002	-9.685578e-001	-1.062150e+002
110078008	-1.046522e+000	-1.091246e+002	-8.415776e+001	-1.782297e+002	-7.894387e+001	1.500127e+002	-9.698153e-001	-1.062137e+002
110080008	-1.046521e+000	-1.091281e+002	-7.844342e+001	-1.679573e+002	-7.872508e+001	-1.796820e+002	-9.701188e-001	-1.062077e+002
110082008	-1.045925e+000	-1.091255e+002	-8.572506e+001	-1.658294e+002	-7.772212e+001	1.596283e+002	-9.692971e-001	-1.062238e+002
110084008	-1.046616e+000	-1.091414e+002	-7.715164e+001	-1.403758e+002	-7.919526e+001	1.539893e+002	-9.680156e-001	-1.062208e+002
110086009	-1.044964e+000	-1.091359e+002	-8.047580e+001	-1.651968e+002	-8.918727e+001	-1.726184e+002	-9.685793e-001	-1.062178e+002
110088009	-1.049089e+000	-1.091379e+002	-8.506806e+001	-1.581040e+002	-7.991540e+001	1.717951e+002	-9.698131e-001	-1.062277e+002
110090009	-1.046929e+000	-1.091294e+002	-8.242940e+001	1.585080e+002	-8.835625e+001	-1.326418e+002	-9.682043e-001	-1.062163e+002
110092009	-1.044403e+000	-1.091412e+002	-8.193953e+001	1.670146e+002	-7.938877e+001	1.673938e+002	-9.705233e-001	-1.062290e+002
110094009	-1.047069e+000	-1.091421e+002	-7.541328e+001	-1.492380e+002	-8.174923e+001	-1.644214e+002	-9.694093e-001	-1.062337e+002
110096010	-1.046431e+000	-1.091476e+002	-8.126248e+001	-1.603385e+002	-8.063804e+001	-1.616110e+002	-9.692941e-001	-1.062417e+002
110098010	-1.047203e+000	-1.091489e+002	-9.066810e+001	-1.497823e+002	-7.964430e+001	-1.627927e+002	-9.709003e-001	-1.062217e+002
110100010	-1.046404e+000	-1.091637e+002	-8.127721e+001	-1.742793e+002	-7.948259e+001	-1.744014e+002	-9.705909e-001	-1.062449e+002
110102010	-1.045179e+000	-1.091532e+002	-8.775608e+001	-1.206177e+002	-8.443809e+001	1.626064e+002	-9.712451e-001	-1.062303e+002
110104010	-1.045804e+000	-1.091487e+002	-7.720742e+001	-1.674400e+002	-9.174565e+001	-1.740871e+002	-9.721892e-001	-1.062334e+002
110106011	-1.047324e+000	-1.091586e+002	-8.032158e+001	-1.009836e+002	-7.571159e+001	-1.644069e+002	-9.718306e-001	-1.062413e+002
110108011	-1.047728e+000	-1.091477e+002	-8.256389e+001	1.669451e+002	-8.339337e+001	1.782365e+002	-9.704908e-001	-1.062590e+002
110110011	-1.046391e+000	-1.091557e+002	-8.380916e+001	-1.407673e+002	-7.921878e+001	-1.573810e+002	-9.709224e-001	-1.062460e+002
110112011	-1.046747e+000	-1.091557e+002	-7.851201e+001	-1.316821e+002	-8.110981e+001	-1.600328e+002	-9.713875e-001	-1.062498e+002
110114011	-1.047725e+000	-1.091593e+002	-8.212930e+001	-1.402435e+002	-7.635210e+001	-1.637473e+002	-9.712273e-001	-1.062669e+002
110116012	-1.045653e+000	-1.091637e+002	-8.237911e+001	-1.474204e+002	-7.913619e+001	-1.593563e+002	-9.709071e-001	-1.062678e+002
110118012	-1.046998e+000	-1.091600e+002	-8.126528e+001	-1.602836e+002	-8.173508e+001	-1.644060e+002	-9.705020e-001	-1.062707e+002
110120012	-1.047399e+000	-1.091732e+002	-8.132293e+001	-1.407364e+002	-8.176370e+001	-1.457583e+002	-9.715720e-001	-1.062406e+002
110122012	-1.046224e+000	-1.091717e+002	-7.961044e+001	-1.555979e+002	-8.051799e+001	-1.692320e+002	-9.688832e-001	-1.062666e+002
110124012	-1.046347e+000	-1.091666e+002	-7.783474e+001	-1.363789e+002	-8.640352e+001	1.700737e+002	-9.715645e-001	-1.062567e+002
110126013	-1.048159e+000	-1.091745e+002	-8.193209e+001	-1.643677e+002	-8.028060e+001	-1.569924e+002	-9.723710e-001	-1.062550e+002
110128013	-1.047020e+000	-1.091823e+002	-7.711527e+001	-1.724777e+002	-8.190587e+001	-1.330538e+002	-9.730965e-001	-1.062599e+002
110130013	-1.044580e+000	-1.091836e+002	-7.952769e+001	-1.522892e+002	-8.736650e+001	-1.633120e+002	-9.718668e-001	-1.062614e+002
110132013	-1.047840e+000	-1.091660e+002	-8.025659e+001	1.756435e+002	-8.044569e+001	-1.523831e+002	-9.710967e-001	-1.062870e+002
110134013	-1.047521e+000	-1.091669e+002	-7.866373e+001	-1.716142e+002	-8.685931e+001	-1.647342e+002	-9.697064e-001	-1.062694e+002
110136014	-1.047216e+000	-1.091943e+002	-8.609147e+001	1.496353e+002	-8.639422e+001	1.701241e+002	-9.716849e-001	-1.062811e+002
110138014	-1.047118e+000	-1.092012e+002	-8.056020e+001	1.674019e+002	-8.237660e+001	1.776959e+002	-9.724854e-001	-1.062655e+002
110140014	-1.047348e+000	-1.091795e+002	-7.977253e+001	1.752695e+002	-8.901064e+001	-1.149604e+002	-9.704350e-001	-1.062753e+002
110142014	-1.046399e+000	-1.091893e+002	-8.419728e+001	-1.643089e+002	-7.862136e+001	-1.654288e+002	-9.713515e-001	-1.062872e+002
110144014	-1.044598e+000	-1.091769e+002	-8.395190e+001	1.691131e+002	-8.243142e+001	-1.714371e+002	-9.711458e-001	-1.062752e+002
110146015	-1.046489e+000	-1.091911e+002	-8.091213e+001	-1.635328e+002	-7.762069e+001	-1.528123e+002	-9.706262e-001	-1.062912e+002
110148015	-1.046887e+000	-1.091860e+002	-8.313325e+001	-1.099438e+002	-8.230123e+001	-1.627579e+002	-9.731692e-001	-1.062650e+002
110150015	-1.047167e+000	-1.091930e+002	-8.204372e+001	-1.787314e+002	-7.752391e+001	-1.588648e+002	-9.730251e-001	-1.062847e+002
110152015	-1.049378e+000	-1.091988e+002	-8.328120e+001	1.192832e+002	-7.876810e+001	1.707228e+002	-9.730103e-001	-1.062996e+002
110154015	-1.049410e+000	-1.091838e+002	-8.291172e+001	-1.752029e+002	-8.060408e+001	-1.426897e+002	-9.724810e-001	-1.062983e+002
110156016	-1.046323e+000	-1.092000e+002	-8.099154e+001	-1.097096e+002	-7.876194e+001	-1.680217e+002	-9.719289e-001	-1.062980e+002
110158016	-1.047127e+000	-1.091976e+002	-8.180251e+001	-1.625714e+002	-7.862282e+001	-1.654231e+002	-9.740710e-001	-1.062998e+002
110160016	-1.046960e+000	-1.091980e+002	-8.588809e+001	-1.133559e+002	-8.279472e+001	-1.509193e+002	-9.712293e-001	-1.062913e+002
110162016	-1.047869e+000	-1.092263e+002	-8.292460e+001	1.691695e+002	-7.866914e+001	-1.667194e+002	-9.727823e-001	-1.063092e+002
110164016	-1.045478e+000	-1.092132e+002	-7.957732e+001	1.736488e+002	-7.880121e+001	-1.273943e+002	-9.747109e-001	-1.063027e+002
110166017	-1.047653e+000	-1.092127e+002	-8.288880e+001	-1.681940e+002	-7.964142e+001	1.782139e+002	-9.728240e-001	-1.063113e+002
110168017	-1.047731e+000	-1.092161e+002	-7.781560e+001	-1.362003e+002	-8.039775e+001	-1.583912e+002	-9.714744e-001	-1.063080e+002
110170017	-1.046474e+000	-1.092274e+002	-7.744779e+001	-1.374678e+002	-7.635842e+001	-1.612764e+002	-9.725663e-001	-1.063282e+002
110172017	-1.045899e+000	-1.092220e+002	-7.984868e+001	-1.580151e+002	-7.746990e+001	-1.767879e+002	-9.724520e-001	-1.063069e+002
110174017	-1.047714e+000	-1.092194e+002	-7.967786e+001	-1.621902e+002	-8.606885e+001	-1.437311e+002	-9.736475e-001	-1.063283e+002
110176018	-1.048430e+000	-1.092234e+002	-7.767391e+001	-1.631804e+002	-8.109403e+001	1.644037e+002	-9.733571e-001	-1.063000e+002
110178018	-1.047774e+000	-1.092200e+002	-7.978508e+001	-1.545772e+002	-8.496516e+001	1.678512e+002	-9.723984e-001	-1.063140e+002
110180018	-1.048090e+000	-1.092272e+002	-8.038805e+001	-1.493190e+002	-7.762918e+001	-1.764985e+002	-9.738341e-001	-1.063274e+002
110182018	-1.047187e+000	-1.092246e+002	-8.165881e+001	-1.377010e+002	-7.965598e+001	-1.348314e+002	-9.716733e-001	-1.063090e+002
110184018	-1.047924e+000	-1.092409e+002	-7.606481e+001	-1.796956e+002	-8.340274e+001	1.735823e+002	-9.729566e-001	-1.063180e+002
110186019	-1.049363e+000	-1.092340e+002	-7.434748e+001	-1.423456e+002	-8.034972e+001	1.786160e+002	-9.731433e-001	-1.063294e+002
110188019	-1.049889e+000	-1.092375e+002	-7.968765e+001	-1.621747e+002	-7.861506e+001	-1.385148e+002	-9.733431e-001	-1.063197e+002
110190019	-1.047614e+000	-1.092596e+002	-8.393397e+001	1.666881e+002	-7.781013e+001	-1.502818e+002	-9.750420e-001	-1.063282e+002
110192019	-1.048186e+000	-1.092422e+002	-8.090835e+001	-1.457882e+002	-7.891220e+001	1.664369e+002	-9.740934e-001	-1.063364e+002
110194019	-1.047809e+000	-1.092352e+002	-7.997479e+001	-1.628052e+002	-7.878373e+001	-1.648708e+002	-9.729692e-001	-1.063242e+002
110196020	-1.050597e+000	-1.092411e+002	-8.336346e+001	-1.641918e+002	-8.180530e+001	-1.723878e+002	-9.726928e-001	-1.063283e+002
110198020	-1.048295e+000	-1.092627e+002	-8.096743e+001	1.474611e+002	-7.781630e+001	-1.575665e+002	-9.721676e-001	-1.063426e+002
110200020	-1.048935e+000	-1.092551e+002	-8.332782e+001	-1.590501e+002	-7.950624e+001	-1.694047e+002	-9.742309e-001	-1.063453e+002
110202020	-1.048490e+000	-1.092447e+002	-8.028943e+001	-9.914456e+001	-8.259035e+001	-1.776509e+002	-9.732738e-001	-1.063363e+002
110204020	-1.047511e+000	-1.092561e+002	-7.498023e+001	-1.489409e+002	-7.763658e+001	-1.510182e+002	-9.714638e-001	-1.063460e+002
110206021	-1.049023e+000	-1.092523e+002	-8.154304e+001	-1.565705e+002	-8.297944e+001	-1.795647e+002	-9.727758e-001	-1.063452e+002
110208021	-1.049357e+000	-1.092531e+002	-8.207439e+001	-1.723131e+002	-8.332066e+001	1.664520e+002	-9.726333e-001	-1.063486e+002
110210021	-1.047033e+000	-1.092553e+002	-7.805529e+001	-1.187596e+002	-8.454301e+001	-1.610472e+002	-9.717804e-001	-1.063509e+002
110212021	-1.049671e+000	-1.092451e+002	-8.021638e+001	-1.258924e+002	-7.824611e+001	1.656558e+002	-9.745709e-001	-1.063451e+002
110214021	-1.049900e+000	-1.092459e+002	-7.635474e+001	-1.716482e+002	-8.594305e+001	-1.597777e+002	-9.733667e-001	-1.063538e+002
110216022	-1.049554e+000	-1.092564e+002	-7.774196e+001	-1.796517e+002	-7.714980e+001	-1.734774e+002	-9.713581e-001	-1.063427e+002
110218022	-1.049944e+000	-1.092486e+002	-8.263941e+001	-1.777312e+002	-7.837247e+001	-1.337667e+002	-9.717335e-001	-1.063590e+002
110220022	-1.048871e+000	-1.092576e+002	-8.163010e+001	-1.650460e+002	-8.286564e+001	-1.076325e+002	-9.719065e-001	-1.063417e+002
110222022	-1.050441e+000	-1.092943e+002	-8.029097e+001	-1.317095e+002	-7.843104e+001	-1.432321e+002	-9.752862e-001	-1.063658e+002
110224022	-1.049611e+000	-1.092596e+002	-8.160979e+001	1.654657e+002	-8.320124e+001	-1.745843e+002	-9.702584e-001	-1.063569e+002
110226023	-1.048800e+000	-1.092724e+002	-7.538645e+001	-1.550059e+002	-7.834839e+001	-1.615446e+002	-9.728824e-001	-1.063513e+002
110228023	-1.050752e+000	-1.092699e+002	-8.000649e+001	-1.513227e+002	-8.077935e+001	-1.526232e+002	-9.720099e-001	-1.063647e+002
110230023	-1.048025e+000	-1.092777e+002	-8.606491e+001	1.498250e+002	-7.719455e+001	-1.455109e+002	-9.721113e-001	-1.063762e+002
110232023	-1.050191e+000	-1.092783e+002	-8.051522e+001	-1.588685e+002	-8.366161e+001	-1.218014e+002	-9.740153e-001	-1.063707e+002
110234023	-1.050562e+000	-1.092773e+002	-8.335156e+001	-1.272643e+002	-7.789643e+001	-1.558186e+002	-9.734512e-001	-1.063866e+002
110236024	-1.048847e+000	-1.092891e+002	-8.170519e+001	-1.430066e+002	-7.968755e+001	-1.390800e+002	-9.736956e-001	-1.063631e+002
110238024	-1.048093e+000	-1.093038e+002	-8.028878e+001	1.725786e+002	-7.897189e+001	-1.494676e+002	-9.760562e-001	-1.063772e+002
110240024	-1.048905e+000	-1.092825e+002	-8.171011e+001	-1.710517e+002	-8.334198e+001	-1.565693e+002	-9.747532e-001	-1.063756e+002
110242024	-1.049403e+000	-1.092954e+002	-7.861868e+001	-1.200126e+002	-8.277637e+001	-1.507585e+002	-9.718100e-001	-1.063711e+002
110244024	-1.047874e+000	-1.092962e+002	-8.156915e+001	-1.564970e+002	-8.713170e+001	-1.465002e+002	-9.736295e-001	-1.063718e+002
110246025	-1.046895e+000	-1.093004e+002	-8.014316e+001	-1.525011e+002	-7.698340e+001	-1.405059e+002	-9.746500e-001	-1.063744e+002
110248025	-1.050606e+000	-1.093040e+002	-7.727136e+001	-1.489217e+002	-8.804095e+001	-1.003646e+002	-9.753046e-001	-1.063840e+002
110250025	-1.046626e+000	-1.092942e+002	-8.157215e+001	1.617127e+002	-8.079173e+001	-1.773815e+002	-9.733019e-001	-1.063810e+002
110252025	-1.049528e+000	-1.093064e+002	-8.301848e+001	-1.393214e+002	-7.520132e+001	-1.286540e+002	-9.733641e-001	-1.063851e+002
110254025	-1.047831e+000	-1.093018e+002	-8.960069e+001	-1.064985e+001	-7.979916e+001	-1.583372e+002	-9.720373e-001	-1.063976e+002
110256026	-1.049550e+000	-1.092922e+002	-8.067175e+001	1.796469e+002	-7.971631e+001	-1.312709e+002	-9.738857e-001	-1.063959e+002
110258026	-1.052019e+000	-1.092962e+002	-7.830175e+001	-1.511850e+002	-8.059219e+001	1.702416e+002	-9.738298e-001	-1.063957e+002
110260026	-1.049064e+000	-1.093000e+002	-7.712288e+001	-1.400194e+002	-8.170096e+001	-1.640776e+002	-9.723911e-001	-1.063892e+002
110262026	-1.046525e+000	-1.093063e+002	-8.151684e+001	-1.101064e+002	-8.170667e+001	-1.641662e+002	-9.729110e-001	-1.063975e+002
110264026	-1.048200e+000	-1.093091e+002	-7.891425e+001	-1.476176e+002	-8.000166e+001	-1.458677e+002	-9.741804e-001	-1.063894e+002
110266027	-1.052130e+000	-1.093024e+002	-7.916598e+001	-1.291656e+002	-8.167682e+001	-1.482223e+002	-9.740930e-001	-1.064155e+002
110268027	-1.048420e+000	-1.093187e+002	-7.922690e+001	-1.699506e+002	-7.931100e+001	-1.476420e+002	-9.739495e-001	-1.063998e+002
110270027	-1.049522e+000	-1.093080e+002	-8.005159e+001	-1.343552e+002	-8.060679e+001	-1.612598e+002	-9.721852e-001	-1.064010e+002
110272027	-1.050833e+000	-1.093236e+002	-7.981367e+001	-1.196219e+002	-8.056846e+001	-1.425084e+002	-9.751792e-001	-1.063978e+002
110274027	-1.049908e+000	-1.093269e+002	-8.053210e+001	-1.625555e+002	-8.249600e+001	-1.305446e+002	-9.727446e-001	-1.063906e+002
110276028	-1.051450e+000	-1.093236e+002	-7.943593e+001	-1.371875e+002	-8.092144e+001	-1.540848e+002	-9.748405e-001	-1.064053e+002
110278028	-1.049129e+000	-1.093347e+002	-8.132846e+001	-1.574207e+002	-7.904278e+001	-1.392202e+002	-9.737275e-001	-1.063994e+002
110280028	-1.049032e+000	-1.093388e+002	-7.970739e+001	-1.565242e+002	-7.981959e+001	1.593095e+002	-9.741510e-001	-1.064035e+002
110282028	-1.048419e+000	-1.093348e+002	-7.918494e+001	-1.415187e+002	-7.899269e+001	-1.610065e+002	-9.751921e-001	-1.064021e+002
110284028	-1.049867e+000	-1.093311e+002	-7.889240e+001	-1.034452e+002	-9.373961e+001	-1.703473e+002	-9.753861e-001	-1.064322e+002
110286029	-1.052022e+000	-1.093296e+002	-7.915406e+001	-1.395229e+002	-7.738345e+001	-1.629013e+002	-9.754602e-001	-1.064218e+002
110288029	-1.050243e+000	-1.093306e+002	-7.973806e+001	-1.544137e+002	-7.938785e+001	-1.630677e+002	-9.751377e-001	-1.064202e+002
110290029	-1.050741e+000	-1.093293e+002	-7.846548e+001	-1.446753e+002	-7.805813e+001	-1.550769e+002	-9.740680e-001	-1.064217e+002
110292029	-1.050772e+000	-1.093480e+002	-7.884842e+001	-1.514992e+002	-7.564159e+001	-1.610055e+002	-9.739322e-001	-1.064181e+002
110294029	-1.049668e+000	-1.093455e+002	-7.859865e+001	-1.561750e+002	-7.445339e+001	-1.615916e+002	-9.738752e-001	-1.064186e+002
110296030	-1.050139e+000	-1.093524e+002	-7.590013e+001	-1.694001e+002	-7.943064e+001	-1.678368e+002	-9.760242e-001	-1.064281e+002
110298030	-1.050533e+000	-1.093607e+002	-7.788277e+001	-1.411824e+002	-7.482444e+001	-1.532959e+002	-9.762692e-001	-1.064284e+002
110300030	-1.049989e+000	-1.093433e+002	-8.098935e+001	-1.744139e+002	-8.197589e+001	-1.412233e+002	-9.750828e-001	-1.064413e+002
