!Agilent Technologies,E5071C,MY46520923,B.12.03
!Date: Tue Feb 06 10:05:48 2024
!Data & Calibration Information:
!Freq	S11:SOLT2(ON)	S21:SOLT2(ON)	S12:SOLT2(ON)	S22:SOLT2(ON)
!PortZ  Port1:50+j0    Port2:50+j0
!Above PortZ is port z conversion or system Z0 setting when saving the data.
!When reading, reference impedance value at option line is always used.
# Hz S dB R 50
110000000	-9.332043e-001	-1.078547e+002	-8.152000e+001	-1.714010e+002	-7.780982e+001	-1.572550e+002	-1.130123e+000	-1.056680e+002
110002000	-9.326066e-001	-1.078476e+002	-7.520317e+001	-1.750195e+002	-7.900957e+001	-1.572058e+002	-1.130700e+000	-1.056806e+002
110004000	-9.336516e-001	-1.078546e+002	-8.206463e+001	-1.753556e+002	-8.510323e+001	-1.614934e+002	-1.127835e+000	-1.056862e+002
110006001	-9.333617e-001	-1.078539e+002	-7.969349e+001	1.585915e+002	-7.620534e+001	-1.650952e+002	-1.129966e+000	-1.056848e+002
110008001	-9.352038e-001	-1.078665e+002	-7.656634e+001	-1.477515e+002	-7.744532e+001	-1.588801e+002	-1.131319e+000	-1.056876e+002
110010001	-9.339926e-001	-1.078524e+002	-7.713757e+001	-1.726459e+002	-8.001458e+001	-1.672040e+002	-1.130567e+000	-1.056738e+002
110012001	-9.327491e-001	-1.078563e+002	-7.874508e+001	-1.521847e+002	-7.761456e+001	-1.395929e+002	-1.128558e+000	-1.056769e+002
110014001	-9.319869e-001	-1.078761e+002	-7.886017e+001	-1.604707e+002	-8.021337e+001	-1.721162e+002	-1.132024e+000	-1.056906e+002
110016002	-9.322019e-001	-1.078666e+002	-8.095567e+001	-1.338898e+002	-7.493166e+001	-1.734582e+002	-1.130564e+000	-1.056818e+002
110018002	-9.355328e-001	-1.078704e+002	-7.616116e+001	1.784708e+002	-7.628972e+001	-1.651717e+002	-1.129683e+000	-1.056934e+002
110020002	-9.349659e-001	-1.078688e+002	-7.604231e+001	1.745449e+002	-8.237212e+001	-1.756416e+002	-1.128604e+000	-1.056918e+002
110022002	-9.346665e-001	-1.078689e+002	-7.942518e+001	1.487270e+002	-8.296746e+001	1.672478e+002	-1.130332e+000	-1.056958e+002
110024002	-9.344668e-001	-1.078713e+002	-7.663101e+001	-1.608069e+002	-7.994783e+001	-1.719020e+002	-1.132872e+000	-1.057001e+002
110026003	-9.329054e-001	-1.078820e+002	-7.569647e+001	1.700917e+002	-7.721225e+001	-1.601778e+002	-1.128677e+000	-1.056881e+002
110028003	-9.321827e-001	-1.078799e+002	-7.918683e+001	-1.671812e+002	-7.716071e+001	-1.520370e+002	-1.128202e+000	-1.056883e+002
110030003	-9.336854e-001	-1.078712e+002	-7.945351e+001	1.766670e+002	-7.644611e+001	-1.640234e+002	-1.126148e+000	-1.056991e+002
110032003	-9.341366e-001	-1.078847e+002	-7.535936e+001	-1.659379e+002	-7.779605e+001	-1.621851e+002	-1.131456e+000	-1.056976e+002
110034003	-9.333276e-001	-1.078960e+002	-8.551806e+001	-1.502066e+002	-8.027668e+001	-1.554999e+002	-1.131457e+000	-1.057051e+002
110036004	-9.340625e-001	-1.078837e+002	-8.361312e+001	-1.666915e+002	-7.727897e+001	-1.660208e+002	-1.130094e+000	-1.057210e+002
110038004	-9.341723e-001	-1.078861e+002	-7.691364e+001	-1.681312e+002	-7.661238e+001	1.740069e+002	-1.128812e+000	-1.057036e+002
110040004	-9.341687e-001	-1.078846e+002	-7.774173e+001	-1.775036e+002	-8.152190e+001	-1.690665e+002	-1.130635e+000	-1.057171e+002
110042004	-9.351054e-001	-1.078886e+002	-8.163268e+001	-1.790667e+002	-7.904636e+001	1.707619e+002	-1.130255e+000	-1.057162e+002
110044004	-9.323888e-001	-1.078754e+002	-9.038604e+001	-1.765907e+002	-7.654288e+001	-1.714670e+002	-1.128757e+000	-1.057254e+002
110046005	-9.352175e-001	-1.078968e+002	-7.883646e+001	-1.234608e+002	-7.761837e+001	-1.646926e+002	-1.132437e+000	-1.057126e+002
110048005	-9.337290e-001	-1.078948e+002	-7.676704e+001	-1.736056e+002	-7.920070e+001	-1.477956e+002	-1.133280e+000	-1.057150e+002
110050005	-9.343334e-001	-1.079154e+002	-8.195405e+001	-1.492601e+002	-8.092015e+001	-1.618359e+002	-1.130268e+000	-1.056995e+002
110052005	-9.324171e-001	-1.079040e+002	-7.889707e+001	1.514848e+002	-8.193258e+001	-1.550867e+002	-1.128807e+000	-1.057198e+002
110054005	-9.360032e-001	-1.078841e+002	-7.527410e+001	-1.406847e+002	-8.149534e+001	-1.614650e+002	-1.130193e+000	-1.057191e+002
110056006	-9.342209e-001	-1.079081e+002	-7.956121e+001	-1.562566e+002	-8.286945e+001	-1.535848e+002	-1.131783e+000	-1.057219e+002
110058006	-9.367095e-001	-1.079117e+002	-7.862288e+001	1.680345e+002	-7.990559e+001	1.784318e+002	-1.131849e+000	-1.057316e+002
110060006	-9.349723e-001	-1.079068e+002	-7.939980e+001	-1.684319e+002	-8.018161e+001	-1.638574e+002	-1.129723e+000	-1.057332e+002
110062006	-9.335804e-001	-1.079049e+002	-8.149100e+001	-1.523496e+002	-7.807199e+001	-1.515198e+002	-1.130822e+000	-1.057217e+002
110064006	-9.356788e-001	-1.079094e+002	-7.899783e+001	1.576367e+002	-8.320162e+001	-9.850263e+001	-1.131146e+000	-1.057288e+002
110066007	-9.351301e-001	-1.079336e+002	-8.961220e+001	-1.666058e+002	-8.144967e+001	-1.747758e+002	-1.132967e+000	-1.057330e+002
110068007	-9.357086e-001	-1.079238e+002	-7.857789e+001	-1.592586e+002	-7.600423e+001	-1.206798e+002	-1.130838e+000	-1.057358e+002
110070007	-9.332920e-001	-1.079263e+002	-7.958723e+001	-1.515270e+002	-7.911295e+001	1.721841e+002	-1.130404e+000	-1.057365e+002
110072007	-9.342341e-001	-1.079131e+002	-7.930752e+001	-1.626374e+002	-8.454394e+001	1.736539e+002	-1.129585e+000	-1.057430e+002
110074007	-9.356668e-001	-1.079314e+002	-7.696579e+001	-1.567356e+002	-7.533785e+001	-1.774657e+002	-1.132160e+000	-1.057347e+002
110076008	-9.348059e-001	-1.079233e+002	-7.875277e+001	-1.686323e+002	-8.001302e+001	-1.558056e+002	-1.128591e+000	-1.057499e+002
110078008	-9.349658e-001	-1.079216e+002	-8.258894e+001	-1.323690e+002	-7.839939e+001	-1.657019e+002	-1.131897e+000	-1.057426e+002
110080008	-9.341476e-001	-1.079325e+002	-8.853348e+001	1.715049e+002	-8.325369e+001	1.663322e+002	-1.131575e+000	-1.057597e+002
110082008	-9.336036e-001	-1.079348e+002	-7.835304e+001	-1.541515e+002	-7.832195e+001	-1.737450e+002	-1.130600e+000	-1.057359e+002
110084008	-9.348895e-001	-1.079311e+002	-8.258288e+001	-1.713133e+002	-8.086531e+001	-1.452743e+002	-1.132048e+000	-1.057554e+002
110086009	-9.331534e-001	-1.079361e+002	-8.138520e+001	-1.732197e+002	-8.013343e+001	-1.605334e+002	-1.132175e+000	-1.057590e+002
110088009	-9.339378e-001	-1.079199e+002	-7.729996e+001	1.793841e+002	-7.932364e+001	-1.505276e+002	-1.132387e+000	-1.057423e+002
110090009	-9.371211e-001	-1.079576e+002	-7.721434e+001	-1.679260e+002	-7.746996e+001	-1.512798e+002	-1.133428e+000	-1.057727e+002
110092009	-9.354811e-001	-1.079470e+002	-7.834142e+001	-1.541132e+002	-7.837633e+001	-1.683791e+002	-1.133173e+000	-1.057671e+002
110094009	-9.334857e-001	-1.079444e+002	-8.080460e+001	1.598053e+002	-7.981062e+001	-1.765509e+002	-1.133346e+000	-1.057545e+002
110096010	-9.349443e-001	-1.079583e+002	-9.191822e+001	1.112404e+002	-8.076845e+001	-1.397306e+002	-1.129728e+000	-1.057578e+002
110098010	-9.351678e-001	-1.079363e+002	-7.979942e+001	1.524104e+002	-8.655037e+001	-1.496510e+002	-1.133132e+000	-1.057744e+002
110100010	-9.356095e-001	-1.079447e+002	-8.924338e+001	1.600950e+002	-8.119637e+001	-1.651504e+002	-1.131919e+000	-1.057722e+002
110102010	-9.339781e-001	-1.079469e+002	-8.094055e+001	-1.534672e+002	-7.722409e+001	-1.705344e+002	-1.131655e+000	-1.057687e+002
110104010	-9.359193e-001	-1.079616e+002	-8.073012e+001	-1.798945e+002	-7.775571e+001	1.630683e+002	-1.132362e+000	-1.057748e+002
110106011	-9.367914e-001	-1.079315e+002	-8.053827e+001	1.569217e+002	-7.595466e+001	1.787028e+002	-1.134075e+000	-1.057640e+002
110108011	-9.354677e-001	-1.079544e+002	-8.092073e+001	-1.213769e+002	-7.974510e+001	-1.495803e+002	-1.132204e+000	-1.057688e+002
110110011	-9.363651e-001	-1.079622e+002	-8.050965e+001	-1.780198e+002	-7.799332e+001	-1.786261e+002	-1.132056e+000	-1.057771e+002
110112011	-9.354821e-001	-1.079655e+002	-7.878442e+001	1.776818e+002	-8.016797e+001	1.560883e+002	-1.130331e+000	-1.057964e+002
110114011	-9.350496e-001	-1.079589e+002	-8.105214e+001	1.629452e+002	-8.202888e+001	-1.395237e+002	-1.133217e+000	-1.057690e+002
110116012	-9.373453e-001	-1.079675e+002	-8.136119e+001	1.738160e+002	-9.387116e+001	-1.333139e+002	-1.131176e+000	-1.057873e+002
110118012	-9.355205e-001	-1.079605e+002	-8.396545e+001	-1.737704e+002	-8.006139e+001	-1.751793e+002	-1.130517e+000	-1.057795e+002
110120012	-9.355443e-001	-1.079583e+002	-7.881368e+001	-1.615582e+002	-7.622749e+001	-1.680413e+002	-1.132255e+000	-1.057747e+002
110122012	-9.345929e-001	-1.079691e+002	-8.038168e+001	1.402263e+002	-8.131706e+001	-1.556538e+002	-1.134006e+000	-1.057916e+002
110124012	-9.348191e-001	-1.079801e+002	-7.932976e+001	1.694078e+002	-8.551478e+001	1.609877e+002	-1.131274e+000	-1.057933e+002
110126013	-9.335575e-001	-1.079706e+002	-7.927954e+001	-1.505305e+002	-7.813056e+001	-1.539208e+002	-1.133527e+000	-1.057885e+002
110128013	-9.339722e-001	-1.079632e+002	-7.983332e+001	-1.681114e+002	-7.980075e+001	-1.510625e+002	-1.133656e+000	-1.057856e+002
110130013	-9.365267e-001	-1.079860e+002	-7.872756e+001	-1.329865e+002	-7.847169e+001	1.780030e+002	-1.132245e+000	-1.057988e+002
110132013	-9.346651e-001	-1.079732e+002	-8.113048e+001	1.450235e+002	-7.709557e+001	-1.393724e+002	-1.130451e+000	-1.058000e+002
110134013	-9.341468e-001	-1.079787e+002	-8.586848e+001	-1.218241e+002	-7.773423e+001	1.714669e+002	-1.132110e+000	-1.057896e+002
110136014	-9.349200e-001	-1.079810e+002	-8.506529e+001	-1.626891e+002	-8.171125e+001	-1.747939e+002	-1.132427e+000	-1.057957e+002
110138014	-9.345033e-001	-1.079779e+002	-7.910325e+001	-1.769231e+002	-7.865816e+001	-1.515860e+002	-1.132310e+000	-1.058167e+002
110140014	-9.371250e-001	-1.080010e+002	-9.657887e+001	1.669763e+002	-7.989890e+001	-1.685585e+002	-1.132831e+000	-1.057972e+002
110142014	-9.352120e-001	-1.079707e+002	-8.709990e+001	-1.747982e+002	-7.935945e+001	-1.744453e+002	-1.132957e+000	-1.058048e+002
110144014	-9.372018e-001	-1.079929e+002	-8.299440e+001	1.752985e+002	-8.109197e+001	-1.761093e+002	-1.133745e+000	-1.058087e+002
110146015	-9.361411e-001	-1.079988e+002	-8.183862e+001	1.790207e+002	-7.814908e+001	-1.643700e+002	-1.136190e+000	-1.058132e+002
110148015	-9.371120e-001	-1.079984e+002	-8.133654e+001	-1.748623e+002	-8.077156e+001	1.480976e+002	-1.132173e+000	-1.058142e+002
110150015	-9.327493e-001	-1.079997e+002	-8.125002e+001	-1.620216e+002	-8.050697e+001	-1.304001e+002	-1.133990e+000	-1.058230e+002
110152015	-9.352675e-001	-1.080058e+002	-8.190078e+001	1.666357e+002	-8.341145e+001	-1.645655e+002	-1.133270e+000	-1.058224e+002
110154015	-9.361258e-001	-1.080106e+002	-8.191250e+001	-1.771129e+002	-7.629861e+001	1.792918e+002	-1.136439e+000	-1.058207e+002
110156016	-9.345361e-001	-1.080093e+002	-7.680329e+001	-1.475515e+002	-7.892312e+001	-1.403860e+002	-1.131166e+000	-1.058181e+002
110158016	-9.354831e-001	-1.079980e+002	-8.351950e+001	1.590943e+002	-8.088871e+001	-1.615448e+002	-1.133869e+000	-1.058126e+002
110160016	-9.358982e-001	-1.080047e+002	-7.884214e+001	-1.795026e+002	-8.144223e+001	-1.612175e+002	-1.135354e+000	-1.058249e+002
110162016	-9.361105e-001	-1.080040e+002	-8.253042e+001	-1.669524e+002	-7.647985e+001	-1.798586e+002	-1.134669e+000	-1.058253e+002
110164016	-9.363982e-001	-1.080083e+002	-8.060030e+001	1.698619e+002	-8.229283e+001	-1.584694e+002	-1.133518e+000	-1.058189e+002
110166017	-9.357862e-001	-1.079929e+002	-7.864010e+001	-1.792880e+002	-8.051184e+001	-1.496087e+002	-1.134280e+000	-1.058384e+002
110168017	-9.370055e-001	-1.080096e+002	-7.938927e+001	-1.452355e+002	-8.595861e+001	-1.403012e+002	-1.136404e+000	-1.058221e+002
110170017	-9.356781e-001	-1.080245e+002	-8.437025e+001	1.645692e+002	-8.350016e+001	-1.522381e+002	-1.133487e+000	-1.058366e+002
110172017	-9.368743e-001	-1.080238e+002	-8.012185e+001	1.775103e+002	-8.038363e+001	-1.686264e+002	-1.132306e+000	-1.058377e+002
110174017	-9.354201e-001	-1.080338e+002	-7.730992e+001	-1.497758e+002	-8.013197e+001	-1.653027e+002	-1.133581e+000	-1.058329e+002
110176018	-9.373227e-001	-1.080234e+002	-8.030645e+001	1.652799e+002	-8.235838e+001	-1.626301e+002	-1.135855e+000	-1.058460e+002
110178018	-9.396110e-001	-1.080281e+002	-8.256091e+001	1.670892e+002	-7.978318e+001	-1.296943e+002	-1.133581e+000	-1.058553e+002
110180018	-9.369840e-001	-1.080128e+002	-8.054341e+001	-1.694697e+002	-8.207165e+001	-1.668766e+002	-1.133388e+000	-1.058336e+002
110182018	-9.385307e-001	-1.080327e+002	-7.799154e+001	-1.479194e+002	-8.175498e+001	-1.232971e+002	-1.134526e+000	-1.058509e+002
110184018	-9.372631e-001	-1.080357e+002	-7.789281e+001	-1.535039e+002	-8.120319e+001	-1.378114e+002	-1.133444e+000	-1.058479e+002
110186019	-9.372070e-001	-1.080405e+002	-7.934534e+001	-1.681822e+002	-8.588778e+001	1.736454e+002	-1.136055e+000	-1.058500e+002
110188019	-9.354967e-001	-1.080385e+002	-8.527655e+001	-1.116284e+002	-8.101730e+001	-1.778699e+002	-1.135804e+000	-1.058459e+002
110190019	-9.369126e-001	-1.080358e+002	-8.146646e+001	-1.327527e+002	-9.234827e+001	-1.463006e+002	-1.133831e+000	-1.058337e+002
110192019	-9.365939e-001	-1.080330e+002	-8.290447e+001	1.612887e+002	-7.983981e+001	-1.388647e+002	-1.133694e+000	-1.058405e+002
110194019	-9.375233e-001	-1.080393e+002	-9.815502e+001	-5.451868e+001	-8.295963e+001	1.747172e+002	-1.133288e+000	-1.058586e+002
110196020	-9.385637e-001	-1.080393e+002	-8.410296e+001	-1.582977e+002	-7.984202e+001	-1.605086e+002	-1.137654e+000	-1.058484e+002
110198020	-9.392599e-001	-1.080418e+002	-8.430939e+001	-1.658978e+002	-8.376751e+001	-1.643683e+002	-1.136708e+000	-1.058625e+002
110200020	-9.364181e-001	-1.080487e+002	-7.908404e+001	-1.782262e+002	-7.932328e+001	-1.578951e+002	-1.134606e+000	-1.058697e+002
110202020	-9.369780e-001	-1.080505e+002	-7.979493e+001	-1.679739e+002	-8.534528e+001	-1.758050e+002	-1.132743e+000	-1.058726e+002
110204020	-9.383551e-001	-1.080482e+002	-7.821940e+001	-1.620483e+002	-8.198762e+001	-1.749742e+002	-1.134405e+000	-1.058586e+002
110206021	-9.345550e-001	-1.080568e+002	-8.198855e+001	-1.570796e+002	-8.000805e+001	-1.765433e+002	-1.134204e+000	-1.058549e+002
110208021	-9.368554e-001	-1.080622e+002	-7.851014e+001	-1.710743e+002	-8.109868e+001	1.625288e+002	-1.136451e+000	-1.058818e+002
110210021	-9.397714e-001	-1.080517e+002	-8.473390e+001	-1.738568e+002	-8.339656e+001	-1.620414e+002	-1.132412e+000	-1.058698e+002
110212021	-9.361529e-001	-1.080625e+002	-8.100941e+001	-1.639621e+002	-8.203811e+001	1.766619e+002	-1.133120e+000	-1.058715e+002
110214021	-9.375852e-001	-1.080547e+002	-8.252447e+001	-1.668245e+002	-8.146583e+001	1.717431e+002	-1.134635e+000	-1.058718e+002
110216022	-9.358151e-001	-1.080603e+002	-8.075647e+001	-1.779786e+002	-7.955801e+001	-1.326946e+002	-1.136547e+000	-1.058747e+002
110218022	-9.385978e-001	-1.080651e+002	-8.780132e+001	1.272167e+002	-7.873529e+001	-1.709695e+002	-1.134071e+000	-1.058774e+002
110220022	-9.350409e-001	-1.080715e+002	-8.114252e+001	-9.381780e+001	-7.977825e+001	-1.508470e+002	-1.135051e+000	-1.058770e+002
110222022	-9.365268e-001	-1.080611e+002	-8.681930e+001	-9.511416e+001	-9.064535e+001	1.198949e+002	-1.135200e+000	-1.059053e+002
110224022	-9.383093e-001	-1.080700e+002	-8.243510e+001	-1.473250e+002	-8.213341e+001	-1.365434e+002	-1.135224e+000	-1.058883e+002
110226023	-9.377140e-001	-1.080630e+002	-8.283689e+001	-1.386069e+002	-8.366763e+001	-1.077693e+002	-1.134673e+000	-1.058950e+002
110228023	-9.380539e-001	-1.080694e+002	-7.655912e+001	-1.492178e+002	-8.352490e+001	-1.522279e+002	-1.134417e+000	-1.058955e+002
110230023	-9.373822e-001	-1.080658e+002	-8.115967e+001	-1.363733e+002	-8.261045e+001	-1.580334e+002	-1.137097e+000	-1.058851e+002
110232023	-9.372320e-001	-1.080753e+002	-7.976295e+001	-1.348353e+002	-8.591025e+001	-1.667607e+002	-1.133357e+000	-1.059086e+002
110234023	-9.383719e-001	-1.080726e+002	-8.170744e+001	-1.513566e+002	-7.891591e+001	-1.227906e+002	-1.134021e+000	-1.058796e+002
110236024	-9.368219e-001	-1.080831e+002	-8.516889e+001	-1.341740e+002	-9.384314e+001	-1.105002e+002	-1.133932e+000	-1.059202e+002
110238024	-9.376236e-001	-1.080880e+002	-8.034704e+001	-1.201676e+002	-8.639757e+001	-1.386662e+002	-1.134510e+000	-1.058984e+002
110240024	-9.392660e-001	-1.080817e+002	-8.032342e+001	-1.437092e+002	-8.561247e+001	-1.130155e+002	-1.133976e+000	-1.058961e+002
110242024	-9.380353e-001	-1.080731e+002	-8.084936e+001	-1.397433e+002	-7.998568e+001	-1.285929e+002	-1.136591e+000	-1.058981e+002
110244024	-9.376433e-001	-1.080919e+002	-8.086237e+001	-1.397948e+002	-8.301793e+001	-1.432790e+002	-1.137442e+000	-1.059091e+002
110246025	-9.369885e-001	-1.080850e+002	-8.304220e+001	-1.292264e+002	-8.071147e+001	-1.041346e+002	-1.135584e+000	-1.059165e+002
110248025	-9.390882e-001	-1.080826e+002	-7.949884e+001	-1.377186e+002	-7.880290e+001	1.686018e+002	-1.136362e+000	-1.059062e+002
110250025	-9.387666e-001	-1.080923e+002	-8.468344e+001	-1.764407e+002	-7.987239e+001	-1.472815e+002	-1.135018e+000	-1.059009e+002
110252025	-9.375338e-001	-1.080907e+002	-8.726949e+001	-1.075997e+002	-8.152151e+001	-1.272478e+002	-1.132899e+000	-1.059026e+002
110254025	-9.389980e-001	-1.080936e+002	-8.279415e+001	-1.305720e+002	-8.156695e+001	-1.784531e+002	-1.136557e+000	-1.058959e+002
110256026	-9.385136e-001	-1.081144e+002	-7.951365e+001	-1.260025e+002	-8.128709e+001	1.742234e+002	-1.134646e+000	-1.059067e+002
110258026	-9.392913e-001	-1.081034e+002	-7.706738e+001	-1.526221e+002	-8.136632e+001	-1.573092e+002	-1.136457e+000	-1.059222e+002
110260026	-9.397258e-001	-1.081008e+002	-7.881094e+001	-1.512461e+002	-7.924120e+001	-1.322518e+002	-1.134128e+000	-1.059224e+002
110262026	-9.384073e-001	-1.081075e+002	-7.700598e+001	-1.404370e+002	-8.036269e+001	-1.717655e+002	-1.135968e+000	-1.059224e+002
110264026	-9.418909e-001	-1.081216e+002	-7.744872e+001	-1.626811e+002	-7.764156e+001	-1.440587e+002	-1.136200e+000	-1.059149e+002
110266027	-9.395243e-001	-1.081108e+002	-7.812918e+001	-1.501775e+002	-8.131943e+001	-1.351195e+002	-1.136809e+000	-1.059247e+002
110268027	-9.371115e-001	-1.081314e+002	-8.032281e+001	-1.046158e+002	-8.464315e+001	-1.314943e+002	-1.136368e+000	-1.059393e+002
110270027	-9.373241e-001	-1.081245e+002	-8.379524e+001	-1.208232e+002	-8.679431e+001	-1.192616e+002	-1.135253e+000	-1.059284e+002
110272027	-9.374027e-001	-1.081204e+002	-8.257419e+001	1.576987e+002	-8.103091e+001	-1.557634e+002	-1.137910e+000	-1.059447e+002
110274027	-9.401637e-001	-1.081235e+002	-8.112281e+001	-1.272876e+002	-8.209674e+001	-1.522188e+002	-1.135811e+000	-1.059208e+002
110276028	-9.386607e-001	-1.081139e+002	-8.402462e+001	-9.617023e+001	-8.748168e+001	-8.054095e+001	-1.133956e+000	-1.059214e+002
110278028	-9.394687e-001	-1.081327e+002	-7.845154e+001	-1.643207e+002	-8.156906e+001	-1.243873e+002	-1.136067e+000	-1.059332e+002
110280028	-9.415119e-001	-1.081294e+002	-7.723942e+001	-1.152782e+002	-8.156320e+001	-1.340651e+002	-1.137106e+000	-1.059265e+002
110282028	-9.365893e-001	-1.081101e+002	-7.610499e+001	-1.791233e+002	-8.039210e+001	-1.530737e+002	-1.136456e+000	-1.059509e+002
110284028	-9.397108e-001	-1.081243e+002	-9.019260e+001	-9.127018e+001	-7.678498e+001	-1.426652e+002	-1.137914e+000	-1.059431e+002
110286029	-9.379105e-001	-1.081396e+002	-7.650863e+001	-1.678217e+002	-8.428457e+001	-1.103535e+002	-1.137067e+000	-1.059319e+002
110288029	-9.376926e-001	-1.081339e+002	-7.900889e+001	-1.551789e+002	-8.431485e+001	-1.533584e+002	-1.138558e+000	-1.059499e+002
110290029	-9.382501e-001	-1.081451e+002	-7.915623e+001	-1.424285e+002	-7.534460e+001	-1.464795e+002	-1.135758e+000	-1.059484e+002
110292029	-9.388177e-001	-1.081363e+002	-7.975315e+001	-1.436779e+002	-7.824028e+001	-1.282277e+002	-1.135520e+000	-1.059561e+002
110294029	-9.414704e-001	-1.081376e+002	-7.788822e+001	-1.365640e+002	-8.382964e+001	-1.378510e+002	-1.137241e+000	-1.059437e+002
110296030	-9.389219e-001	-1.081315e+002	-7.979395e+001	-1.724855e+002	-7.798684e+001	-1.563511e+002	-1.136956e+000	-1.059348e+002
110298030	-9.376809e-001	-1.081419e+002	-8.006565e+001	-1.349533e+002	-8.156549e+001	-1.550068e+002	-1.138542e+000	-1.059617e+002
110300030	-9.384848e-001	-1.081319e+002	-8.138619e+001	-1.167002e+002	-7.887664e+001	-1.369594e+002	-1.138154e+000	-1.059609e+002
