!Agilent Technologies,E5071C,MY46520923,B.12.03
!Date: Wed Feb 07 11:07:01 2024
!Data & Calibration Information:
!Freq	S11:SOLT2(ON)	S21:SOLT2(ON)	S12:SOLT2(ON)	S22:SOLT2(ON)
!PortZ  Port1:50+j0    Port2:50+j0
!Above PortZ is port z conversion or system Z0 setting when saving the data.
!When reading, reference impedance value at option line is always used.
# Hz S dB R 50
110000000	-9.608525e-001	-1.069273e+002	-8.308147e+001	-1.502287e+002	-8.008684e+001	-1.519705e+002	-1.229136e+000	-1.058860e+002
110002000	-9.627759e-001	-1.069275e+002	-7.708378e+001	-1.771135e+002	-7.768733e+001	1.792766e+002	-1.228206e+000	-1.058808e+002
110004000	-9.632148e-001	-1.069117e+002	-7.973057e+001	-1.492405e+002	-7.726317e+001	-1.584141e+002	-1.231651e+000	-1.058981e+002
110006001	-9.612485e-001	-1.069263e+002	-7.860871e+001	-1.630120e+002	-7.970106e+001	-1.742706e+002	-1.232883e+000	-1.058870e+002
110008001	-9.621683e-001	-1.069192e+002	-7.789219e+001	-1.625489e+002	-8.038233e+001	-1.621644e+002	-1.231152e+000	-1.058922e+002
110010001	-9.622484e-001	-1.069275e+002	-7.869898e+001	-1.432816e+002	-7.846354e+001	-1.605624e+002	-1.229983e+000	-1.059084e+002
110012001	-9.635663e-001	-1.069491e+002	-7.562498e+001	-1.501082e+002	-8.049423e+001	-1.502102e+002	-1.230873e+000	-1.058934e+002
110014001	-9.609859e-001	-1.069256e+002	-7.914613e+001	-1.556016e+002	-7.619993e+001	-1.371726e+002	-1.228394e+000	-1.059021e+002
110016002	-9.628371e-001	-1.069330e+002	-7.910277e+001	-1.474353e+002	-7.888157e+001	-1.653901e+002	-1.231508e+000	-1.058933e+002
110018002	-9.619792e-001	-1.069442e+002	-7.761943e+001	1.717644e+002	-8.506547e+001	-1.449450e+002	-1.231336e+000	-1.059035e+002
110020002	-9.643829e-001	-1.069336e+002	-7.891250e+001	-1.529285e+002	-7.706801e+001	1.786784e+002	-1.232749e+000	-1.059124e+002
110022002	-9.631896e-001	-1.069390e+002	-8.103332e+001	-1.500384e+002	-7.675434e+001	-1.444622e+002	-1.230694e+000	-1.059118e+002
110024002	-9.620638e-001	-1.069286e+002	-7.752398e+001	-1.577206e+002	-7.790986e+001	-1.767725e+002	-1.231884e+000	-1.059370e+002
110026003	-9.619062e-001	-1.069477e+002	-7.928457e+001	-1.480026e+002	-8.561495e+001	-1.763353e+002	-1.232821e+000	-1.059164e+002
110028003	-9.595497e-001	-1.069409e+002	-7.710033e+001	-1.629139e+002	-7.749783e+001	1.722868e+002	-1.231795e+000	-1.059038e+002
110030003	-9.635608e-001	-1.069485e+002	-7.883252e+001	-1.794285e+002	-7.921711e+001	-1.778886e+002	-1.231155e+000	-1.059046e+002
110032003	-9.633288e-001	-1.069555e+002	-7.843771e+001	-1.658327e+002	-7.828903e+001	-1.735735e+002	-1.232059e+000	-1.059170e+002
110034003	-9.614226e-001	-1.069470e+002	-7.788701e+001	-1.659622e+002	-8.283781e+001	-1.459159e+002	-1.231775e+000	-1.059177e+002
110036004	-9.646702e-001	-1.069574e+002	-8.289300e+001	-1.404116e+002	-7.884833e+001	-1.633137e+002	-1.231477e+000	-1.059068e+002
110038004	-9.654191e-001	-1.069582e+002	-7.848453e+001	-1.319143e+002	-7.893208e+001	-1.563533e+002	-1.232142e+000	-1.059278e+002
110040004	-9.607674e-001	-1.069463e+002	-7.931076e+001	-1.635780e+002	-7.908485e+001	-1.404276e+002	-1.232389e+000	-1.059260e+002
110042004	-9.648526e-001	-1.069726e+002	-7.842220e+001	-1.639779e+002	-8.123034e+001	-1.659136e+002	-1.232359e+000	-1.059285e+002
110044004	-9.644061e-001	-1.069615e+002	-7.848088e+001	1.791583e+002	-7.731684e+001	-1.591872e+002	-1.230358e+000	-1.059265e+002
110046005	-9.614392e-001	-1.069608e+002	-7.746541e+001	1.590925e+002	-8.103972e+001	-1.646475e+002	-1.231060e+000	-1.059445e+002
110048005	-9.653958e-001	-1.069714e+002	-8.064461e+001	1.754165e+002	-7.854158e+001	-1.633345e+002	-1.233008e+000	-1.059296e+002
110050005	-9.608009e-001	-1.069758e+002	-8.446085e+001	-1.468658e+002	-7.898968e+001	-1.643153e+002	-1.233409e+000	-1.059320e+002
110052005	-9.611373e-001	-1.069571e+002	-7.712764e+001	-1.248885e+002	-8.036191e+001	-1.478772e+002	-1.233174e+000	-1.059136e+002
110054005	-9.626873e-001	-1.069704e+002	-8.075636e+001	1.647595e+002	-8.071816e+001	-1.534483e+002	-1.231068e+000	-1.059374e+002
110056006	-9.642475e-001	-1.069682e+002	-7.681711e+001	-1.560437e+002	-8.068362e+001	-1.471940e+002	-1.232925e+000	-1.059312e+002
110058006	-9.619248e-001	-1.069865e+002	-7.865549e+001	1.799699e+002	-8.480301e+001	-1.411375e+002	-1.231627e+000	-1.059549e+002
110060006	-9.645214e-001	-1.069634e+002	-7.974381e+001	1.643645e+002	-8.425154e+001	-1.425274e+002	-1.229736e+000	-1.059432e+002
110062006	-9.620969e-001	-1.069877e+002	-7.450321e+001	-1.770672e+002	-7.816512e+001	-1.559604e+002	-1.232681e+000	-1.059453e+002
110064006	-9.624335e-001	-1.069726e+002	-7.872485e+001	-1.293814e+002	-8.156434e+001	-1.578755e+002	-1.230994e+000	-1.059475e+002
110066007	-9.615652e-001	-1.069742e+002	-8.227917e+001	-1.266995e+002	-8.127318e+001	-1.473698e+002	-1.231176e+000	-1.059452e+002
110068007	-9.629883e-001	-1.069896e+002	-7.993926e+001	-1.450175e+002	-7.525456e+001	1.765875e+002	-1.230838e+000	-1.059559e+002
110070007	-9.642256e-001	-1.069705e+002	-7.771363e+001	-1.529466e+002	-8.641510e+001	-1.388679e+002	-1.233890e+000	-1.059484e+002
110072007	-9.622220e-001	-1.069794e+002	-7.812644e+001	-1.531041e+002	-8.091877e+001	-1.544149e+002	-1.236301e+000	-1.059476e+002
110074007	-9.617344e-001	-1.070005e+002	-7.689285e+001	-1.590594e+002	-7.796820e+001	-1.633060e+002	-1.230927e+000	-1.059423e+002
110076008	-9.650129e-001	-1.069957e+002	-8.041520e+001	-1.733931e+002	-7.938246e+001	-1.569266e+002	-1.232325e+000	-1.059587e+002
110078008	-9.641454e-001	-1.070046e+002	-7.922215e+001	-1.446550e+002	-8.565570e+001	-1.720558e+002	-1.232016e+000	-1.059684e+002
110080008	-9.632857e-001	-1.070073e+002	-7.986943e+001	-1.741718e+002	-7.811342e+001	-1.541322e+002	-1.234627e+000	-1.059588e+002
110082008	-9.627906e-001	-1.069843e+002	-8.042702e+001	-1.710605e+002	-7.777206e+001	-1.219856e+002	-1.234107e+000	-1.059567e+002
110084008	-9.642443e-001	-1.070022e+002	-8.099068e+001	-1.700528e+002	-8.470581e+001	-1.730290e+002	-1.232633e+000	-1.059681e+002
110086009	-9.641015e-001	-1.069926e+002	-7.702091e+001	-1.556088e+002	-7.677781e+001	-1.522419e+002	-1.233295e+000	-1.059671e+002
110088009	-9.633176e-001	-1.070041e+002	-7.906365e+001	-1.605816e+002	-8.117330e+001	1.572692e+002	-1.232389e+000	-1.059782e+002
110090009	-9.639855e-001	-1.070039e+002	-7.870936e+001	-1.293392e+002	-7.970609e+001	-1.754223e+002	-1.232793e+000	-1.059798e+002
110092009	-9.620643e-001	-1.070003e+002	-7.749659e+001	-1.549762e+002	-7.996427e+001	-1.780978e+002	-1.232978e+000	-1.059803e+002
110094009	-9.648527e-001	-1.069997e+002	-7.597759e+001	-1.752930e+002	-7.777918e+001	-1.307693e+002	-1.231754e+000	-1.059814e+002
110096010	-9.632916e-001	-1.070006e+002	-8.090045e+001	-1.348570e+002	-7.897693e+001	-1.371341e+002	-1.232311e+000	-1.059827e+002
110098010	-9.638428e-001	-1.070223e+002	-7.891936e+001	1.765061e+002	-8.202449e+001	-1.661017e+002	-1.233948e+000	-1.059708e+002
110100010	-9.631725e-001	-1.070055e+002	-8.278347e+001	-1.598337e+002	-7.712733e+001	-1.583208e+002	-1.232695e+000	-1.059661e+002
110102010	-9.650312e-001	-1.070065e+002	-7.926226e+001	-1.432597e+002	-8.084916e+001	-1.400394e+002	-1.233753e+000	-1.059852e+002
110104010	-9.637606e-001	-1.070235e+002	-7.888841e+001	1.796455e+002	-7.463786e+001	-1.470910e+002	-1.233964e+000	-1.059748e+002
110106011	-9.630483e-001	-1.070170e+002	-7.859850e+001	1.680105e+002	-7.780351e+001	-1.738282e+002	-1.233196e+000	-1.059874e+002
110108011	-9.634889e-001	-1.070123e+002	-8.019152e+001	-1.606906e+002	-8.255226e+001	-1.525136e+002	-1.235394e+000	-1.059870e+002
110110011	-9.616354e-001	-1.070310e+002	-7.894549e+001	-1.784235e+002	-8.855875e+001	1.647731e+002	-1.233495e+000	-1.059863e+002
110112011	-9.598095e-001	-1.070129e+002	-8.231819e+001	1.685383e+002	-8.354304e+001	-1.328474e+002	-1.233768e+000	-1.059966e+002
110114011	-9.653500e-001	-1.070198e+002	-8.236345e+001	-1.481901e+002	-8.457430e+001	-1.236558e+002	-1.234063e+000	-1.059965e+002
110116012	-9.637354e-001	-1.070447e+002	-7.666974e+001	-1.606823e+002	-8.130312e+001	-1.724414e+002	-1.232718e+000	-1.059956e+002
110118012	-9.640954e-001	-1.070431e+002	-7.880686e+001	-1.527748e+002	-8.594895e+001	-1.745044e+002	-1.234979e+000	-1.060109e+002
110120012	-9.616915e-001	-1.070241e+002	-7.704810e+001	-1.571487e+002	-7.820109e+001	-1.482389e+002	-1.234266e+000	-1.059873e+002
110122012	-9.636473e-001	-1.070259e+002	-7.971044e+001	1.727212e+002	-7.757872e+001	1.729538e+002	-1.234666e+000	-1.059899e+002
110124012	-9.658026e-001	-1.070375e+002	-7.983717e+001	-1.609123e+002	-8.138411e+001	-1.591904e+002	-1.231692e+000	-1.060078e+002
110126013	-9.647468e-001	-1.070515e+002	-7.985951e+001	-1.414260e+002	-7.777729e+001	-1.357980e+002	-1.235133e+000	-1.060089e+002
110128013	-9.628272e-001	-1.070579e+002	-8.292027e+001	1.701092e+002	-7.843687e+001	-1.707314e+002	-1.236039e+000	-1.060239e+002
110130013	-9.650206e-001	-1.070406e+002	-7.670107e+001	-1.712981e+002	-7.715740e+001	-1.321837e+002	-1.234253e+000	-1.060020e+002
110132013	-9.639704e-001	-1.070503e+002	-7.915627e+001	1.663599e+002	-8.153099e+001	-1.438605e+002	-1.233388e+000	-1.060195e+002
110134013	-9.646023e-001	-1.070346e+002	-8.191342e+001	-1.605222e+002	-8.477978e+001	-1.410572e+002	-1.234745e+000	-1.060192e+002
110136014	-9.632189e-001	-1.070459e+002	-8.205318e+001	-1.516798e+002	-8.239401e+001	-1.223795e+002	-1.235075e+000	-1.060161e+002
110138014	-9.645968e-001	-1.070568e+002	-8.127370e+001	-1.596942e+002	-8.404366e+001	1.783886e+002	-1.235375e+000	-1.060185e+002
110140014	-9.633777e-001	-1.070486e+002	-7.840833e+001	-1.425431e+002	-8.067295e+001	-1.532633e+002	-1.234646e+000	-1.060182e+002
110142014	-9.659799e-001	-1.070560e+002	-7.781684e+001	-1.692251e+002	-7.656168e+001	-1.624306e+002	-1.233406e+000	-1.060246e+002
110144014	-9.644912e-001	-1.070566e+002	-8.190476e+001	-1.383992e+002	-8.140540e+001	-1.644441e+002	-1.234884e+000	-1.060215e+002
110146015	-9.636436e-001	-1.070538e+002	-7.651424e+001	-1.451553e+002	-8.128252e+001	-1.723819e+002	-1.235115e+000	-1.060200e+002
110148015	-9.656600e-001	-1.070448e+002	-8.117077e+001	1.717042e+002	-8.662404e+001	-1.508697e+002	-1.234363e+000	-1.060194e+002
110150015	-9.626625e-001	-1.070653e+002	-7.821280e+001	-1.489985e+002	-8.088225e+001	-1.438909e+002	-1.233807e+000	-1.060249e+002
110152015	-9.617911e-001	-1.070785e+002	-8.466147e+001	-1.674488e+002	-7.717102e+001	-1.498779e+002	-1.234860e+000	-1.060309e+002
110154015	-9.640474e-001	-1.070585e+002	-7.773543e+001	-1.605516e+002	-8.097009e+001	-1.759097e+002	-1.236116e+000	-1.060374e+002
110156016	-9.642516e-001	-1.070648e+002	-7.808737e+001	-1.472482e+002	-8.387883e+001	-1.469688e+002	-1.236058e+000	-1.060393e+002
110158016	-9.650831e-001	-1.070814e+002	-8.590705e+001	-1.447972e+002	-8.053315e+001	-1.484549e+002	-1.236752e+000	-1.060273e+002
110160016	-9.660617e-001	-1.070831e+002	-7.649735e+001	-1.546215e+002	-7.953900e+001	1.688775e+002	-1.236156e+000	-1.060428e+002
110162016	-9.643257e-001	-1.070725e+002	-8.187980e+001	-1.743344e+002	-8.144500e+001	-1.522773e+002	-1.232876e+000	-1.060333e+002
110164016	-9.636622e-001	-1.070736e+002	-7.517305e+001	-1.333887e+002	-7.911775e+001	-1.610655e+002	-1.235656e+000	-1.060292e+002
110166017	-9.638357e-001	-1.070862e+002	-7.648170e+001	-1.150376e+002	-8.099117e+001	-1.617822e+002	-1.234312e+000	-1.060368e+002
110168017	-9.645156e-001	-1.070824e+002	-7.748535e+001	-1.547699e+002	-8.449982e+001	-1.592700e+002	-1.235230e+000	-1.060368e+002
110170017	-9.644930e-001	-1.070882e+002	-8.951185e+001	-1.318524e+002	-8.198202e+001	-1.365387e+002	-1.235072e+000	-1.060409e+002
110172017	-9.644043e-001	-1.070951e+002	-7.615742e+001	-1.674005e+002	-8.100558e+001	-1.643544e+002	-1.235565e+000	-1.060509e+002
110174017	-9.650358e-001	-1.070791e+002	-8.051234e+001	-1.429312e+002	-9.250488e+001	-1.630939e+002	-1.235763e+000	-1.060379e+002
110176018	-9.638910e-001	-1.070830e+002	-7.765982e+001	-1.716384e+002	-8.177521e+001	1.784931e+002	-1.237931e+000	-1.060479e+002
110178018	-9.641778e-001	-1.070890e+002	-8.302939e+001	-1.737476e+002	-7.876996e+001	-1.740130e+002	-1.235446e+000	-1.060544e+002
110180018	-9.639831e-001	-1.070909e+002	-8.382938e+001	-1.533612e+002	-7.790602e+001	-1.666630e+002	-1.234964e+000	-1.060604e+002
110182018	-9.638145e-001	-1.070830e+002	-7.938635e+001	-1.705276e+002	-8.022907e+001	-1.296772e+002	-1.237044e+000	-1.060547e+002
110184018	-9.641638e-001	-1.070946e+002	-8.056231e+001	-1.466955e+002	-8.329500e+001	-1.530807e+002	-1.237489e+000	-1.060504e+002
110186019	-9.644410e-001	-1.070988e+002	-7.736506e+001	-1.293929e+002	-7.836238e+001	1.737391e+002	-1.237742e+000	-1.060639e+002
110188019	-9.670774e-001	-1.070796e+002	-8.194623e+001	-1.631668e+002	-7.986348e+001	-1.574538e+002	-1.235477e+000	-1.060606e+002
110190019	-9.653185e-001	-1.070959e+002	-8.174630e+001	-1.420698e+002	-7.989579e+001	-1.517927e+002	-1.234787e+000	-1.060677e+002
110192019	-9.632904e-001	-1.071159e+002	-8.082326e+001	-1.772346e+002	-8.195168e+001	-1.573606e+002	-1.235829e+000	-1.060653e+002
110194019	-9.644967e-001	-1.070916e+002	-8.314139e+001	-1.314475e+002	-7.796082e+001	-1.503478e+002	-1.234767e+000	-1.060722e+002
110196020	-9.663451e-001	-1.071076e+002	-8.392913e+001	-1.400246e+002	-7.932377e+001	1.798779e+002	-1.236199e+000	-1.060747e+002
110198020	-9.656212e-001	-1.071142e+002	-8.721764e+001	1.661152e+002	-8.227391e+001	-1.511125e+002	-1.238047e+000	-1.060726e+002
110200020	-9.637492e-001	-1.071136e+002	-7.959265e+001	-1.253657e+002	-8.364819e+001	-1.380539e+002	-1.235855e+000	-1.060854e+002
110202020	-9.656384e-001	-1.071198e+002	-8.195306e+001	-1.687375e+002	-8.052231e+001	-1.545297e+002	-1.234384e+000	-1.060876e+002
110204020	-9.669244e-001	-1.071153e+002	-8.127071e+001	-1.596232e+002	-8.014999e+001	-1.164250e+002	-1.236115e+000	-1.060990e+002
110206021	-9.641710e-001	-1.071200e+002	-7.922300e+001	-1.632201e+002	-8.464067e+001	-1.347433e+002	-1.236408e+000	-1.060822e+002
110208021	-9.652398e-001	-1.071106e+002	-7.701037e+001	-1.393575e+002	-7.888615e+001	-1.751285e+002	-1.236001e+000	-1.060736e+002
110210021	-9.665348e-001	-1.071182e+002	-7.761400e+001	-1.381228e+002	-8.082404e+001	-1.268789e+002	-1.236722e+000	-1.060857e+002
110212021	-9.656636e-001	-1.071086e+002	-7.733198e+001	-1.582495e+002	-8.399082e+001	1.196945e+002	-1.235767e+000	-1.060896e+002
110214021	-9.686036e-001	-1.071221e+002	-7.779738e+001	-1.638404e+002	-7.721687e+001	-1.671568e+002	-1.238248e+000	-1.060827e+002
110216022	-9.662529e-001	-1.071360e+002	-7.725491e+001	-1.447520e+002	-8.003449e+001	-1.431184e+002	-1.238027e+000	-1.060851e+002
110218022	-9.636086e-001	-1.071267e+002	-7.537816e+001	-1.392258e+002	-7.756175e+001	-1.303029e+002	-1.235290e+000	-1.061092e+002
110220022	-9.655418e-001	-1.071343e+002	-8.722520e+001	1.660987e+002	-7.983847e+001	-1.424547e+002	-1.236352e+000	-1.061049e+002
110222022	-9.661727e-001	-1.071327e+002	-7.653711e+001	-1.474111e+002	-7.854635e+001	-1.464195e+002	-1.235670e+000	-1.060886e+002
110224022	-9.664900e-001	-1.071247e+002	-7.724079e+001	-1.550680e+002	-7.884984e+001	-1.699816e+002	-1.235312e+000	-1.060896e+002
110226023	-9.645630e-001	-1.071315e+002	-7.960131e+001	-1.237893e+002	-7.847334e+001	-1.735559e+002	-1.236035e+000	-1.060944e+002
110228023	-9.667068e-001	-1.071402e+002	-8.572742e+001	-1.474922e+002	-8.147574e+001	-1.394487e+002	-1.236517e+000	-1.061054e+002
110230023	-9.649928e-001	-1.071373e+002	-7.879626e+001	-1.525694e+002	-7.851952e+001	-1.543171e+002	-1.239753e+000	-1.061149e+002
110232023	-9.652373e-001	-1.071481e+002	-7.823323e+001	-1.581098e+002	-8.087627e+001	-1.437168e+002	-1.237794e+000	-1.061173e+002
110234023	-9.652402e-001	-1.071507e+002	-8.298429e+001	-1.357517e+002	-8.495516e+001	-1.445736e+002	-1.236834e+000	-1.061110e+002
110236024	-9.655696e-001	-1.071533e+002	-8.125022e+001	-1.529528e+002	-8.014870e+001	-1.710929e+002	-1.237144e+000	-1.061223e+002
110238024	-9.658874e-001	-1.071412e+002	-7.565354e+001	-1.428399e+002	-7.725717e+001	-1.530105e+002	-1.234703e+000	-1.061033e+002
110240024	-9.638304e-001	-1.071465e+002	-7.806037e+001	-1.708820e+002	-8.056728e+001	-1.665915e+002	-1.234611e+000	-1.061132e+002
110242024	-9.672175e-001	-1.071566e+002	-8.050103e+001	-1.601524e+002	-7.864612e+001	-1.451262e+002	-1.237882e+000	-1.061053e+002
110244024	-9.663510e-001	-1.071601e+002	-7.981869e+001	-1.222512e+002	-7.707872e+001	-1.752694e+002	-1.237906e+000	-1.061162e+002
110246025	-9.671906e-001	-1.071642e+002	-7.751246e+001	-1.723032e+002	-8.024478e+001	-1.747395e+002	-1.237434e+000	-1.061032e+002
110248025	-9.685301e-001	-1.071579e+002	-7.911011e+001	1.621640e+002	-8.433287e+001	-1.516224e+002	-1.236247e+000	-1.061193e+002
110250025	-9.659265e-001	-1.071579e+002	-8.394204e+001	-1.272650e+002	-7.768106e+001	-1.367661e+002	-1.235241e+000	-1.061206e+002
110252025	-9.672038e-001	-1.071695e+002	-7.528896e+001	-1.296358e+002	-7.481026e+001	-1.686221e+002	-1.236348e+000	-1.061100e+002
110254025	-9.673312e-001	-1.071734e+002	-8.072569e+001	-1.611772e+002	-7.760491e+001	-1.515704e+002	-1.236665e+000	-1.061242e+002
110256026	-9.672009e-001	-1.071557e+002	-8.132620e+001	-1.698676e+002	-7.767270e+001	-1.461592e+002	-1.234392e+000	-1.061381e+002
110258026	-9.646881e-001	-1.071817e+002	-8.117682e+001	-1.406459e+002	-7.979776e+001	-1.388390e+002	-1.238084e+000	-1.061146e+002
110260026	-9.663442e-001	-1.071612e+002	-7.892453e+001	-1.406685e+002	-7.951624e+001	-1.397749e+002	-1.235001e+000	-1.061491e+002
110262026	-9.666980e-001	-1.071687e+002	-7.812907e+001	-1.430986e+002	-7.815727e+001	-1.684548e+002	-1.236502e+000	-1.061350e+002
110264026	-9.669287e-001	-1.071831e+002	-7.744950e+001	1.669416e+002	-7.802407e+001	-1.583633e+002	-1.238508e+000	-1.061300e+002
110266027	-9.663423e-001	-1.071804e+002	-7.493845e+001	-1.559037e+002	-7.552401e+001	-1.492160e+002	-1.237107e+000	-1.061432e+002
110268027	-9.671793e-001	-1.071827e+002	-9.118784e+001	-1.590986e+002	-8.072365e+001	-1.766697e+002	-1.236239e+000	-1.061463e+002
110270027	-9.673129e-001	-1.071874e+002	-7.841440e+001	1.796481e+002	-7.535649e+001	-1.716011e+002	-1.236384e+000	-1.061526e+002
110272027	-9.655437e-001	-1.071912e+002	-7.941495e+001	-1.777214e+002	-7.944338e+001	-1.209248e+002	-1.238300e+000	-1.061488e+002
110274027	-9.672107e-001	-1.071829e+002	-7.752436e+001	-1.722231e+002	-7.774585e+001	-1.779757e+002	-1.236971e+000	-1.061429e+002
110276028	-9.661079e-001	-1.071727e+002	-8.749390e+001	-1.335763e+002	-8.012284e+001	-1.327464e+002	-1.238141e+000	-1.061574e+002
110278028	-9.647206e-001	-1.071836e+002	-7.934942e+001	-1.251690e+002	-7.576705e+001	-1.502272e+002	-1.237927e+000	-1.061393e+002
110280028	-9.680229e-001	-1.071918e+002	-7.857525e+001	-1.547840e+002	-7.960501e+001	-1.486187e+002	-1.236835e+000	-1.061560e+002
110282028	-9.682616e-001	-1.071859e+002	-7.557125e+001	-1.779879e+002	-7.844337e+001	-1.572120e+002	-1.239116e+000	-1.061561e+002
110284028	-9.667506e-001	-1.071979e+002	-7.902633e+001	-1.742103e+002	-8.156987e+001	-1.655574e+002	-1.237112e+000	-1.061532e+002
110286029	-9.685172e-001	-1.071956e+002	-8.247508e+001	1.715281e+002	-7.867906e+001	-1.707305e+002	-1.236309e+000	-1.061397e+002
110288029	-9.669249e-001	-1.072060e+002	-7.781929e+001	-1.671915e+002	-7.746771e+001	-1.748931e+002	-1.237559e+000	-1.061607e+002
110290029	-9.657962e-001	-1.072012e+002	-7.808769e+001	-1.527077e+002	-7.832951e+001	-1.657017e+002	-1.239078e+000	-1.061532e+002
110292029	-9.695207e-001	-1.071992e+002	-7.582481e+001	-1.679034e+002	-7.607184e+001	1.763717e+002	-1.236887e+000	-1.061613e+002
110294029	-9.678327e-001	-1.072044e+002	-7.577792e+001	-1.561584e+002	-8.103255e+001	-1.525647e+002	-1.240213e+000	-1.061672e+002
110296030	-9.662621e-001	-1.072222e+002	-7.681869e+001	-1.640649e+002	-7.502684e+001	-1.452571e+002	-1.239112e+000	-1.061752e+002
110298030	-9.663905e-001	-1.072025e+002	-7.480922e+001	-1.628860e+002	-7.680969e+001	-1.509303e+002	-1.239588e+000	-1.061645e+002
110300030	-9.654790e-001	-1.072142e+002	-7.606663e+001	-1.550874e+002	-7.762900e+001	1.748158e+002	-1.236572e+000	-1.061465e+002
