!Agilent Technologies,E5071C,MY46520923,B.12.03
!Date: Wed Feb 07 10:26:35 2024
!Data & Calibration Information:
!Freq	S11:SOLT2(ON)	S21:SOLT2(ON)	S12:SOLT2(ON)	S22:SOLT2(ON)
!PortZ  Port1:50+j0    Port2:50+j0
!Above PortZ is port z conversion or system Z0 setting when saving the data.
!When reading, reference impedance value at option line is always used.
# Hz S dB R 50
110000000	-9.393797e-001	-1.069953e+002	-8.164908e+001	-1.595091e+002	-7.724828e+001	-1.341139e+002	-1.247828e+000	-1.057642e+002
110002000	-9.379662e-001	-1.069822e+002	-8.273785e+001	-1.629065e+002	-7.811188e+001	-1.455858e+002	-1.248616e+000	-1.057731e+002
110004000	-9.370969e-001	-1.069911e+002	-7.829501e+001	-1.779302e+002	-7.959238e+001	-1.532592e+002	-1.247557e+000	-1.057873e+002
110006001	-9.392837e-001	-1.070016e+002	-7.829902e+001	-1.646978e+002	-7.797930e+001	-1.540142e+002	-1.245993e+000	-1.057955e+002
110008001	-9.398637e-001	-1.070160e+002	-8.020360e+001	-1.717257e+002	-8.005049e+001	-1.516018e+002	-1.249723e+000	-1.057853e+002
110010001	-9.406498e-001	-1.070062e+002	-8.124924e+001	-1.623730e+002	-7.858544e+001	-1.342196e+002	-1.249287e+000	-1.057794e+002
110012001	-9.371172e-001	-1.070173e+002	-7.989449e+001	1.775772e+002	-8.247273e+001	1.692584e+002	-1.248675e+000	-1.057951e+002
110014001	-9.391549e-001	-1.070030e+002	-8.708231e+001	-1.796257e+002	-7.698674e+001	1.576802e+002	-1.250252e+000	-1.057911e+002
110016002	-9.374275e-001	-1.070202e+002	-7.950497e+001	1.729407e+002	-7.782943e+001	-1.550486e+002	-1.247804e+000	-1.057803e+002
110018002	-9.408104e-001	-1.070129e+002	-7.620440e+001	-1.728895e+002	-8.277599e+001	-1.582966e+002	-1.249316e+000	-1.058009e+002
110020002	-9.391757e-001	-1.070138e+002	-8.157583e+001	-1.488652e+002	-7.717515e+001	-1.710816e+002	-1.249219e+000	-1.057884e+002
110022002	-9.396828e-001	-1.070028e+002	-8.158930e+001	-1.724926e+002	-7.751589e+001	-1.536020e+002	-1.247986e+000	-1.058071e+002
110024002	-9.384123e-001	-1.070162e+002	-7.995726e+001	-1.619208e+002	-7.844198e+001	-1.601255e+002	-1.248680e+000	-1.057949e+002
110026003	-9.418189e-001	-1.070130e+002	-8.154329e+001	-1.448141e+002	-8.008692e+001	-1.292438e+002	-1.249436e+000	-1.057952e+002
110028003	-9.397603e-001	-1.070227e+002	-8.216458e+001	-1.532964e+002	-7.716787e+001	-1.506217e+002	-1.249606e+000	-1.057988e+002
110030003	-9.410802e-001	-1.070432e+002	-8.436068e+001	-1.708807e+002	-8.038982e+001	1.779056e+002	-1.249126e+000	-1.058034e+002
110032003	-9.394742e-001	-1.070211e+002	-7.887880e+001	1.712526e+002	-8.584834e+001	-1.628781e+002	-1.247967e+000	-1.057913e+002
110034003	-9.383039e-001	-1.070253e+002	-7.714004e+001	-1.602693e+002	-7.664796e+001	-1.636601e+002	-1.249582e+000	-1.058181e+002
110036004	-9.406938e-001	-1.070268e+002	-8.003373e+001	-1.585254e+002	-8.047430e+001	-1.229259e+002	-1.251441e+000	-1.058148e+002
110038004	-9.388091e-001	-1.070345e+002	-7.593758e+001	-1.618567e+002	-8.097558e+001	-1.436829e+002	-1.248520e+000	-1.058144e+002
110040004	-9.391342e-001	-1.070287e+002	-8.028559e+001	-1.707243e+002	-7.928175e+001	-1.311872e+002	-1.249291e+000	-1.058150e+002
110042004	-9.413816e-001	-1.070532e+002	-7.743274e+001	-1.508692e+002	-7.758477e+001	-1.775368e+002	-1.251457e+000	-1.058282e+002
110044004	-9.403633e-001	-1.070463e+002	-8.269727e+001	-1.460274e+002	-7.852220e+001	-1.685901e+002	-1.251062e+000	-1.058112e+002
110046005	-9.410350e-001	-1.070415e+002	-7.886950e+001	-1.567099e+002	-8.094766e+001	-1.540228e+002	-1.247659e+000	-1.058193e+002
110048005	-9.403624e-001	-1.070501e+002	-8.073693e+001	-1.289701e+002	-7.976612e+001	-1.750773e+002	-1.248368e+000	-1.058320e+002
110050005	-9.404551e-001	-1.070400e+002	-7.498089e+001	-1.593102e+002	-7.848590e+001	-1.552711e+002	-1.250831e+000	-1.058237e+002
110052005	-9.406241e-001	-1.070396e+002	-8.135025e+001	-1.685088e+002	-8.518891e+001	-1.628779e+002	-1.248692e+000	-1.058110e+002
110054005	-9.389808e-001	-1.070525e+002	-7.976388e+001	-1.555306e+002	-8.475114e+001	-1.530664e+002	-1.250431e+000	-1.058298e+002
110056006	-9.398302e-001	-1.070432e+002	-8.126094e+001	-1.480332e+002	-7.817781e+001	1.775516e+002	-1.251694e+000	-1.058272e+002
110058006	-9.398962e-001	-1.070560e+002	-8.549058e+001	-1.672666e+002	-7.907991e+001	-1.495098e+002	-1.249343e+000	-1.058166e+002
110060006	-9.384508e-001	-1.070290e+002	-7.769972e+001	-1.440395e+002	-7.767412e+001	-1.559398e+002	-1.249167e+000	-1.058297e+002
110062006	-9.391611e-001	-1.070536e+002	-7.612017e+001	-1.672581e+002	-8.022775e+001	-1.178787e+002	-1.251567e+000	-1.058331e+002
110064006	-9.397444e-001	-1.070645e+002	-8.010594e+001	-1.445829e+002	-7.616224e+001	-1.606129e+002	-1.251056e+000	-1.058329e+002
110066007	-9.414504e-001	-1.070653e+002	-8.041100e+001	-1.545948e+002	-7.931297e+001	-1.357839e+002	-1.251068e+000	-1.058405e+002
110068007	-9.399959e-001	-1.070582e+002	-8.020172e+001	-1.537538e+002	-7.685269e+001	-1.635861e+002	-1.252591e+000	-1.058333e+002
110070007	-9.418389e-001	-1.070545e+002	-8.131403e+001	-1.423265e+002	-7.955825e+001	-1.498461e+002	-1.248514e+000	-1.058569e+002
110072007	-9.394053e-001	-1.070545e+002	-7.664053e+001	-1.567899e+002	-7.824056e+001	-1.350288e+002	-1.250028e+000	-1.058483e+002
110074007	-9.387806e-001	-1.070571e+002	-7.746842e+001	-1.720962e+002	-7.922661e+001	-1.700939e+002	-1.250792e+000	-1.058522e+002
110076008	-9.382118e-001	-1.070740e+002	-7.796151e+001	-1.487940e+002	-8.021693e+001	-1.709427e+002	-1.250788e+000	-1.058452e+002
110078008	-9.401630e-001	-1.070760e+002	-7.839999e+001	-1.378273e+002	-8.035429e+001	-1.533439e+002	-1.250517e+000	-1.058603e+002
110080008	-9.415416e-001	-1.070730e+002	-8.065244e+001	-1.577363e+002	-7.957817e+001	1.628778e+002	-1.246718e+000	-1.058477e+002
110082008	-9.414148e-001	-1.070732e+002	-8.064563e+001	-1.766738e+002	-8.056906e+001	-1.481862e+002	-1.251248e+000	-1.058597e+002
110084008	-9.371605e-001	-1.070785e+002	-8.371566e+001	-1.519445e+002	-8.006341e+001	-1.696398e+002	-1.247634e+000	-1.058603e+002
110086009	-9.393267e-001	-1.070767e+002	-8.094232e+001	1.320852e+002	-7.926804e+001	-1.680146e+002	-1.250563e+000	-1.058495e+002
110088009	-9.410550e-001	-1.070837e+002	-8.275906e+001	-1.222684e+002	-8.365276e+001	1.645241e+002	-1.250623e+000	-1.058464e+002
110090009	-9.402781e-001	-1.070864e+002	-7.869292e+001	-1.766096e+002	-7.638947e+001	-1.349103e+002	-1.250698e+000	-1.058575e+002
110092009	-9.398930e-001	-1.070785e+002	-7.995407e+001	1.785169e+002	-8.222606e+001	-1.701232e+002	-1.251756e+000	-1.058638e+002
110094009	-9.411702e-001	-1.070788e+002	-7.868991e+001	1.504538e+002	-7.803668e+001	-1.546335e+002	-1.250534e+000	-1.058578e+002
110096010	-9.414448e-001	-1.070876e+002	-8.471913e+001	-1.499420e+002	-7.789815e+001	-1.409407e+002	-1.252214e+000	-1.058732e+002
110098010	-9.419650e-001	-1.070933e+002	-7.985595e+001	-1.638960e+002	-7.671516e+001	-1.792761e+002	-1.249263e+000	-1.058502e+002
110100010	-9.405849e-001	-1.071081e+002	-8.133402e+001	-1.462899e+002	-8.183556e+001	-1.178086e+002	-1.252514e+000	-1.058778e+002
110102010	-9.403371e-001	-1.070897e+002	-8.275831e+001	1.791659e+002	-7.806811e+001	-1.414639e+002	-1.249613e+000	-1.058702e+002
110104010	-9.423513e-001	-1.070875e+002	-8.039775e+001	-1.509108e+002	-8.719173e+001	-1.443329e+002	-1.251448e+000	-1.058627e+002
110106011	-9.400578e-001	-1.070924e+002	-8.007697e+001	1.772201e+002	-7.796955e+001	-1.627735e+002	-1.251310e+000	-1.058788e+002
110108011	-9.405140e-001	-1.070937e+002	-7.977943e+001	-1.405418e+002	-7.612345e+001	-1.419558e+002	-1.251373e+000	-1.058763e+002
110110011	-9.410672e-001	-1.071105e+002	-8.014736e+001	-1.749232e+002	-7.846849e+001	-1.503330e+002	-1.249910e+000	-1.058687e+002
110112011	-9.407600e-001	-1.071105e+002	-8.127170e+001	-1.422967e+002	-8.048430e+001	-1.735431e+002	-1.249012e+000	-1.058763e+002
110114011	-9.405797e-001	-1.071112e+002	-7.671854e+001	-1.640810e+002	-8.079770e+001	-1.411508e+002	-1.251807e+000	-1.058787e+002
110116012	-9.391323e-001	-1.071053e+002	-7.795961e+001	-1.705788e+002	-8.224092e+001	-1.671243e+002	-1.252675e+000	-1.058754e+002
110118012	-9.409019e-001	-1.070978e+002	-8.179675e+001	-1.375634e+002	-8.488818e+001	-1.290718e+002	-1.252860e+000	-1.058907e+002
110120012	-9.386383e-001	-1.071020e+002	-8.257255e+001	-1.552230e+002	-8.321295e+001	-1.610543e+002	-1.249704e+000	-1.058862e+002
110122012	-9.416226e-001	-1.071079e+002	-7.820831e+001	1.619662e+002	-8.079999e+001	-1.450659e+002	-1.252068e+000	-1.058922e+002
110124012	-9.394815e-001	-1.071203e+002	-8.248914e+001	-1.477255e+002	-8.187783e+001	-1.739786e+002	-1.251343e+000	-1.059049e+002
110126013	-9.387133e-001	-1.071046e+002	-8.567128e+001	-1.734904e+002	-7.957161e+001	-1.463087e+002	-1.250387e+000	-1.058979e+002
110128013	-9.443907e-001	-1.071252e+002	-7.740921e+001	-1.445489e+002	-7.400542e+001	-1.706656e+002	-1.251589e+000	-1.058860e+002
110130013	-9.392097e-001	-1.071332e+002	-8.354601e+001	-1.486531e+002	-7.919899e+001	-1.554861e+002	-1.252695e+000	-1.058994e+002
110132013	-9.405200e-001	-1.071169e+002	-8.116304e+001	-1.518561e+002	-7.775747e+001	-1.565557e+002	-1.250399e+000	-1.058920e+002
110134013	-9.402553e-001	-1.071209e+002	-8.130663e+001	-1.347860e+002	-8.133242e+001	-1.693360e+002	-1.251153e+000	-1.059084e+002
110136014	-9.412609e-001	-1.071246e+002	-7.776681e+001	-1.378810e+002	-7.878740e+001	-1.646835e+002	-1.251158e+000	-1.059091e+002
110138014	-9.424760e-001	-1.071229e+002	-7.828198e+001	-1.589266e+002	-8.600895e+001	1.788978e+002	-1.252209e+000	-1.058773e+002
110140014	-9.399440e-001	-1.071200e+002	-8.125686e+001	-1.542065e+002	-7.879050e+001	-1.587487e+002	-1.253130e+000	-1.059122e+002
110142014	-9.394366e-001	-1.071206e+002	-7.875515e+001	1.775187e+002	-7.818595e+001	-1.571360e+002	-1.253553e+000	-1.059070e+002
110144014	-9.402988e-001	-1.071340e+002	-7.925563e+001	-1.772213e+002	-7.496037e+001	-1.588666e+002	-1.250188e+000	-1.059203e+002
110146015	-9.416259e-001	-1.071456e+002	-7.939340e+001	1.686216e+002	-7.781154e+001	-1.618093e+002	-1.252260e+000	-1.059230e+002
110148015	-9.383606e-001	-1.071450e+002	-7.864676e+001	-1.259955e+002	-8.479166e+001	1.751598e+002	-1.251400e+000	-1.059261e+002
110150015	-9.402526e-001	-1.071314e+002	-8.246035e+001	-1.523005e+002	-8.256170e+001	-1.306770e+002	-1.251373e+000	-1.059096e+002
110152015	-9.415979e-001	-1.071524e+002	-7.776548e+001	-1.416095e+002	-7.716298e+001	-1.593943e+002	-1.250174e+000	-1.059177e+002
110154015	-9.415947e-001	-1.071468e+002	-7.583053e+001	-1.724985e+002	-8.215584e+001	-1.386718e+002	-1.251465e+000	-1.059132e+002
110156016	-9.412114e-001	-1.071406e+002	-8.297939e+001	-1.685906e+002	-7.778829e+001	-1.670261e+002	-1.250640e+000	-1.059243e+002
110158016	-9.412177e-001	-1.071533e+002	-7.968379e+001	-1.712538e+002	-8.192364e+001	-1.469208e+002	-1.251483e+000	-1.059277e+002
110160016	-9.416363e-001	-1.071388e+002	-7.719679e+001	-1.500863e+002	-7.728494e+001	-1.769075e+002	-1.252742e+000	-1.059232e+002
110162016	-9.428135e-001	-1.071509e+002	-7.906188e+001	-1.510826e+002	-7.875948e+001	-1.567080e+002	-1.251053e+000	-1.059230e+002
110164016	-9.403255e-001	-1.071507e+002	-8.112867e+001	-1.557579e+002	-8.137947e+001	-1.492592e+002	-1.252503e+000	-1.059280e+002
110166017	-9.421823e-001	-1.071605e+002	-7.634611e+001	-1.554085e+002	-7.850484e+001	-1.645678e+002	-1.252038e+000	-1.059409e+002
110168017	-9.411509e-001	-1.071442e+002	-7.662262e+001	-1.759724e+002	-7.811578e+001	1.749077e+002	-1.251210e+000	-1.059588e+002
110170017	-9.421491e-001	-1.071619e+002	-7.757290e+001	-1.770562e+002	-7.983726e+001	1.732839e+002	-1.250273e+000	-1.059308e+002
110172017	-9.410692e-001	-1.071583e+002	-8.463762e+001	-1.557048e+002	-8.321074e+001	-1.758649e+002	-1.251998e+000	-1.059436e+002
110174017	-9.427337e-001	-1.071772e+002	-7.746632e+001	-1.579389e+002	-8.099184e+001	-1.587874e+002	-1.250379e+000	-1.059334e+002
110176018	-9.412766e-001	-1.071570e+002	-7.872101e+001	1.587745e+002	-7.968112e+001	-1.692329e+002	-1.252576e+000	-1.059481e+002
110178018	-9.424752e-001	-1.071606e+002	-8.234817e+001	-1.384791e+002	-8.065421e+001	-1.787224e+002	-1.250912e+000	-1.059427e+002
110180018	-9.417233e-001	-1.071748e+002	-8.104828e+001	-1.620701e+002	-7.789072e+001	-1.328653e+002	-1.252657e+000	-1.059428e+002
110182018	-9.430403e-001	-1.071702e+002	-8.002881e+001	-1.393885e+002	-7.668203e+001	-1.657428e+002	-1.254258e+000	-1.059472e+002
110184018	-9.408203e-001	-1.071629e+002	-7.738834e+001	-1.605022e+002	-8.290465e+001	-1.562717e+002	-1.250832e+000	-1.059403e+002
110186019	-9.410695e-001	-1.071682e+002	-8.415284e+001	-1.451878e+002	-7.599158e+001	-1.583148e+002	-1.251319e+000	-1.059538e+002
110188019	-9.434899e-001	-1.071832e+002	-7.963142e+001	-1.498814e+002	-8.316932e+001	-1.577437e+002	-1.252832e+000	-1.059424e+002
110190019	-9.423255e-001	-1.071664e+002	-7.483621e+001	-1.609232e+002	-8.264727e+001	-1.421975e+002	-1.255764e+000	-1.059519e+002
110192019	-9.418973e-001	-1.071724e+002	-8.109317e+001	-1.693851e+002	-8.309079e+001	-1.461938e+002	-1.250148e+000	-1.059476e+002
110194019	-9.419328e-001	-1.071830e+002	-7.584787e+001	-1.710511e+002	-7.992646e+001	1.555963e+002	-1.254074e+000	-1.059572e+002
110196020	-9.409903e-001	-1.071787e+002	-7.509164e+001	-1.556769e+002	-8.008477e+001	-1.602927e+002	-1.256747e+000	-1.059461e+002
110198020	-9.418123e-001	-1.071946e+002	-8.225133e+001	-1.726808e+002	-8.165997e+001	-1.458476e+002	-1.252760e+000	-1.059574e+002
110200020	-9.416654e-001	-1.071852e+002	-7.742703e+001	-1.653154e+002	-8.293304e+001	-1.594094e+002	-1.254799e+000	-1.059607e+002
110202020	-9.432454e-001	-1.071828e+002	-7.658542e+001	-1.564932e+002	-7.916844e+001	-1.447757e+002	-1.253048e+000	-1.059767e+002
110204020	-9.428527e-001	-1.071793e+002	-7.903273e+001	-1.447290e+002	-7.951913e+001	-1.495715e+002	-1.255097e+000	-1.059674e+002
110206021	-9.429488e-001	-1.071916e+002	-7.694400e+001	-1.685219e+002	-7.768246e+001	-1.529232e+002	-1.250929e+000	-1.059793e+002
110208021	-9.421783e-001	-1.071899e+002	-8.559681e+001	-1.431857e+002	-7.456168e+001	-1.472041e+002	-1.257234e+000	-1.059811e+002
110210021	-9.443812e-001	-1.071891e+002	-7.958527e+001	-1.584999e+002	-7.879782e+001	-1.516783e+002	-1.253487e+000	-1.059804e+002
110212021	-9.420547e-001	-1.071936e+002	-8.026303e+001	-1.332283e+002	-8.097381e+001	-1.586970e+002	-1.254492e+000	-1.059735e+002
110214021	-9.437460e-001	-1.071904e+002	-8.070815e+001	-1.669222e+002	-8.040812e+001	-1.456179e+002	-1.256917e+000	-1.059736e+002
110216022	-9.409969e-001	-1.071998e+002	-8.216859e+001	-1.511808e+002	-8.268806e+001	-1.640926e+002	-1.254949e+000	-1.059933e+002
110218022	-9.440146e-001	-1.071925e+002	-7.916717e+001	-1.421046e+002	-8.186933e+001	-1.379021e+002	-1.255410e+000	-1.059851e+002
110220022	-9.425391e-001	-1.072000e+002	-7.860763e+001	-1.641428e+002	-8.387956e+001	-1.554335e+002	-1.255621e+000	-1.059822e+002
110222022	-9.417550e-001	-1.072074e+002	-8.813856e+001	-1.556644e+002	-7.809796e+001	-1.533473e+002	-1.255628e+000	-1.059796e+002
110224022	-9.441471e-001	-1.072110e+002	-8.126645e+001	-1.656703e+002	-8.052465e+001	-1.403304e+002	-1.253758e+000	-1.059844e+002
110226023	-9.429110e-001	-1.072080e+002	-7.926985e+001	-1.750091e+002	-8.140089e+001	-1.612363e+002	-1.253030e+000	-1.059890e+002
110228023	-9.417945e-001	-1.072261e+002	-7.614642e+001	-1.690122e+002	-7.622096e+001	-1.624858e+002	-1.254762e+000	-1.060008e+002
110230023	-9.431473e-001	-1.072112e+002	-7.984591e+001	-1.560425e+002	-7.813043e+001	-1.457804e+002	-1.254675e+000	-1.059906e+002
110232023	-9.430417e-001	-1.072090e+002	-8.413892e+001	1.712979e+002	-8.102629e+001	-1.416630e+002	-1.254831e+000	-1.059977e+002
110234023	-9.423817e-001	-1.072251e+002	-8.044095e+001	1.790998e+002	-7.751041e+001	-1.505465e+002	-1.254507e+000	-1.060034e+002
110236024	-9.433132e-001	-1.072086e+002	-8.096823e+001	1.676858e+002	-7.963224e+001	-1.378700e+002	-1.255017e+000	-1.059946e+002
110238024	-9.443452e-001	-1.072225e+002	-7.777105e+001	-1.441206e+002	-7.895191e+001	-1.594510e+002	-1.255086e+000	-1.060046e+002
110240024	-9.431424e-001	-1.072235e+002	-7.934547e+001	-1.648256e+002	-7.786266e+001	-1.275667e+002	-1.254705e+000	-1.060059e+002
110242024	-9.447560e-001	-1.072203e+002	-8.114476e+001	-1.580254e+002	-7.761534e+001	-1.413202e+002	-1.254324e+000	-1.060054e+002
110244024	-9.425265e-001	-1.072297e+002	-7.708932e+001	-1.589889e+002	-7.839393e+001	-1.422948e+002	-1.255783e+000	-1.060001e+002
110246025	-9.421352e-001	-1.072253e+002	-8.270223e+001	1.699337e+002	-7.907844e+001	-1.604663e+002	-1.254580e+000	-1.060134e+002
110248025	-9.439630e-001	-1.072405e+002	-7.749743e+001	-1.335913e+002	-8.029932e+001	-1.470010e+002	-1.256042e+000	-1.060150e+002
110250025	-9.427826e-001	-1.072311e+002	-8.271760e+001	-1.668428e+002	-7.572059e+001	-1.555600e+002	-1.254421e+000	-1.060080e+002
110252025	-9.424740e-001	-1.072399e+002	-7.426475e+001	-1.459046e+002	-7.913094e+001	-1.479302e+002	-1.254285e+000	-1.059991e+002
110254025	-9.431357e-001	-1.072372e+002	-8.013079e+001	-1.724478e+002	-7.562532e+001	-1.414231e+002	-1.256933e+000	-1.060225e+002
110256026	-9.407089e-001	-1.072325e+002	-7.882299e+001	-1.177726e+002	-7.900691e+001	-1.304600e+002	-1.256327e+000	-1.060222e+002
110258026	-9.443741e-001	-1.072482e+002	-8.529784e+001	-1.749986e+002	-7.874998e+001	-1.585251e+002	-1.253842e+000	-1.060182e+002
110260026	-9.434138e-001	-1.072393e+002	-7.740948e+001	-1.635788e+002	-7.869524e+001	-1.257834e+002	-1.256628e+000	-1.060172e+002
110262026	-9.454615e-001	-1.072501e+002	-7.664612e+001	-1.335554e+002	-8.112723e+001	-1.248590e+002	-1.255884e+000	-1.060321e+002
110264026	-9.426154e-001	-1.072653e+002	-8.350733e+001	-1.100825e+002	-7.847913e+001	-1.662507e+002	-1.258487e+000	-1.060237e+002
110266027	-9.426577e-001	-1.072561e+002	-7.633463e+001	-1.567038e+002	-8.111453e+001	-1.480825e+002	-1.256372e+000	-1.060194e+002
110268027	-9.426871e-001	-1.072691e+002	-7.802291e+001	-1.624691e+002	-7.740324e+001	-1.488449e+002	-1.257309e+000	-1.060185e+002
110270027	-9.443055e-001	-1.072685e+002	-7.624750e+001	-1.538067e+002	-7.840855e+001	-1.548900e+002	-1.255305e+000	-1.060382e+002
110272027	-9.429003e-001	-1.072532e+002	-7.817323e+001	-1.686041e+002	-7.680169e+001	-1.415019e+002	-1.254480e+000	-1.060339e+002
110274027	-9.441440e-001	-1.072662e+002	-8.103623e+001	-1.693317e+002	-8.167093e+001	-1.721782e+002	-1.256492e+000	-1.060293e+002
110276028	-9.446440e-001	-1.072668e+002	-7.613592e+001	-1.582452e+002	-8.094890e+001	-1.375408e+002	-1.255571e+000	-1.060420e+002
110278028	-9.431757e-001	-1.072700e+002	-7.899979e+001	1.772491e+002	-7.681340e+001	-1.440362e+002	-1.254680e+000	-1.060368e+002
110280028	-9.423289e-001	-1.072444e+002	-7.769105e+001	1.742528e+002	-8.087933e+001	-1.712516e+002	-1.256857e+000	-1.060351e+002
110282028	-9.459823e-001	-1.072609e+002	-7.638402e+001	-1.395888e+002	-7.587720e+001	-1.422197e+002	-1.255492e+000	-1.060417e+002
110284028	-9.448032e-001	-1.072634e+002	-7.863499e+001	-1.338616e+002	-8.105481e+001	-1.727067e+002	-1.257468e+000	-1.060563e+002
110286029	-9.435638e-001	-1.072776e+002	-7.849176e+001	-1.419076e+002	-7.766981e+001	-1.623814e+002	-1.254860e+000	-1.060423e+002
110288029	-9.440037e-001	-1.072793e+002	-7.765505e+001	-1.531941e+002	-7.576693e+001	-1.610461e+002	-1.256163e+000	-1.060527e+002
110290029	-9.446982e-001	-1.072722e+002	-7.798067e+001	-1.355785e+002	-7.438043e+001	-1.473705e+002	-1.254910e+000	-1.060670e+002
110292029	-9.427204e-001	-1.072851e+002	-7.560333e+001	-1.667762e+002	-8.157057e+001	-1.370755e+002	-1.254547e+000	-1.060554e+002
110294029	-9.421982e-001	-1.072888e+002	-7.925575e+001	-1.535222e+002	-7.956761e+001	-1.266442e+002	-1.255927e+000	-1.060607e+002
110296030	-9.441086e-001	-1.072735e+002	-7.742277e+001	-1.431769e+002	-7.689298e+001	-1.429440e+002	-1.256118e+000	-1.060609e+002
110298030	-9.430643e-001	-1.072820e+002	-7.777001e+001	-1.467358e+002	-7.893957e+001	-1.522803e+002	-1.255814e+000	-1.060573e+002
110300030	-9.449306e-001	-1.072954e+002	-8.516489e+001	-1.788641e+002	-8.064845e+001	-1.462983e+002	-1.257109e+000	-1.060598e+002
