!Agilent Technologies,E5071C,MY46520923,B.12.03
!Date: Tue Feb 06 11:05:24 2024
!Data & Calibration Information:
!Freq	S11:SOLT2(ON)	S21:SOLT2(ON)	S12:SOLT2(ON)	S22:SOLT2(ON)
!PortZ  Port1:50+j0    Port2:50+j0
!Above PortZ is port z conversion or system Z0 setting when saving the data.
!When reading, reference impedance value at option line is always used.
# Hz S dB R 50
110000000	-1.019594e+000	-1.078897e+002	-7.925723e+001	1.647521e+002	-7.950127e+001	-1.539129e+002	-1.236340e+000	-1.052658e+002
110002000	-1.021273e+000	-1.078863e+002	-8.504324e+001	-1.705685e+002	-8.237685e+001	1.737394e+002	-1.236034e+000	-1.052761e+002
110004000	-1.020696e+000	-1.078882e+002	-7.613750e+001	-1.781520e+002	-7.818780e+001	-1.611685e+002	-1.236235e+000	-1.052668e+002
110006001	-1.018957e+000	-1.078979e+002	-7.930806e+001	-1.707881e+002	-8.083045e+001	-1.677864e+002	-1.237843e+000	-1.052694e+002
110008001	-1.019897e+000	-1.078830e+002	-8.114824e+001	1.761237e+002	-7.944578e+001	-1.774304e+002	-1.237231e+000	-1.052648e+002
110010001	-1.020202e+000	-1.078863e+002	-7.823791e+001	1.671609e+002	-8.034241e+001	-1.614838e+002	-1.236746e+000	-1.052755e+002
110012001	-1.022697e+000	-1.078964e+002	-7.835888e+001	1.786685e+002	-8.162235e+001	-1.549434e+002	-1.239112e+000	-1.052779e+002
110014001	-1.020528e+000	-1.078976e+002	-8.341578e+001	-1.336980e+002	-7.803153e+001	-1.684659e+002	-1.234877e+000	-1.052748e+002
110016002	-1.021709e+000	-1.079062e+002	-7.946451e+001	-1.488555e+002	-7.783323e+001	-1.559402e+002	-1.237666e+000	-1.052789e+002
110018002	-1.021142e+000	-1.078916e+002	-8.515200e+001	-1.525841e+002	-7.762696e+001	-1.517047e+002	-1.235603e+000	-1.052915e+002
110020002	-1.022022e+000	-1.078948e+002	-8.361690e+001	1.747819e+002	-8.053464e+001	-1.495197e+002	-1.238320e+000	-1.052630e+002
110022002	-1.022090e+000	-1.079061e+002	-7.799645e+001	-1.540126e+002	-7.826091e+001	-1.640331e+002	-1.237637e+000	-1.052914e+002
110024002	-1.020284e+000	-1.079038e+002	-7.912916e+001	-1.767395e+002	-8.182233e+001	1.706534e+002	-1.238558e+000	-1.052926e+002
110026003	-1.021715e+000	-1.079250e+002	-8.011509e+001	-1.657711e+002	-8.474273e+001	-1.505632e+002	-1.237019e+000	-1.052936e+002
110028003	-1.021371e+000	-1.079258e+002	-7.722734e+001	-1.507958e+002	-8.155451e+001	-1.684382e+002	-1.238282e+000	-1.052827e+002
110030003	-1.024074e+000	-1.079046e+002	-8.771394e+001	1.465304e+002	-8.065412e+001	-1.480140e+002	-1.238125e+000	-1.052828e+002
110032003	-1.022428e+000	-1.079126e+002	-7.686528e+001	-1.545534e+002	-7.846742e+001	1.654682e+002	-1.235258e+000	-1.052837e+002
110034003	-1.023089e+000	-1.079171e+002	-8.707709e+001	1.285920e+002	-8.240404e+001	1.610257e+002	-1.236355e+000	-1.052877e+002
110036004	-1.022175e+000	-1.079187e+002	-8.062529e+001	1.639965e+002	-7.883006e+001	-1.603033e+002	-1.236362e+000	-1.052838e+002
110038004	-1.022183e+000	-1.079271e+002	-8.057223e+001	-1.514992e+002	-7.814546e+001	-1.741616e+002	-1.236789e+000	-1.052856e+002
110040004	-1.019578e+000	-1.079329e+002	-7.705218e+001	-1.401853e+002	-7.838976e+001	-1.286650e+002	-1.236626e+000	-1.052951e+002
110042004	-1.022702e+000	-1.079327e+002	-7.793717e+001	-1.707515e+002	-8.097615e+001	-1.539857e+002	-1.237002e+000	-1.052976e+002
110044004	-1.020955e+000	-1.079316e+002	-8.043754e+001	-1.611331e+002	-7.881183e+001	-1.279552e+002	-1.238550e+000	-1.052938e+002
110046005	-1.023727e+000	-1.079283e+002	-8.025781e+001	-1.646028e+002	-7.910466e+001	-1.643639e+002	-1.235834e+000	-1.052995e+002
110048005	-1.023047e+000	-1.079246e+002	-7.540262e+001	-1.785310e+002	-7.680490e+001	-1.564078e+002	-1.237218e+000	-1.053008e+002
110050005	-1.021565e+000	-1.079213e+002	-7.562923e+001	-1.598812e+002	-8.153127e+001	-1.521761e+002	-1.238527e+000	-1.052980e+002
110052005	-1.025198e+000	-1.079255e+002	-8.050340e+001	-1.551475e+002	-8.055806e+001	1.775266e+002	-1.237244e+000	-1.053102e+002
110054005	-1.024149e+000	-1.079296e+002	-8.153573e+001	-1.512134e+002	-8.151087e+001	1.701439e+002	-1.238400e+000	-1.053220e+002
110056006	-1.020984e+000	-1.079389e+002	-8.378334e+001	-1.732050e+002	-7.896779e+001	-1.612566e+002	-1.237991e+000	-1.053158e+002
110058006	-1.022231e+000	-1.079305e+002	-8.459315e+001	1.782417e+002	-7.925962e+001	-1.634216e+002	-1.237123e+000	-1.053184e+002
110060006	-1.022711e+000	-1.079531e+002	-7.956825e+001	1.703162e+002	-7.903670e+001	-1.734608e+002	-1.237203e+000	-1.053341e+002
110062006	-1.023075e+000	-1.079390e+002	-7.858666e+001	1.751811e+002	-8.033618e+001	-1.757200e+002	-1.236569e+000	-1.053255e+002
110064006	-1.023413e+000	-1.079354e+002	-7.783713e+001	-1.680430e+002	-8.219768e+001	-1.675620e+002	-1.239521e+000	-1.053271e+002
110066007	-1.021806e+000	-1.079519e+002	-7.991981e+001	-1.645866e+002	-8.284730e+001	-1.697236e+002	-1.238207e+000	-1.053317e+002
110068007	-1.023119e+000	-1.079553e+002	-7.663505e+001	1.590374e+002	-7.741359e+001	-1.585451e+002	-1.237563e+000	-1.053282e+002
110070007	-1.023597e+000	-1.079535e+002	-7.557935e+001	-1.503569e+002	-7.925404e+001	-1.570857e+002	-1.236861e+000	-1.053281e+002
110072007	-1.022780e+000	-1.079447e+002	-7.992813e+001	1.763240e+002	-8.420817e+001	1.547811e+002	-1.238278e+000	-1.053183e+002
110074007	-1.021064e+000	-1.079566e+002	-7.736940e+001	-1.720009e+002	-8.421900e+001	-1.584228e+002	-1.237225e+000	-1.053201e+002
110076008	-1.021606e+000	-1.079500e+002	-8.233728e+001	1.760601e+002	-7.651790e+001	-1.548860e+002	-1.239617e+000	-1.053353e+002
110078008	-1.022145e+000	-1.079640e+002	-8.027359e+001	-1.749497e+002	-8.128525e+001	-1.694641e+002	-1.239885e+000	-1.053401e+002
110080008	-1.023443e+000	-1.079550e+002	-7.689513e+001	-1.495118e+002	-7.896978e+001	1.736363e+002	-1.239493e+000	-1.053373e+002
110082008	-1.023557e+000	-1.079660e+002	-7.714079e+001	-1.532142e+002	-8.142771e+001	-1.709622e+002	-1.239465e+000	-1.053419e+002
110084008	-1.024317e+000	-1.079608e+002	-7.781844e+001	-1.610378e+002	-8.007392e+001	-1.764782e+002	-1.240826e+000	-1.053392e+002
110086009	-1.022326e+000	-1.079534e+002	-8.044911e+001	1.673303e+002	-7.739725e+001	1.754767e+002	-1.240363e+000	-1.053486e+002
110088009	-1.024698e+000	-1.079653e+002	-8.278189e+001	-1.722035e+002	-7.904015e+001	-1.663391e+002	-1.238775e+000	-1.053348e+002
110090009	-1.022967e+000	-1.079618e+002	-7.864145e+001	-1.606434e+002	-8.089449e+001	-1.691097e+002	-1.236769e+000	-1.053419e+002
110092009	-1.024132e+000	-1.079759e+002	-7.918045e+001	-1.416079e+002	-8.201464e+001	-1.471747e+002	-1.238504e+000	-1.053477e+002
110094009	-1.022665e+000	-1.079737e+002	-7.667018e+001	-1.499347e+002	-7.693284e+001	-1.689677e+002	-1.236872e+000	-1.053426e+002
110096010	-1.024092e+000	-1.079819e+002	-7.482918e+001	-1.602214e+002	-7.988897e+001	-1.568494e+002	-1.238164e+000	-1.053453e+002
110098010	-1.021792e+000	-1.079766e+002	-7.863498e+001	-1.625624e+002	-7.835369e+001	-1.573693e+002	-1.237722e+000	-1.053556e+002
110100010	-1.023306e+000	-1.079616e+002	-8.457178e+001	-1.472176e+002	-7.665248e+001	-1.388043e+002	-1.238815e+000	-1.053505e+002
110102010	-1.023790e+000	-1.079805e+002	-7.768169e+001	-1.471223e+002	-8.515187e+001	1.787787e+002	-1.240097e+000	-1.053596e+002
110104010	-1.023119e+000	-1.079845e+002	-7.966506e+001	-1.774533e+002	-7.803257e+001	-1.556525e+002	-1.237253e+000	-1.053549e+002
110106011	-1.023253e+000	-1.079896e+002	-8.083239e+001	-1.546304e+002	-7.787381e+001	-1.673409e+002	-1.239906e+000	-1.053749e+002
110108011	-1.023928e+000	-1.079882e+002	-8.408401e+001	-1.680821e+002	-7.565357e+001	1.695857e+002	-1.239873e+000	-1.053446e+002
110110011	-1.024714e+000	-1.079812e+002	-8.164362e+001	1.719518e+002	-8.037978e+001	-1.529907e+002	-1.238731e+000	-1.053818e+002
110112011	-1.021455e+000	-1.079853e+002	-8.141813e+001	1.754673e+002	-8.269745e+001	-1.585660e+002	-1.239423e+000	-1.053693e+002
110114011	-1.022280e+000	-1.079888e+002	-8.029577e+001	1.704892e+002	-7.976523e+001	-1.701431e+002	-1.237882e+000	-1.053690e+002
110116012	-1.024417e+000	-1.079821e+002	-8.074154e+001	-1.681257e+002	-8.289005e+001	-1.745730e+002	-1.241471e+000	-1.053590e+002
110118012	-1.022614e+000	-1.080017e+002	-7.784141e+001	1.654502e+002	-7.750939e+001	-1.627434e+002	-1.239557e+000	-1.053690e+002
110120012	-1.022955e+000	-1.079953e+002	-7.825546e+001	-1.552455e+002	-8.447948e+001	-1.639405e+002	-1.237982e+000	-1.053580e+002
110122012	-1.021427e+000	-1.079976e+002	-7.668409e+001	-1.636776e+002	-7.944266e+001	1.563608e+002	-1.238540e+000	-1.053864e+002
110124012	-1.021149e+000	-1.079941e+002	-7.835001e+001	1.777131e+002	-8.261057e+001	-1.446228e+002	-1.237901e+000	-1.053672e+002
110126013	-1.020948e+000	-1.080009e+002	-8.887413e+001	-1.519365e+002	-8.459269e+001	-1.404555e+002	-1.241826e+000	-1.053793e+002
110128013	-1.022602e+000	-1.079766e+002	-8.511487e+001	1.562897e+002	-8.715404e+001	-1.417092e+002	-1.238955e+000	-1.053825e+002
110130013	-1.022315e+000	-1.079961e+002	-7.868294e+001	-1.331217e+002	-7.727728e+001	1.740471e+002	-1.239466e+000	-1.053881e+002
110132013	-1.022376e+000	-1.080091e+002	-8.029812e+001	-1.725335e+002	-7.952807e+001	-1.568527e+002	-1.240376e+000	-1.053932e+002
110134013	-1.024378e+000	-1.080049e+002	-8.379593e+001	-1.696391e+002	-7.688578e+001	-1.704990e+002	-1.239530e+000	-1.053800e+002
110136014	-1.024949e+000	-1.080208e+002	-7.834888e+001	-1.465240e+002	-7.847577e+001	-1.495262e+002	-1.238156e+000	-1.053824e+002
110138014	-1.023224e+000	-1.080104e+002	-7.992342e+001	-1.744640e+002	-7.761408e+001	-1.652507e+002	-1.239043e+000	-1.053789e+002
110140014	-1.023508e+000	-1.080086e+002	-7.884086e+001	1.703241e+002	-8.940907e+001	-1.634720e+002	-1.240085e+000	-1.053894e+002
110142014	-1.024212e+000	-1.080196e+002	-8.166096e+001	-1.213303e+002	-7.921112e+001	-1.569521e+002	-1.241431e+000	-1.053885e+002
110144014	-1.023307e+000	-1.080139e+002	-7.711976e+001	1.776665e+002	-7.705169e+001	-1.478073e+002	-1.240782e+000	-1.054022e+002
110146015	-1.023480e+000	-1.080105e+002	-7.984635e+001	-1.765537e+002	-7.871255e+001	-1.378904e+002	-1.239897e+000	-1.054120e+002
110148015	-1.026126e+000	-1.080179e+002	-7.826643e+001	1.760167e+002	-7.972863e+001	-1.757778e+002	-1.240142e+000	-1.054011e+002
110150015	-1.023820e+000	-1.080391e+002	-8.190288e+001	-1.503975e+002	-7.990403e+001	-1.487890e+002	-1.241931e+000	-1.053799e+002
110152015	-1.023345e+000	-1.080190e+002	-7.982903e+001	-1.383146e+002	-8.315452e+001	1.408478e+002	-1.240345e+000	-1.054152e+002
110154015	-1.025109e+000	-1.080369e+002	-8.111421e+001	1.707855e+002	-7.963067e+001	-1.422137e+002	-1.239643e+000	-1.054042e+002
110156016	-1.023610e+000	-1.080208e+002	-7.876464e+001	-1.673183e+002	-8.086801e+001	-1.511783e+002	-1.240366e+000	-1.054101e+002
110158016	-1.021379e+000	-1.080383e+002	-7.937224e+001	1.732682e+002	-7.845468e+001	-1.638382e+002	-1.240920e+000	-1.054114e+002
110160016	-1.024167e+000	-1.080325e+002	-8.164926e+001	-1.450567e+002	-7.722913e+001	-1.559459e+002	-1.240361e+000	-1.054099e+002
110162016	-1.022778e+000	-1.080400e+002	-7.968070e+001	1.792327e+002	-7.737293e+001	-1.617078e+002	-1.241300e+000	-1.053974e+002
110164016	-1.025507e+000	-1.080429e+002	-8.658082e+001	-1.160142e+002	-8.119395e+001	-1.358152e+002	-1.241296e+000	-1.054057e+002
110166017	-1.023341e+000	-1.080348e+002	-7.905670e+001	-1.593613e+002	-7.586321e+001	-1.442867e+002	-1.240972e+000	-1.054064e+002
110168017	-1.023560e+000	-1.080525e+002	-8.812870e+001	1.113580e+002	-8.600875e+001	-1.668932e+002	-1.240659e+000	-1.054157e+002
110170017	-1.022170e+000	-1.080488e+002	-7.966123e+001	-1.411740e+002	-7.700737e+001	-1.502975e+002	-1.241284e+000	-1.054115e+002
110172017	-1.024721e+000	-1.080503e+002	-7.741403e+001	-1.422346e+002	-7.966234e+001	-1.721901e+002	-1.240184e+000	-1.054132e+002
110174017	-1.022489e+000	-1.080405e+002	-9.356210e+001	1.274479e+002	-7.803908e+001	-1.591495e+002	-1.241575e+000	-1.054362e+002
110176018	-1.025577e+000	-1.080466e+002	-7.874350e+001	-1.760227e+002	-7.939383e+001	-1.382402e+002	-1.241815e+000	-1.054309e+002
110178018	-1.024882e+000	-1.080529e+002	-7.835509e+001	-1.464875e+002	-8.131525e+001	-1.534075e+002	-1.239251e+000	-1.054160e+002
110180018	-1.024602e+000	-1.080571e+002	-8.406727e+001	-1.607424e+002	-7.747275e+001	-1.540194e+002	-1.241230e+000	-1.054305e+002
110182018	-1.022906e+000	-1.080569e+002	-8.013040e+001	-1.574965e+002	-8.574463e+001	1.325849e+002	-1.239719e+000	-1.054383e+002
110184018	-1.022726e+000	-1.080695e+002	-8.126365e+001	-1.459483e+002	-8.163289e+001	-1.767437e+002	-1.241142e+000	-1.054140e+002
110186019	-1.022345e+000	-1.080528e+002	-7.698094e+001	-1.706299e+002	-7.726319e+001	-1.768155e+002	-1.240675e+000	-1.054171e+002
110188019	-1.023964e+000	-1.080567e+002	-7.770127e+001	1.679660e+002	-8.317583e+001	1.763824e+002	-1.241578e+000	-1.054266e+002
110190019	-1.023921e+000	-1.080620e+002	-8.091675e+001	-1.618318e+002	-8.589354e+001	-1.343624e+002	-1.241333e+000	-1.054357e+002
110192019	-1.024478e+000	-1.080673e+002	-7.737880e+001	-1.684440e+002	-7.597729e+001	-1.729768e+002	-1.239981e+000	-1.054326e+002
110194019	-1.025281e+000	-1.080885e+002	-7.841347e+001	-1.577461e+002	-8.058941e+001	-1.612176e+002	-1.241957e+000	-1.054308e+002
110196020	-1.025137e+000	-1.080764e+002	-7.912549e+001	-1.164182e+002	-8.713445e+001	-1.783851e+002	-1.243461e+000	-1.054451e+002
110198020	-1.024238e+000	-1.080743e+002	-7.923871e+001	1.714611e+002	-7.844157e+001	1.785676e+002	-1.241997e+000	-1.054343e+002
110200020	-1.023347e+000	-1.080723e+002	-7.980286e+001	1.779610e+002	-8.187991e+001	-1.442738e+002	-1.239643e+000	-1.054547e+002
110202020	-1.024174e+000	-1.080740e+002	-7.850380e+001	-1.368848e+002	-7.666703e+001	-1.685498e+002	-1.243348e+000	-1.054439e+002
110204020	-1.026690e+000	-1.080781e+002	-7.739650e+001	-1.542446e+002	-8.109079e+001	1.641753e+002	-1.239406e+000	-1.054624e+002
110206021	-1.023403e+000	-1.080724e+002	-7.814633e+001	-1.486830e+002	-8.350539e+001	-1.371836e+002	-1.240687e+000	-1.054651e+002
110208021	-1.022892e+000	-1.080841e+002	-8.044512e+001	-1.548075e+002	-8.054821e+001	-1.538844e+002	-1.240829e+000	-1.054774e+002
110210021	-1.023892e+000	-1.080864e+002	-8.076665e+001	-1.654773e+002	-7.734932e+001	-1.752057e+002	-1.239597e+000	-1.054557e+002
110212021	-1.024552e+000	-1.080882e+002	-8.274024e+001	-1.438813e+002	-7.981321e+001	-1.464791e+002	-1.240341e+000	-1.054645e+002
110214021	-1.025328e+000	-1.080674e+002	-7.964920e+001	-1.410707e+002	-7.785506e+001	-1.341698e+002	-1.242477e+000	-1.054669e+002
110216022	-1.023739e+000	-1.080877e+002	-8.656203e+001	1.788060e+002	-7.993295e+001	-1.690126e+002	-1.242651e+000	-1.054496e+002
110218022	-1.027519e+000	-1.080791e+002	-8.816632e+001	-1.273554e+002	-8.053258e+001	-1.538599e+002	-1.240375e+000	-1.054697e+002
110220022	-1.023623e+000	-1.080963e+002	-7.970717e+001	-1.751173e+002	-7.961831e+001	-1.211377e+002	-1.241131e+000	-1.054673e+002
110222022	-1.025986e+000	-1.081054e+002	-7.755535e+001	-1.735499e+002	-8.337476e+001	-1.197817e+002	-1.241515e+000	-1.054754e+002
110224022	-1.023214e+000	-1.081019e+002	-8.077935e+001	-9.043011e+001	-8.639744e+001	-1.647323e+002	-1.242872e+000	-1.054622e+002
110226023	-1.026118e+000	-1.081063e+002	-8.222558e+001	-1.213091e+002	-7.816883e+001	-1.449412e+002	-1.243067e+000	-1.054749e+002
110228023	-1.026859e+000	-1.081075e+002	-7.738121e+001	-1.683892e+002	-8.272945e+001	-1.305506e+002	-1.241258e+000	-1.054817e+002
110230023	-1.024450e+000	-1.080848e+002	-7.592968e+001	-1.529150e+002	-8.229104e+001	-1.764597e+002	-1.242092e+000	-1.054657e+002
110232023	-1.023791e+000	-1.081098e+002	-8.207963e+001	-1.699055e+002	-7.933387e+001	-1.535865e+002	-1.241085e+000	-1.054630e+002
110234023	-1.024472e+000	-1.081032e+002	-8.543659e+001	1.720367e+002	-8.063149e+001	-1.500469e+002	-1.241196e+000	-1.054742e+002
110236024	-1.025761e+000	-1.081035e+002	-7.911781e+001	-1.722635e+002	-7.889992e+001	-1.568850e+002	-1.244509e+000	-1.054741e+002
110238024	-1.025546e+000	-1.081116e+002	-7.681958e+001	-1.394216e+002	-7.735680e+001	-1.649095e+002	-1.243390e+000	-1.054781e+002
110240024	-1.025746e+000	-1.081134e+002	-8.188216e+001	-1.231761e+002	-7.804391e+001	-1.590227e+002	-1.243051e+000	-1.054761e+002
110242024	-1.026621e+000	-1.081089e+002	-8.150700e+001	-1.466190e+002	-8.375612e+001	-1.325802e+002	-1.244209e+000	-1.054773e+002
110244024	-1.024212e+000	-1.081234e+002	-7.887717e+001	-1.482533e+002	-7.573295e+001	-1.436278e+002	-1.242851e+000	-1.054816e+002
110246025	-1.025180e+000	-1.081231e+002	-7.821778e+001	-1.269741e+002	-8.347601e+001	-1.718307e+002	-1.244525e+000	-1.054816e+002
110248025	-1.025659e+000	-1.081275e+002	-8.203977e+001	-1.556761e+002	-7.522398e+001	-1.566276e+002	-1.243155e+000	-1.055017e+002
110250025	-1.026745e+000	-1.081233e+002	-8.101221e+001	-1.449785e+002	-7.912126e+001	-1.776483e+002	-1.241757e+000	-1.054991e+002
110252025	-1.023681e+000	-1.081222e+002	-7.710914e+001	-1.585582e+002	-7.696662e+001	-1.286550e+002	-1.243228e+000	-1.054979e+002
110254025	-1.023537e+000	-1.081283e+002	-8.413580e+001	-1.400406e+002	-7.897025e+001	-1.680328e+002	-1.241256e+000	-1.054897e+002
110256026	-1.026344e+000	-1.081281e+002	-7.797202e+001	-1.480080e+002	-8.036537e+001	-1.182506e+002	-1.241441e+000	-1.054996e+002
110258026	-1.024848e+000	-1.081289e+002	-7.922733e+001	-9.848438e+001	-7.895768e+001	-1.680205e+002	-1.243658e+000	-1.055183e+002
110260026	-1.025306e+000	-1.081272e+002	-7.832866e+001	-1.539583e+002	-8.047235e+001	-1.683420e+002	-1.241788e+000	-1.055097e+002
110262026	-1.025296e+000	-1.081323e+002	-8.379016e+001	-1.391921e+002	-8.227536e+001	1.788820e+002	-1.243107e+000	-1.055184e+002
110264026	-1.025429e+000	-1.081333e+002	-8.051734e+001	-1.397487e+002	-7.880694e+001	-1.395467e+002	-1.243103e+000	-1.055063e+002
110266027	-1.027295e+000	-1.081282e+002	-7.968268e+001	-1.443837e+002	-8.026959e+001	-1.407133e+002	-1.242533e+000	-1.055085e+002
110268027	-1.028269e+000	-1.081434e+002	-8.286929e+001	1.508427e+002	-8.568264e+001	-1.642669e+002	-1.244261e+000	-1.055181e+002
110270027	-1.027263e+000	-1.081307e+002	-8.084601e+001	-1.567114e+002	-7.909967e+001	-1.421158e+002	-1.244486e+000	-1.055141e+002
110272027	-1.024712e+000	-1.081361e+002	-7.868276e+001	-1.475419e+002	-7.920610e+001	-1.407882e+002	-1.241638e+000	-1.055212e+002
110274027	-1.025206e+000	-1.081461e+002	-8.126732e+001	-1.265215e+002	-7.954155e+001	-1.490205e+002	-1.242478e+000	-1.055233e+002
110276028	-1.025735e+000	-1.081484e+002	-7.861436e+001	-1.660616e+002	-8.163144e+001	-1.695145e+002	-1.243084e+000	-1.054996e+002
110278028	-1.028615e+000	-1.081349e+002	-8.049411e+001	-1.344214e+002	-7.963183e+001	-1.664170e+002	-1.242912e+000	-1.055261e+002
110280028	-1.028541e+000	-1.081581e+002	-7.815664e+001	-1.486044e+002	-7.935559e+001	-1.577331e+002	-1.244208e+000	-1.055135e+002
110282028	-1.026638e+000	-1.081660e+002	-7.584557e+001	-1.571700e+002	-7.833162e+001	-1.455591e+002	-1.245352e+000	-1.055061e+002
110284028	-1.027496e+000	-1.081525e+002	-8.122229e+001	-1.564067e+002	-8.186704e+001	-1.269632e+002	-1.243511e+000	-1.055295e+002
110286029	-1.025159e+000	-1.081638e+002	-8.901335e+001	-1.578025e+002	-7.834695e+001	-1.268943e+002	-1.245055e+000	-1.055176e+002
110288029	-1.028682e+000	-1.081657e+002	-7.842975e+001	-1.379931e+002	-7.782323e+001	-1.669673e+002	-1.244543e+000	-1.055291e+002
110290029	-1.028323e+000	-1.081628e+002	-8.367853e+001	1.785467e+002	-8.060521e+001	-1.437265e+002	-1.246967e+000	-1.055244e+002
110292029	-1.024227e+000	-1.081674e+002	-7.711489e+001	-1.584872e+002	-8.056644e+001	-1.359652e+002	-1.244029e+000	-1.055337e+002
110294029	-1.027774e+000	-1.081612e+002	-7.911015e+001	-1.177088e+002	-8.025397e+001	-1.405595e+002	-1.242751e+000	-1.055339e+002
110296030	-1.026341e+000	-1.081672e+002	-8.301776e+001	-1.496615e+002	-8.105976e+001	-1.454544e+002	-1.245624e+000	-1.055387e+002
110298030	-1.024690e+000	-1.081761e+002	-8.111924e+001	-1.432683e+002	-8.297777e+001	-1.215945e+002	-1.244424e+000	-1.055459e+002
110300030	-1.025075e+000	-1.081915e+002	-7.720200e+001	-1.763562e+002	-7.825472e+001	-1.294766e+002	-1.242071e+000	-1.055556e+002
