!Agilent Technologies,E5071C,MY46520923,B.12.03
!Date: Tue Feb 06 10:06:24 2024
!Data & Calibration Information:
!Freq	S11:SOLT2(ON)	S21:SOLT2(ON)	S12:SOLT2(ON)	S22:SOLT2(ON)
!PortZ  Port1:50+j0    Port2:50+j0
!Above PortZ is port z conversion or system Z0 setting when saving the data.
!When reading, reference impedance value at option line is always used.
# Hz S dB R 50
110000000	-9.335257e-001	-1.078604e+002	-8.623164e+001	1.746749e+002	-8.176081e+001	-1.356117e+002	-1.126977e+000	-1.056828e+002
110002000	-9.318274e-001	-1.078472e+002	-7.635706e+001	-1.486066e+002	-7.830536e+001	-1.687130e+002	-1.128881e+000	-1.056797e+002
110004000	-9.323689e-001	-1.078600e+002	-7.751493e+001	-1.634322e+002	-7.789021e+001	-1.772365e+002	-1.127714e+000	-1.056805e+002
110006001	-9.337578e-001	-1.078707e+002	-8.600656e+001	1.677441e+002	-7.632623e+001	-1.588963e+002	-1.127241e+000	-1.056802e+002
110008001	-9.339919e-001	-1.078615e+002	-7.990251e+001	-1.562647e+002	-8.847492e+001	-1.302721e+002	-1.129752e+000	-1.056926e+002
110010001	-9.331298e-001	-1.078607e+002	-8.526094e+001	-1.545158e+002	-8.017601e+001	-1.725001e+002	-1.129760e+000	-1.056788e+002
110012001	-9.333590e-001	-1.078632e+002	-7.520988e+001	-1.738073e+002	-7.948828e+001	-1.413953e+002	-1.128700e+000	-1.056752e+002
110014001	-9.324716e-001	-1.078808e+002	-7.838744e+001	1.753443e+002	-7.869540e+001	1.647414e+002	-1.129704e+000	-1.056857e+002
110016002	-9.363884e-001	-1.078694e+002	-8.065187e+001	-1.759345e+002	-7.930658e+001	-1.473714e+002	-1.130877e+000	-1.056899e+002
110018002	-9.319325e-001	-1.078725e+002	-7.853366e+001	1.793938e+002	-8.090157e+001	-1.562577e+002	-1.127582e+000	-1.056997e+002
110020002	-9.303918e-001	-1.078752e+002	-7.596496e+001	-1.738274e+002	-7.782645e+001	-1.523345e+002	-1.133306e+000	-1.056824e+002
110022002	-9.339159e-001	-1.078668e+002	-7.704154e+001	-1.782492e+002	-7.881800e+001	-1.763544e+002	-1.129021e+000	-1.056842e+002
110024002	-9.343023e-001	-1.078681e+002	-7.554401e+001	-1.479117e+002	-7.561490e+001	-1.743731e+002	-1.132039e+000	-1.056813e+002
110026003	-9.332618e-001	-1.078692e+002	-8.008392e+001	-1.453320e+002	-7.919023e+001	-1.778362e+002	-1.130529e+000	-1.056820e+002
110028003	-9.346955e-001	-1.078763e+002	-7.737100e+001	-1.656700e+002	-7.692353e+001	-1.597664e+002	-1.131221e+000	-1.056853e+002
110030003	-9.317832e-001	-1.078892e+002	-7.876839e+001	1.467727e+002	-7.736083e+001	-1.568184e+002	-1.131943e+000	-1.056971e+002
110032003	-9.310127e-001	-1.078792e+002	-7.633388e+001	-1.694675e+002	-7.843762e+001	-1.594517e+002	-1.130644e+000	-1.057002e+002
110034003	-9.345103e-001	-1.078716e+002	-7.726258e+001	1.797480e+002	-7.863915e+001	-1.597370e+002	-1.129575e+000	-1.057043e+002
110036004	-9.339848e-001	-1.078937e+002	-7.541398e+001	-1.525562e+002	-7.915596e+001	-1.778030e+002	-1.128196e+000	-1.057135e+002
110038004	-9.357189e-001	-1.078816e+002	-8.089293e+001	-1.376257e+002	-7.770048e+001	1.641804e+002	-1.130218e+000	-1.057078e+002
110040004	-9.354102e-001	-1.079052e+002	-7.773026e+001	-1.765998e+002	-7.744455e+001	-1.593309e+002	-1.131736e+000	-1.057153e+002
110042004	-9.326703e-001	-1.078948e+002	-7.975241e+001	1.798033e+002	-7.895541e+001	-1.706963e+002	-1.129492e+000	-1.057080e+002
110044004	-9.347528e-001	-1.078938e+002	-7.860779e+001	-1.624398e+002	-7.804934e+001	-1.576770e+002	-1.129338e+000	-1.057129e+002
110046005	-9.336419e-001	-1.079014e+002	-8.058550e+001	-1.482613e+002	-7.801888e+001	-1.796542e+002	-1.129161e+000	-1.057147e+002
110048005	-9.347155e-001	-1.079037e+002	-7.933091e+001	-1.788053e+002	-7.941573e+001	1.633617e+002	-1.129386e+000	-1.057195e+002
110050005	-9.357596e-001	-1.078946e+002	-8.071655e+001	-1.743608e+002	-7.605390e+001	-1.770782e+002	-1.128585e+000	-1.057275e+002
110052005	-9.335309e-001	-1.079128e+002	-7.835718e+001	1.689111e+002	-8.085501e+001	-1.562122e+002	-1.132785e+000	-1.057273e+002
110054005	-9.331852e-001	-1.078967e+002	-7.928983e+001	-1.676940e+002	-8.181717e+001	1.662899e+002	-1.130040e+000	-1.057230e+002
110056006	-9.351627e-001	-1.078972e+002	-7.856662e+001	1.728700e+002	-8.278531e+001	-1.629612e+002	-1.129311e+000	-1.057436e+002
110058006	-9.367530e-001	-1.079010e+002	-7.783190e+001	1.747518e+002	-7.985508e+001	-1.313684e+002	-1.131849e+000	-1.057283e+002
110060006	-9.343352e-001	-1.079191e+002	-8.227072e+001	-1.475461e+002	-8.421783e+001	-1.473061e+002	-1.131938e+000	-1.057419e+002
110062006	-9.353338e-001	-1.079186e+002	-7.778384e+001	-1.504161e+002	-8.037352e+001	1.605905e+002	-1.133999e+000	-1.057231e+002
110064006	-9.330451e-001	-1.079141e+002	-7.948650e+001	-1.620474e+002	-8.192536e+001	1.762204e+002	-1.132332e+000	-1.057219e+002
110066007	-9.338179e-001	-1.079053e+002	-7.663653e+001	-1.757266e+002	-8.855506e+001	-1.342957e+002	-1.130578e+000	-1.057174e+002
110068007	-9.349900e-001	-1.079015e+002	-8.194296e+001	-1.476718e+002	-8.254296e+001	1.784299e+002	-1.129867e+000	-1.057311e+002
110070007	-9.355204e-001	-1.079165e+002	-8.259168e+001	-1.515401e+002	-8.012790e+001	-1.423988e+002	-1.130452e+000	-1.057390e+002
110072007	-9.342692e-001	-1.079053e+002	-7.860882e+001	1.758367e+002	-7.836899e+001	-1.499679e+002	-1.128669e+000	-1.057418e+002
110074007	-9.346343e-001	-1.079308e+002	-7.651436e+001	-1.579248e+002	-7.782623e+001	-1.788750e+002	-1.130590e+000	-1.057322e+002
110076008	-9.346503e-001	-1.079243e+002	-7.758637e+001	1.770637e+002	-7.833832e+001	-1.607048e+002	-1.132263e+000	-1.057646e+002
110078008	-9.354582e-001	-1.079317e+002	-8.024253e+001	1.634594e+002	-8.041582e+001	-1.455692e+002	-1.132339e+000	-1.057545e+002
110080008	-9.339558e-001	-1.079448e+002	-8.109281e+001	-1.660287e+002	-8.306245e+001	1.462501e+002	-1.133343e+000	-1.057447e+002
110082008	-9.335495e-001	-1.079282e+002	-8.139337e+001	-1.497185e+002	-8.439200e+001	-1.690245e+002	-1.130731e+000	-1.057451e+002
110084008	-9.339186e-001	-1.079262e+002	-7.918368e+001	-1.515749e+002	-8.120195e+001	1.703199e+002	-1.130643e+000	-1.057446e+002
110086009	-9.342253e-001	-1.079359e+002	-7.811305e+001	1.733459e+002	-8.492327e+001	-1.675079e+002	-1.132798e+000	-1.057464e+002
110088009	-9.341393e-001	-1.079342e+002	-8.493042e+001	1.474997e+002	-8.812025e+001	-1.472553e+002	-1.131438e+000	-1.057595e+002
110090009	-9.362029e-001	-1.079334e+002	-8.028990e+001	-1.466214e+002	-8.572751e+001	1.721875e+002	-1.131593e+000	-1.057664e+002
110092009	-9.342061e-001	-1.079527e+002	-7.934129e+001	-1.573923e+002	-7.805526e+001	-1.628557e+002	-1.129211e+000	-1.057686e+002
110094009	-9.361518e-001	-1.079342e+002	-8.142250e+001	1.794749e+002	-8.240887e+001	-1.472441e+002	-1.131529e+000	-1.057550e+002
110096010	-9.347702e-001	-1.079585e+002	-8.513915e+001	-1.458303e+002	-8.418075e+001	-1.524691e+002	-1.130824e+000	-1.057606e+002
110098010	-9.354853e-001	-1.079346e+002	-7.890942e+001	-1.743651e+002	-7.866442e+001	-1.744009e+002	-1.131138e+000	-1.057637e+002
110100010	-9.342017e-001	-1.079460e+002	-8.323516e+001	1.798928e+002	-8.338751e+001	-1.716929e+002	-1.131812e+000	-1.057699e+002
110102010	-9.339697e-001	-1.079350e+002	-7.953318e+001	1.698236e+002	-8.114481e+001	-1.545760e+002	-1.128831e+000	-1.057644e+002
110104010	-9.347781e-001	-1.079516e+002	-8.226864e+001	-1.166975e+002	-7.723002e+001	1.619874e+002	-1.130845e+000	-1.057740e+002
110106011	-9.349122e-001	-1.079546e+002	-7.428783e+001	-1.777069e+002	-8.231172e+001	-1.556402e+002	-1.133227e+000	-1.057804e+002
110108011	-9.333875e-001	-1.079697e+002	-8.076530e+001	-1.671811e+002	-8.512062e+001	-1.776586e+002	-1.131689e+000	-1.057698e+002
110110011	-9.351798e-001	-1.079625e+002	-8.220859e+001	-1.576133e+002	-8.092463e+001	-1.616736e+002	-1.130211e+000	-1.057708e+002
110112011	-9.353961e-001	-1.079733e+002	-7.632042e+001	-1.771495e+002	-8.035450e+001	-1.790303e+002	-1.131958e+000	-1.057793e+002
110114011	-9.345286e-001	-1.079630e+002	-7.719192e+001	-1.560853e+002	-8.366465e+001	1.695769e+002	-1.131289e+000	-1.057766e+002
110116012	-9.364926e-001	-1.079717e+002	-7.874257e+001	-1.500759e+002	-7.788664e+001	-1.612350e+002	-1.132711e+000	-1.057918e+002
110118012	-9.366893e-001	-1.079671e+002	-7.727599e+001	-1.421507e+002	-7.942676e+001	-1.501792e+002	-1.131894e+000	-1.057794e+002
110120012	-9.362878e-001	-1.079804e+002	-7.716763e+001	-1.582219e+002	-7.658155e+001	-1.570094e+002	-1.130138e+000	-1.057866e+002
110122012	-9.351839e-001	-1.079782e+002	-7.583146e+001	-1.788498e+002	-7.880491e+001	-1.687485e+002	-1.132420e+000	-1.057814e+002
110124012	-9.338820e-001	-1.079607e+002	-7.872775e+001	-1.334662e+002	-7.875000e+001	1.787238e+002	-1.133426e+000	-1.057930e+002
110126013	-9.344539e-001	-1.079774e+002	-8.313553e+001	-1.605284e+002	-7.970921e+001	-1.695625e+002	-1.130947e+000	-1.057893e+002
110128013	-9.352786e-001	-1.079884e+002	-7.869350e+001	1.722172e+002	-8.497698e+001	-1.443291e+002	-1.130629e+000	-1.057944e+002
110130013	-9.373181e-001	-1.079676e+002	-7.691331e+001	-1.614345e+002	-7.814459e+001	-1.432334e+002	-1.131357e+000	-1.058061e+002
110132013	-9.367214e-001	-1.079799e+002	-8.079361e+001	-1.462508e+002	-8.031436e+001	-1.387904e+002	-1.131580e+000	-1.058001e+002
110134013	-9.384790e-001	-1.079792e+002	-7.471249e+001	1.789173e+002	-7.895145e+001	1.577241e+002	-1.132123e+000	-1.058028e+002
110136014	-9.346913e-001	-1.079828e+002	-7.979853e+001	-1.752046e+002	-7.986804e+001	-1.424286e+002	-1.131870e+000	-1.058046e+002
110138014	-9.355385e-001	-1.079815e+002	-8.806005e+001	-1.634949e+002	-7.860392e+001	-1.581873e+002	-1.133384e+000	-1.058059e+002
110140014	-9.354980e-001	-1.079802e+002	-7.938737e+001	1.667094e+002	-7.736936e+001	-1.506968e+002	-1.130758e+000	-1.058062e+002
110142014	-9.358943e-001	-1.080011e+002	-8.108264e+001	-1.659187e+002	-8.178345e+001	-1.491073e+002	-1.129491e+000	-1.058104e+002
110144014	-9.392237e-001	-1.080130e+002	-8.652020e+001	-1.447397e+002	-8.617602e+001	-1.707788e+002	-1.132550e+000	-1.057979e+002
110146015	-9.343805e-001	-1.079964e+002	-8.302098e+001	1.572415e+002	-8.432280e+001	1.565395e+002	-1.133181e+000	-1.058294e+002
110148015	-9.363943e-001	-1.080015e+002	-7.945213e+001	-1.618283e+002	-8.076596e+001	-1.577481e+002	-1.132174e+000	-1.058256e+002
110150015	-9.370354e-001	-1.079929e+002	-7.755408e+001	1.728891e+002	-8.014293e+001	-1.471433e+002	-1.132314e+000	-1.058129e+002
110152015	-9.363763e-001	-1.080022e+002	-8.257903e+001	-1.200580e+002	-8.017691e+001	1.736850e+002	-1.130163e+000	-1.058222e+002
110154015	-9.344180e-001	-1.080148e+002	-8.161023e+001	-1.571112e+002	-7.876556e+001	-1.598087e+002	-1.132938e+000	-1.058035e+002
110156016	-9.355337e-001	-1.080163e+002	-7.919702e+001	-1.338589e+002	-8.385374e+001	-1.182819e+002	-1.132737e+000	-1.058058e+002
110158016	-9.351489e-001	-1.080126e+002	-7.921345e+001	1.595268e+002	-7.897327e+001	-1.485382e+002	-1.134004e+000	-1.058290e+002
110160016	-9.355842e-001	-1.080033e+002	-7.693326e+001	1.659681e+002	-7.787062e+001	1.732301e+002	-1.131766e+000	-1.058182e+002
110162016	-9.360178e-001	-1.080090e+002	-8.633623e+001	-1.380966e+002	-8.068505e+001	-1.666267e+002	-1.132733e+000	-1.058248e+002
110164016	-9.363503e-001	-1.080050e+002	-7.770844e+001	-1.724397e+002	-7.637032e+001	-1.449404e+002	-1.130908e+000	-1.058214e+002
110166017	-9.354125e-001	-1.080004e+002	-8.220720e+001	-1.452311e+002	-8.013944e+001	-1.161703e+002	-1.132108e+000	-1.058282e+002
110168017	-9.359036e-001	-1.080207e+002	-7.921020e+001	-1.766337e+002	-8.020094e+001	-1.354701e+002	-1.130838e+000	-1.058504e+002
110170017	-9.358004e-001	-1.080183e+002	-7.947882e+001	-1.792514e+002	-7.904992e+001	-1.678278e+002	-1.133532e+000	-1.058294e+002
110172017	-9.374432e-001	-1.080128e+002	-7.673568e+001	-1.291736e+002	-7.949900e+001	-1.641119e+002	-1.136291e+000	-1.058317e+002
110174017	-9.361775e-001	-1.080143e+002	-8.440166e+001	-1.354174e+002	-7.583797e+001	-1.696550e+002	-1.133845e+000	-1.058441e+002
110176018	-9.354607e-001	-1.080227e+002	-8.050624e+001	-1.308135e+002	-7.940513e+001	-1.607900e+002	-1.134729e+000	-1.058403e+002
110178018	-9.371160e-001	-1.080244e+002	-7.737139e+001	-1.478368e+002	-8.704481e+001	1.782208e+002	-1.133876e+000	-1.058482e+002
110180018	-9.369916e-001	-1.080210e+002	-9.426945e+001	-1.513145e+002	-7.997449e+001	-1.357575e+002	-1.132465e+000	-1.058268e+002
110182018	-9.339443e-001	-1.080304e+002	-8.068856e+001	-1.686666e+002	-7.734089e+001	-1.741658e+002	-1.132755e+000	-1.058449e+002
110184018	-9.373991e-001	-1.080429e+002	-8.352500e+001	-1.584906e+002	-8.112261e+001	-1.303443e+002	-1.134997e+000	-1.058474e+002
110186019	-9.345889e-001	-1.080390e+002	-7.870414e+001	-1.472878e+002	-8.387600e+001	1.608128e+002	-1.134872e+000	-1.058496e+002
110188019	-9.368289e-001	-1.080350e+002	-7.842994e+001	-1.660087e+002	-8.095598e+001	-1.792050e+002	-1.133755e+000	-1.058440e+002
110190019	-9.362024e-001	-1.080399e+002	-8.157755e+001	-1.589500e+002	-7.830626e+001	-1.536564e+002	-1.131224e+000	-1.058532e+002
110192019	-9.381509e-001	-1.080492e+002	-7.720349e+001	-1.501955e+002	-7.888787e+001	1.558776e+002	-1.133717e+000	-1.058570e+002
110194019	-9.370376e-001	-1.080307e+002	-7.817000e+001	-1.778691e+002	-7.727473e+001	-1.662659e+002	-1.132533e+000	-1.058500e+002
110196020	-9.375310e-001	-1.080514e+002	-7.773993e+001	1.705820e+002	-8.387180e+001	-1.622676e+002	-1.137089e+000	-1.058615e+002
110198020	-9.369018e-001	-1.080452e+002	-8.219141e+001	-1.451878e+002	-8.457913e+001	-1.497449e+002	-1.136170e+000	-1.058505e+002
110200020	-9.369030e-001	-1.080459e+002	-7.951181e+001	-1.587682e+002	-7.971845e+001	-1.246601e+002	-1.135791e+000	-1.058677e+002
110202020	-9.351926e-001	-1.080513e+002	-8.041450e+001	-1.412890e+002	-7.878678e+001	-1.685286e+002	-1.132606e+000	-1.058700e+002
110204020	-9.372936e-001	-1.080414e+002	-1.021449e+002	-1.062931e+002	-7.737887e+001	-1.422748e+002	-1.133092e+000	-1.058681e+002
110206021	-9.364728e-001	-1.080469e+002	-7.827511e+001	-1.767018e+002	-8.419473e+001	-1.227775e+002	-1.137039e+000	-1.058704e+002
110208021	-9.357525e-001	-1.080565e+002	-8.103336e+001	1.789136e+002	-7.913702e+001	-1.411549e+002	-1.133431e+000	-1.058736e+002
110210021	-9.370076e-001	-1.080720e+002	-8.102361e+001	-1.294924e+002	-8.066642e+001	-1.274467e+002	-1.135200e+000	-1.058809e+002
110212021	-9.355378e-001	-1.080532e+002	-8.515580e+001	-1.483667e+002	-8.309225e+001	-9.712587e+001	-1.134892e+000	-1.058936e+002
110214021	-9.366651e-001	-1.080642e+002	-7.856614e+001	-1.620487e+002	-7.959584e+001	-1.408709e+002	-1.135254e+000	-1.058747e+002
110216022	-9.382542e-001	-1.080595e+002	-8.402142e+001	-1.665066e+002	-7.921093e+001	-1.589234e+002	-1.135125e+000	-1.058780e+002
110218022	-9.384005e-001	-1.080626e+002	-7.856334e+001	-1.349136e+002	-8.272033e+001	-1.626626e+002	-1.134458e+000	-1.058688e+002
110220022	-9.368981e-001	-1.080755e+002	-7.864234e+001	-1.705800e+002	-8.318329e+001	-1.203898e+002	-1.134325e+000	-1.058829e+002
110222022	-9.391325e-001	-1.080667e+002	-7.827660e+001	-1.460896e+002	-8.261336e+001	-1.382984e+002	-1.136459e+000	-1.058954e+002
110224022	-9.363321e-001	-1.080668e+002	-9.020670e+001	-7.157439e+001	-7.815075e+001	-1.351980e+002	-1.133804e+000	-1.058888e+002
110226023	-9.347200e-001	-1.080834e+002	-7.896510e+001	-1.625903e+002	-8.238058e+001	-1.470090e+002	-1.134917e+000	-1.058797e+002
110228023	-9.357293e-001	-1.080662e+002	-8.909832e+001	1.637542e+002	-7.987510e+001	-1.485588e+002	-1.133254e+000	-1.058943e+002
110230023	-9.374669e-001	-1.080634e+002	-7.867862e+001	-1.471192e+002	-8.201239e+001	-1.530749e+002	-1.132671e+000	-1.058883e+002
110232023	-9.399287e-001	-1.080768e+002	-7.663341e+001	-1.576832e+002	-7.810636e+001	-1.417659e+002	-1.132479e+000	-1.059059e+002
110234023	-9.377016e-001	-1.080852e+002	-8.310103e+001	-1.603146e+002	-7.737547e+001	-1.457415e+002	-1.133349e+000	-1.058850e+002
110236024	-9.377764e-001	-1.080798e+002	-7.960756e+001	-1.634124e+002	-7.967223e+001	-1.798213e+002	-1.133479e+000	-1.058867e+002
110238024	-9.350256e-001	-1.080938e+002	-8.284722e+001	-1.468742e+002	-8.208712e+001	-1.324159e+002	-1.134212e+000	-1.058985e+002
110240024	-9.359731e-001	-1.080850e+002	-8.605428e+001	-1.175653e+002	-7.876076e+001	-1.342959e+002	-1.134011e+000	-1.059017e+002
110242024	-9.389296e-001	-1.080821e+002	-1.041785e+002	5.534598e+001	-8.186895e+001	-1.761902e+002	-1.134168e+000	-1.058994e+002
110244024	-9.381003e-001	-1.080799e+002	-7.955933e+001	-1.213343e+002	-7.619692e+001	-1.469459e+002	-1.134693e+000	-1.059143e+002
110246025	-9.388473e-001	-1.080997e+002	-7.941836e+001	-1.299735e+002	-9.147392e+001	-1.285152e+002	-1.133715e+000	-1.059162e+002
110248025	-9.370374e-001	-1.080818e+002	-8.044903e+001	-1.428029e+002	-8.121534e+001	-1.718056e+002	-1.137186e+000	-1.058992e+002
110250025	-9.369540e-001	-1.081135e+002	-7.888119e+001	-1.567857e+002	-8.116873e+001	-1.505605e+002	-1.133180e+000	-1.059114e+002
110252025	-9.388918e-001	-1.081112e+002	-7.843480e+001	-1.323246e+002	-8.218258e+001	-1.344242e+002	-1.135408e+000	-1.059045e+002
110254025	-9.390760e-001	-1.081077e+002	-8.224239e+001	-1.511658e+002	-7.764469e+001	-1.187798e+002	-1.133717e+000	-1.059101e+002
110256026	-9.364998e-001	-1.081028e+002	-7.491723e+001	-1.547665e+002	-7.965564e+001	-1.658356e+002	-1.134112e+000	-1.059083e+002
110258026	-9.383194e-001	-1.080926e+002	-7.848782e+001	-1.472282e+002	-8.163999e+001	-1.567554e+002	-1.136562e+000	-1.059237e+002
110260026	-9.391335e-001	-1.081162e+002	-8.031106e+001	-1.143174e+002	-8.183931e+001	-1.266208e+002	-1.134358e+000	-1.059170e+002
110262026	-9.365967e-001	-1.081083e+002	-7.906361e+001	-1.426442e+002	-7.743435e+001	-1.565930e+002	-1.135311e+000	-1.059329e+002
110264026	-9.372985e-001	-1.081182e+002	-8.466128e+001	-1.705104e+002	-7.933194e+001	-1.318076e+002	-1.134840e+000	-1.059234e+002
110266027	-9.393751e-001	-1.080993e+002	-7.729989e+001	-1.441860e+002	-7.949927e+001	-1.721250e+002	-1.136687e+000	-1.059243e+002
110268027	-9.386113e-001	-1.081180e+002	-8.243710e+001	-1.749583e+002	-7.944512e+001	-1.347152e+002	-1.135019e+000	-1.059218e+002
110270027	-9.376304e-001	-1.081105e+002	-8.283850e+001	-1.187269e+002	-7.869115e+001	-1.538412e+002	-1.134401e+000	-1.059315e+002
110272027	-9.384682e-001	-1.081176e+002	-7.769742e+001	-1.462674e+002	-7.867261e+001	-1.552480e+002	-1.135690e+000	-1.059205e+002
110274027	-9.376551e-001	-1.081228e+002	-8.203774e+001	-1.391125e+002	-8.385167e+001	-1.316663e+002	-1.135525e+000	-1.059299e+002
110276028	-9.378667e-001	-1.081271e+002	-7.775016e+001	-1.401260e+002	-8.211258e+001	-1.258558e+002	-1.136700e+000	-1.059499e+002
110278028	-9.377650e-001	-1.081183e+002	-8.018432e+001	-1.675341e+002	-8.398113e+001	-1.260553e+002	-1.135905e+000	-1.059394e+002
110280028	-9.394512e-001	-1.081253e+002	-7.739352e+001	-1.741056e+002	-7.904417e+001	-1.570132e+002	-1.135939e+000	-1.059276e+002
110282028	-9.375840e-001	-1.081284e+002	-8.143121e+001	-1.321467e+002	-8.176562e+001	-1.488435e+002	-1.137080e+000	-1.059448e+002
110284028	-9.356259e-001	-1.081269e+002	-7.621617e+001	-1.408428e+002	-8.402724e+001	-1.203569e+002	-1.133243e+000	-1.059476e+002
110286029	-9.381993e-001	-1.081401e+002	-7.722856e+001	-1.616052e+002	-7.607476e+001	-1.366182e+002	-1.137756e+000	-1.059500e+002
110288029	-9.395995e-001	-1.081275e+002	-8.170457e+001	-1.708166e+002	-7.866295e+001	-1.665883e+002	-1.133978e+000	-1.059460e+002
110290029	-9.382417e-001	-1.081342e+002	-7.869917e+001	-1.227715e+002	-8.002185e+001	-1.683512e+002	-1.135367e+000	-1.059570e+002
110292029	-9.391129e-001	-1.081329e+002	-7.700384e+001	-1.741859e+002	-7.605933e+001	-1.202922e+002	-1.138520e+000	-1.059417e+002
110294029	-9.401940e-001	-1.081428e+002	-8.506962e+001	-1.597085e+002	-8.108862e+001	-1.243902e+002	-1.137468e+000	-1.059380e+002
110296030	-9.406159e-001	-1.081449e+002	-8.190717e+001	-1.019788e+002	-7.501823e+001	-1.495869e+002	-1.138539e+000	-1.059384e+002
110298030	-9.379848e-001	-1.081425e+002	-8.257115e+001	-1.662231e+002	-7.806092e+001	-1.546200e+002	-1.138461e+000	-1.059600e+002
110300030	-9.386614e-001	-1.081477e+002	-8.233938e+001	-1.386590e+002	-8.133031e+001	-1.058068e+002	-1.135561e+000	-1.059583e+002
