!Agilent Technologies,E5071C,MY46520923,B.12.03
!Date: Tue Feb 06 11:12:09 2024
!Data & Calibration Information:
!Freq	S11:SOLT2(ON)	S21:SOLT2(ON)	S12:SOLT2(ON)	S22:SOLT2(ON)
!PortZ  Port1:50+j0    Port2:50+j0
!Above PortZ is port z conversion or system Z0 setting when saving the data.
!When reading, reference impedance value at option line is always used.
# Hz S dB R 50
110000000	-1.020353e+000	-1.079152e+002	-7.662844e+001	-1.406605e+002	-8.174688e+001	-1.782784e+002	-1.188509e+000	-1.054530e+002
110002000	-1.019079e+000	-1.079380e+002	-7.970800e+001	-1.632837e+002	-8.491631e+001	-1.684807e+002	-1.187199e+000	-1.054708e+002
110004000	-1.019617e+000	-1.079154e+002	-8.168741e+001	-1.518334e+002	-7.698015e+001	-1.626580e+002	-1.188377e+000	-1.054748e+002
110006001	-1.018738e+000	-1.079079e+002	-7.769499e+001	-1.617687e+002	-7.829129e+001	-1.418010e+002	-1.188718e+000	-1.054780e+002
110008001	-1.019341e+000	-1.079092e+002	-7.987284e+001	-1.362894e+002	-8.224934e+001	-1.667449e+002	-1.190417e+000	-1.054852e+002
110010001	-1.018096e+000	-1.079302e+002	-7.679423e+001	-1.617215e+002	-7.856524e+001	1.712060e+002	-1.191209e+000	-1.054788e+002
110012001	-1.021726e+000	-1.079191e+002	-7.981582e+001	-1.698377e+002	-7.883530e+001	-1.400689e+002	-1.191767e+000	-1.054814e+002
110014001	-1.020909e+000	-1.079255e+002	-8.372453e+001	-1.691401e+002	-7.596525e+001	1.714140e+002	-1.191164e+000	-1.054782e+002
110016002	-1.021436e+000	-1.079329e+002	-7.898380e+001	-1.753033e+002	-7.796074e+001	-1.545331e+002	-1.189288e+000	-1.054673e+002
110018002	-1.020210e+000	-1.079328e+002	-7.984393e+001	-1.484615e+002	-8.235545e+001	-1.788402e+002	-1.193062e+000	-1.054692e+002
110020002	-1.019853e+000	-1.079280e+002	-7.983747e+001	-1.636371e+002	-7.993042e+001	1.636970e+002	-1.189738e+000	-1.054863e+002
110022002	-1.020700e+000	-1.079244e+002	-7.896343e+001	-1.499472e+002	-8.267655e+001	1.769835e+002	-1.191291e+000	-1.054708e+002
110024002	-1.022348e+000	-1.079451e+002	-7.973834e+001	1.446249e+002	-8.001109e+001	-1.758449e+002	-1.189663e+000	-1.054946e+002
110026003	-1.021048e+000	-1.079311e+002	-7.641013e+001	-1.570600e+002	-7.982959e+001	1.793315e+002	-1.190777e+000	-1.054804e+002
110028003	-1.020304e+000	-1.079325e+002	-8.023594e+001	-1.436355e+002	-7.938847e+001	-1.702598e+002	-1.190072e+000	-1.054695e+002
110030003	-1.020666e+000	-1.079581e+002	-7.680457e+001	1.787012e+002	-8.173204e+001	-1.359428e+002	-1.189419e+000	-1.054843e+002
110032003	-1.020530e+000	-1.079339e+002	-7.709649e+001	-1.521251e+002	-7.920609e+001	-1.529715e+002	-1.189707e+000	-1.054861e+002
110034003	-1.019705e+000	-1.079430e+002	-7.798346e+001	-1.737978e+002	-8.274211e+001	-1.522302e+002	-1.191716e+000	-1.054980e+002
110036004	-1.022075e+000	-1.079268e+002	-8.324207e+001	1.714029e+002	-8.003956e+001	-1.343538e+002	-1.190734e+000	-1.055005e+002
110038004	-1.020646e+000	-1.079413e+002	-8.164260e+001	-1.748295e+002	-7.898812e+001	-1.754092e+002	-1.190195e+000	-1.055083e+002
110040004	-1.021810e+000	-1.079467e+002	-7.892205e+001	-1.752901e+002	-8.209163e+001	-1.517313e+002	-1.190169e+000	-1.054889e+002
110042004	-1.021062e+000	-1.079482e+002	-7.780311e+001	1.358782e+002	-7.737494e+001	1.461426e+002	-1.191080e+000	-1.055187e+002
110044004	-1.019193e+000	-1.079510e+002	-7.542052e+001	-1.508628e+002	-7.862466e+001	1.761161e+002	-1.190320e+000	-1.055040e+002
110046005	-1.019229e+000	-1.079614e+002	-7.821529e+001	-1.787116e+002	-7.909350e+001	-1.709261e+002	-1.189806e+000	-1.055233e+002
110048005	-1.019115e+000	-1.079436e+002	-7.832388e+001	-1.524474e+002	-7.842154e+001	-1.577649e+002	-1.192505e+000	-1.055033e+002
110050005	-1.022932e+000	-1.079528e+002	-8.002041e+001	-1.639442e+002	-8.167575e+001	-1.696212e+002	-1.190264e+000	-1.055163e+002
110052005	-1.023425e+000	-1.079521e+002	-7.833476e+001	-1.486238e+002	-8.405411e+001	-1.778968e+002	-1.193050e+000	-1.055079e+002
110054005	-1.021113e+000	-1.079463e+002	-8.206506e+001	-1.577404e+002	-8.025353e+001	1.752157e+002	-1.189659e+000	-1.054953e+002
110056006	-1.020727e+000	-1.079562e+002	-7.732122e+001	1.764046e+002	-7.881467e+001	-1.797174e+002	-1.190349e+000	-1.055076e+002
110058006	-1.021452e+000	-1.079556e+002	-7.850788e+001	-1.511884e+002	-8.050233e+001	-1.798028e+002	-1.189984e+000	-1.055138e+002
110060006	-1.019704e+000	-1.079649e+002	-7.840807e+001	1.642330e+002	-7.777458e+001	-1.517954e+002	-1.190384e+000	-1.055178e+002
110062006	-1.019904e+000	-1.079795e+002	-7.867157e+001	-1.552216e+002	-7.755259e+001	1.702229e+002	-1.190930e+000	-1.055198e+002
110064006	-1.022144e+000	-1.079716e+002	-8.027826e+001	-1.728570e+002	-8.334751e+001	-1.550680e+002	-1.190117e+000	-1.055177e+002
110066007	-1.023749e+000	-1.079646e+002	-7.870744e+001	-1.485731e+002	-8.623478e+001	-1.588457e+002	-1.194317e+000	-1.055323e+002
110068007	-1.019921e+000	-1.079665e+002	-8.722598e+001	-1.796032e+002	-8.838900e+001	-1.627258e+002	-1.190081e+000	-1.055425e+002
110070007	-1.021644e+000	-1.079783e+002	-7.875822e+001	-1.606194e+002	-8.069168e+001	-1.455640e+002	-1.190600e+000	-1.055308e+002
110072007	-1.023449e+000	-1.079799e+002	-8.434106e+001	1.524344e+002	-8.081657e+001	-1.792444e+002	-1.192821e+000	-1.055281e+002
110074007	-1.020887e+000	-1.079752e+002	-7.722436e+001	1.683079e+002	-8.021545e+001	-1.639923e+002	-1.192896e+000	-1.055313e+002
110076008	-1.022393e+000	-1.079903e+002	-7.851132e+001	-1.799271e+002	-7.703590e+001	-1.582616e+002	-1.193460e+000	-1.055272e+002
110078008	-1.021197e+000	-1.079810e+002	-8.023737e+001	-1.530069e+002	-7.806009e+001	-1.796253e+002	-1.190271e+000	-1.055523e+002
110080008	-1.022339e+000	-1.079941e+002	-7.891042e+001	-1.484884e+002	-8.017053e+001	1.775782e+002	-1.191802e+000	-1.055362e+002
110082008	-1.022206e+000	-1.079822e+002	-8.371095e+001	-1.569619e+002	-7.615601e+001	-1.538358e+002	-1.191286e+000	-1.055495e+002
110084008	-1.019950e+000	-1.079808e+002	-7.618279e+001	1.787168e+002	-7.972155e+001	-1.580704e+002	-1.191553e+000	-1.055410e+002
110086009	-1.024807e+000	-1.079964e+002	-8.015799e+001	-1.577560e+002	-7.872308e+001	-1.777359e+002	-1.193288e+000	-1.055447e+002
110088009	-1.021699e+000	-1.079938e+002	-8.174487e+001	1.759973e+002	-7.877374e+001	-1.497559e+002	-1.194096e+000	-1.055275e+002
110090009	-1.021133e+000	-1.080030e+002	-7.765124e+001	-1.716149e+002	-8.412731e+001	-1.378462e+002	-1.190864e+000	-1.055540e+002
110092009	-1.022945e+000	-1.080131e+002	-8.047981e+001	-1.481761e+002	-7.586894e+001	-1.748161e+002	-1.192479e+000	-1.055502e+002
110094009	-1.020245e+000	-1.080015e+002	-7.806409e+001	-1.547552e+002	-8.087271e+001	-1.753245e+002	-1.192523e+000	-1.055484e+002
110096010	-1.020978e+000	-1.080003e+002	-8.270561e+001	-1.540407e+002	-7.767688e+001	-1.541592e+002	-1.191576e+000	-1.055511e+002
110098010	-1.021128e+000	-1.080017e+002	-8.061074e+001	-1.581687e+002	-8.273618e+001	-1.455664e+002	-1.191820e+000	-1.055483e+002
110100010	-1.022342e+000	-1.080205e+002	-8.469160e+001	-1.775527e+002	-8.129888e+001	-1.645633e+002	-1.191530e+000	-1.055539e+002
110102010	-1.023407e+000	-1.079986e+002	-7.884655e+001	-1.538373e+002	-7.874632e+001	-1.714910e+002	-1.191088e+000	-1.055589e+002
110104010	-1.022110e+000	-1.080288e+002	-8.272052e+001	-1.107335e+002	-7.662748e+001	-1.542319e+002	-1.193048e+000	-1.055762e+002
110106011	-1.021348e+000	-1.080157e+002	-8.481769e+001	1.651708e+002	-8.096617e+001	-1.777353e+002	-1.193475e+000	-1.055518e+002
110108011	-1.023398e+000	-1.080115e+002	-8.179153e+001	1.733742e+002	-7.595830e+001	-1.738582e+002	-1.190972e+000	-1.055637e+002
110110011	-1.021955e+000	-1.080137e+002	-7.685782e+001	-1.606943e+002	-8.100573e+001	-1.696724e+002	-1.193438e+000	-1.055615e+002
110112011	-1.024734e+000	-1.080187e+002	-7.649932e+001	-1.612846e+002	-8.047663e+001	-1.335396e+002	-1.191503e+000	-1.055705e+002
110114011	-1.022268e+000	-1.080083e+002	-7.769924e+001	-1.485722e+002	-7.717712e+001	-1.632350e+002	-1.190322e+000	-1.055760e+002
110116012	-1.021428e+000	-1.080231e+002	-7.698448e+001	-1.699718e+002	-8.061781e+001	1.682618e+002	-1.192254e+000	-1.055886e+002
110118012	-1.023297e+000	-1.080374e+002	-7.861524e+001	-1.563924e+002	-8.189583e+001	1.492725e+002	-1.193236e+000	-1.055841e+002
110120012	-1.019261e+000	-1.080127e+002	-7.958068e+001	-1.710098e+002	-8.173441e+001	1.625774e+002	-1.192369e+000	-1.055560e+002
110122012	-1.022230e+000	-1.080202e+002	-7.972507e+001	-1.482564e+002	-7.689101e+001	-1.735524e+002	-1.191341e+000	-1.055873e+002
110124012	-1.024321e+000	-1.080361e+002	-7.733624e+001	-1.531629e+002	-8.112165e+001	-1.287927e+002	-1.193977e+000	-1.055840e+002
110126013	-1.023824e+000	-1.080212e+002	-8.255723e+001	-1.391982e+002	-7.756136e+001	-1.502964e+002	-1.193846e+000	-1.055821e+002
110128013	-1.021983e+000	-1.080370e+002	-8.394821e+001	-1.697530e+002	-8.617752e+001	1.554474e+002	-1.192544e+000	-1.055845e+002
110130013	-1.019751e+000	-1.080311e+002	-8.150991e+001	-1.497332e+002	-8.211195e+001	-1.599800e+002	-1.193838e+000	-1.055871e+002
110132013	-1.022311e+000	-1.080454e+002	-7.693343e+001	-1.573146e+002	-8.147884e+001	-1.473392e+002	-1.194881e+000	-1.055805e+002
110134013	-1.023110e+000	-1.080419e+002	-8.721669e+001	-1.532965e+002	-8.190475e+001	-1.747427e+002	-1.193801e+000	-1.056021e+002
110136014	-1.022898e+000	-1.080468e+002	-8.319900e+001	-1.610511e+002	-8.077617e+001	1.719935e+002	-1.192416e+000	-1.055949e+002
110138014	-1.021995e+000	-1.080529e+002	-8.121541e+001	1.589311e+002	-8.132019e+001	1.761926e+002	-1.191805e+000	-1.055845e+002
110140014	-1.024239e+000	-1.080660e+002	-7.866274e+001	-1.375986e+002	-7.641544e+001	-1.605275e+002	-1.192045e+000	-1.055724e+002
110142014	-1.022102e+000	-1.080526e+002	-7.587775e+001	-1.448463e+002	-8.225897e+001	-1.645977e+002	-1.192416e+000	-1.056010e+002
110144014	-1.024863e+000	-1.080322e+002	-8.881175e+001	-1.626506e+002	-8.001295e+001	1.763896e+002	-1.195402e+000	-1.055967e+002
110146015	-1.022298e+000	-1.080464e+002	-7.667680e+001	-1.475465e+002	-7.935059e+001	1.759307e+002	-1.194079e+000	-1.055884e+002
110148015	-1.021837e+000	-1.080513e+002	-7.643824e+001	-1.217596e+002	-7.889054e+001	-1.783496e+002	-1.194137e+000	-1.056037e+002
110150015	-1.022370e+000	-1.080426e+002	-8.096623e+001	-1.637332e+002	-8.076377e+001	-1.688857e+002	-1.194517e+000	-1.056037e+002
110152015	-1.023817e+000	-1.080414e+002	-8.006667e+001	-1.591387e+002	-8.104772e+001	-1.563742e+002	-1.190431e+000	-1.056197e+002
110154015	-1.021668e+000	-1.080543e+002	-7.758389e+001	-1.591435e+002	-7.594710e+001	-1.215391e+002	-1.194163e+000	-1.056111e+002
110156016	-1.024027e+000	-1.080632e+002	-7.837493e+001	-1.639854e+002	-8.638164e+001	1.451473e+002	-1.193218e+000	-1.056192e+002
110158016	-1.023266e+000	-1.080713e+002	-7.883253e+001	-1.455727e+002	-8.093518e+001	-1.472010e+002	-1.191578e+000	-1.056010e+002
110160016	-1.023187e+000	-1.080878e+002	-8.236862e+001	-1.496627e+002	-7.968534e+001	-1.643705e+002	-1.193191e+000	-1.056292e+002
110162016	-1.022310e+000	-1.080588e+002	-7.747660e+001	-1.543433e+002	-7.762731e+001	1.747555e+002	-1.193282e+000	-1.056229e+002
110164016	-1.024606e+000	-1.080670e+002	-8.088272e+001	-1.653646e+002	-7.648433e+001	-1.628240e+002	-1.194152e+000	-1.056154e+002
110166017	-1.023282e+000	-1.080776e+002	-7.917397e+001	-1.581605e+002	-8.015318e+001	-1.727148e+002	-1.194415e+000	-1.056199e+002
110168017	-1.024907e+000	-1.080692e+002	-8.398879e+001	-1.241729e+002	-7.807344e+001	-1.679037e+002	-1.193395e+000	-1.056162e+002
110170017	-1.025942e+000	-1.080795e+002	-7.755963e+001	-1.591084e+002	-8.032389e+001	-1.520536e+002	-1.193149e+000	-1.056204e+002
110172017	-1.022924e+000	-1.080668e+002	-7.990601e+001	-1.258558e+002	-8.146241e+001	-1.492413e+002	-1.194054e+000	-1.056237e+002
110174017	-1.024014e+000	-1.080943e+002	-8.615005e+001	-1.432941e+002	-9.688240e+001	2.333844e+001	-1.195279e+000	-1.056084e+002
110176018	-1.024766e+000	-1.080775e+002	-8.343808e+001	1.670093e+002	-8.081485e+001	-1.542095e+002	-1.193234e+000	-1.056251e+002
110178018	-1.024941e+000	-1.080710e+002	-7.631938e+001	-1.465698e+002	-8.060534e+001	-1.164658e+002	-1.195051e+000	-1.056251e+002
110180018	-1.023046e+000	-1.080747e+002	-7.875773e+001	1.759854e+002	-7.740172e+001	-1.453671e+002	-1.193955e+000	-1.056395e+002
110182018	-1.025299e+000	-1.080914e+002	-8.041788e+001	-1.512201e+002	-7.888267e+001	-1.655496e+002	-1.192998e+000	-1.056277e+002
110184018	-1.022142e+000	-1.080734e+002	-8.290476e+001	-1.408334e+002	-8.252986e+001	-1.651822e+002	-1.192173e+000	-1.056450e+002
110186019	-1.024945e+000	-1.080834e+002	-7.909127e+001	-1.382781e+002	-7.769312e+001	-1.528055e+002	-1.194879e+000	-1.056219e+002
110188019	-1.025949e+000	-1.080887e+002	-8.425606e+001	-1.173115e+002	-7.742376e+001	-1.562242e+002	-1.195485e+000	-1.056489e+002
110190019	-1.023922e+000	-1.080946e+002	-7.890995e+001	-1.736889e+002	-7.739976e+001	-1.465405e+002	-1.192332e+000	-1.056450e+002
110192019	-1.022525e+000	-1.080967e+002	-8.064577e+001	-1.495763e+002	-8.060389e+001	-1.610458e+002	-1.194560e+000	-1.056523e+002
110194019	-1.023933e+000	-1.080989e+002	-8.422238e+001	-1.624169e+002	-7.679717e+001	-1.744387e+002	-1.194335e+000	-1.056555e+002
110196020	-1.023757e+000	-1.081020e+002	-7.582311e+001	-1.562777e+002	-8.638180e+001	1.452510e+002	-1.192753e+000	-1.056489e+002
110198020	-1.024208e+000	-1.081026e+002	-8.108144e+001	-1.407013e+002	-7.881661e+001	-1.238010e+002	-1.196024e+000	-1.056630e+002
110200020	-1.024024e+000	-1.081022e+002	-8.230684e+001	-1.556767e+002	-8.500044e+001	1.615327e+002	-1.196426e+000	-1.056585e+002
110202020	-1.023666e+000	-1.081136e+002	-7.963966e+001	-1.420316e+002	-8.178980e+001	1.682576e+002	-1.194466e+000	-1.056652e+002
110204020	-1.024984e+000	-1.081045e+002	-8.357885e+001	-1.401377e+002	-8.026479e+001	-1.553321e+002	-1.192900e+000	-1.056583e+002
110206021	-1.024601e+000	-1.081076e+002	-8.430869e+001	-1.761094e+002	-7.900200e+001	-1.674092e+002	-1.196167e+000	-1.056429e+002
110208021	-1.023805e+000	-1.081130e+002	-8.160903e+001	-9.117891e+001	-7.794797e+001	-1.581083e+002	-1.193676e+000	-1.056647e+002
110210021	-1.024778e+000	-1.081212e+002	-8.022307e+001	-1.316594e+002	-7.713004e+001	-1.534465e+002	-1.190953e+000	-1.056643e+002
110212021	-1.026303e+000	-1.081136e+002	-8.268890e+001	-1.646033e+002	-8.216829e+001	-1.709435e+002	-1.194783e+000	-1.056754e+002
110214021	-1.025344e+000	-1.081209e+002	-8.967775e+001	1.620778e+002	-7.672899e+001	-1.644155e+002	-1.195294e+000	-1.056598e+002
110216022	-1.023791e+000	-1.081300e+002	-8.112400e+001	-1.656808e+002	-8.033116e+001	-1.520020e+002	-1.195906e+000	-1.056571e+002
110218022	-1.024102e+000	-1.081280e+002	-8.331533e+001	-1.209404e+002	-7.705036e+001	-1.651952e+002	-1.194165e+000	-1.056606e+002
110220022	-1.024152e+000	-1.081262e+002	-7.989035e+001	-1.541928e+002	-7.835260e+001	-1.467170e+002	-1.195944e+000	-1.056608e+002
110222022	-1.025102e+000	-1.081299e+002	-8.111802e+001	-1.753194e+002	-7.760604e+001	-1.563852e+002	-1.192179e+000	-1.056831e+002
110224022	-1.024218e+000	-1.081249e+002	-7.987903e+001	-1.222331e+002	-7.742017e+001	-1.561398e+002	-1.195176e+000	-1.056807e+002
110226023	-1.023025e+000	-1.081336e+002	-8.124419e+001	-1.777127e+002	-7.720523e+001	-1.476437e+002	-1.193546e+000	-1.056630e+002
110228023	-1.022276e+000	-1.081306e+002	-7.736355e+001	-1.720082e+002	-7.807964e+001	-1.596289e+002	-1.194176e+000	-1.056612e+002
110230023	-1.025219e+000	-1.081368e+002	-8.142952e+001	1.654452e+002	-8.108533e+001	1.774574e+002	-1.195251e+000	-1.056711e+002
110232023	-1.025183e+000	-1.081374e+002	-7.766542e+001	-1.728847e+002	-8.719523e+001	-1.601875e+002	-1.195103e+000	-1.056741e+002
110234023	-1.025347e+000	-1.081286e+002	-7.727966e+001	-1.449047e+002	-8.116261e+001	1.723403e+002	-1.195897e+000	-1.056858e+002
110236024	-1.024050e+000	-1.081422e+002	-7.395641e+001	-1.612682e+002	-8.066023e+001	1.795589e+002	-1.196230e+000	-1.056790e+002
110238024	-1.026079e+000	-1.081473e+002	-7.945708e+001	-1.509773e+002	-8.166043e+001	-1.630856e+002	-1.197967e+000	-1.056824e+002
110240024	-1.023256e+000	-1.081256e+002	-7.944053e+001	-1.450642e+002	-8.453553e+001	-1.398553e+002	-1.196569e+000	-1.056911e+002
110242024	-1.024888e+000	-1.081537e+002	-7.772186e+001	-1.690456e+002	-7.699967e+001	-1.764281e+002	-1.196490e+000	-1.056973e+002
110244024	-1.025332e+000	-1.081398e+002	-8.552960e+001	1.550330e+002	-7.924163e+001	1.708104e+002	-1.195449e+000	-1.056903e+002
110246025	-1.025485e+000	-1.081472e+002	-8.191327e+001	1.752429e+002	-7.807143e+001	-1.596172e+002	-1.196097e+000	-1.057036e+002
110248025	-1.026408e+000	-1.081455e+002	-8.091666e+001	-1.354718e+002	-7.987371e+001	-1.500409e+002	-1.196101e+000	-1.056992e+002
110250025	-1.025203e+000	-1.081548e+002	-7.979383e+001	1.644796e+002	-7.772871e+001	-1.402685e+002	-1.197176e+000	-1.056820e+002
110252025	-1.024720e+000	-1.081632e+002	-8.361119e+001	-1.197135e+002	-7.986672e+001	-1.484228e+002	-1.198187e+000	-1.056985e+002
110254025	-1.025068e+000	-1.081632e+002	-7.795516e+001	-1.420700e+002	-8.399322e+001	-1.244013e+002	-1.195129e+000	-1.057109e+002
110256026	-1.024611e+000	-1.081598e+002	-8.605316e+001	-1.589256e+002	-8.083500e+001	-1.670836e+002	-1.193633e+000	-1.057005e+002
110258026	-1.027429e+000	-1.081599e+002	-7.873973e+001	-1.413657e+002	-8.350359e+001	-1.305969e+002	-1.196049e+000	-1.056944e+002
110260026	-1.024564e+000	-1.081630e+002	-8.746024e+001	-1.643500e+002	-7.718290e+001	-1.717479e+002	-1.197562e+000	-1.057098e+002
110262026	-1.024606e+000	-1.081578e+002	-8.158939e+001	-1.178574e+002	-7.856468e+001	-1.438591e+002	-1.196208e+000	-1.057003e+002
110264026	-1.026598e+000	-1.081665e+002	-7.591124e+001	-1.632608e+002	-8.302631e+001	-1.687007e+002	-1.197885e+000	-1.057032e+002
110266027	-1.025220e+000	-1.081650e+002	-8.461624e+001	-1.712120e+002	-8.273577e+001	-1.727401e+002	-1.195074e+000	-1.057054e+002
110268027	-1.023821e+000	-1.081566e+002	-8.006768e+001	1.789940e+002	-7.966079e+001	-1.467182e+002	-1.196714e+000	-1.057104e+002
110270027	-1.027179e+000	-1.081649e+002	-8.232758e+001	-1.145935e+002	-7.814378e+001	-1.491260e+002	-1.197804e+000	-1.057167e+002
110272027	-1.025293e+000	-1.081758e+002	-8.005538e+001	-1.654376e+002	-7.914103e+001	-1.645432e+002	-1.197119e+000	-1.057151e+002
110274027	-1.023144e+000	-1.081748e+002	-7.759459e+001	-1.792220e+002	-8.026445e+001	-1.747432e+002	-1.197124e+000	-1.057115e+002
110276028	-1.026606e+000	-1.081825e+002	-8.342712e+001	-1.708127e+002	-7.907527e+001	-1.290435e+002	-1.196198e+000	-1.057114e+002
110278028	-1.026812e+000	-1.081743e+002	-7.787835e+001	-1.294757e+002	-7.881346e+001	-1.698882e+002	-1.195760e+000	-1.057377e+002
110280028	-1.026913e+000	-1.081780e+002	-7.839464e+001	-1.281342e+002	-7.855901e+001	-1.465993e+002	-1.196639e+000	-1.057183e+002
110282028	-1.024885e+000	-1.081982e+002	-7.920325e+001	-1.537409e+002	-8.273666e+001	-1.452332e+002	-1.197893e+000	-1.057306e+002
110284028	-1.023963e+000	-1.081844e+002	-8.189523e+001	-1.396422e+002	-8.071608e+001	-1.574944e+002	-1.198138e+000	-1.057336e+002
110286029	-1.025716e+000	-1.081836e+002	-7.555525e+001	-1.475382e+002	-8.713647e+001	-1.717332e+002	-1.195594e+000	-1.057361e+002
110288029	-1.027809e+000	-1.081887e+002	-7.817760e+001	-1.494093e+002	-7.914628e+001	-1.510605e+002	-1.195308e+000	-1.057371e+002
110290029	-1.025325e+000	-1.082064e+002	-7.660476e+001	-1.462222e+002	-8.687814e+001	-1.749818e+002	-1.196208e+000	-1.057400e+002
110292029	-1.025588e+000	-1.081945e+002	-7.983903e+001	-1.432045e+002	-7.606252e+001	-1.451864e+002	-1.196875e+000	-1.057415e+002
110294029	-1.028637e+000	-1.081920e+002	-7.592405e+001	-1.425448e+002	-7.653094e+001	-1.440716e+002	-1.196413e+000	-1.057515e+002
110296030	-1.027139e+000	-1.081919e+002	-7.801587e+001	-1.505906e+002	-7.951770e+001	-1.621637e+002	-1.196656e+000	-1.057484e+002
110298030	-1.026451e+000	-1.081874e+002	-7.816130e+001	-1.557343e+002	-7.704247e+001	-1.440774e+002	-1.199205e+000	-1.057490e+002
110300030	-1.025731e+000	-1.081978e+002	-8.129458e+001	-1.603824e+002	-7.942023e+001	-1.452067e+002	-1.195541e+000	-1.057428e+002
