!Agilent Technologies,E5071C,MY46520923,B.12.03
!Date: Tue Feb 06 09:00:01 2024
!Data & Calibration Information:
!Freq	S11:SOLT2(ON)	S21:SOLT2(ON)	S12:SOLT2(ON)	S22:SOLT2(ON)
!PortZ  Port1:50+j0    Port2:50+j0
!Above PortZ is port z conversion or system Z0 setting when saving the data.
!When reading, reference impedance value at option line is always used.
# Hz S dB R 50
110000000	-9.867083e-001	-1.077505e+002	-7.626204e+001	-1.603222e+002	-7.700910e+001	-1.627972e+002	-1.253826e+000	-1.052157e+002
110002000	-9.858984e-001	-1.077755e+002	-7.838251e+001	-1.551409e+002	-8.071481e+001	-1.323839e+002	-1.254881e+000	-1.052057e+002
110004000	-9.862486e-001	-1.077630e+002	-7.862744e+001	-1.667868e+002	-7.588007e+001	1.625602e+002	-1.254878e+000	-1.052255e+002
110006001	-9.852362e-001	-1.077565e+002	-7.699070e+001	-1.583980e+002	-8.130072e+001	-1.614544e+002	-1.255857e+000	-1.052436e+002
110008001	-9.871068e-001	-1.077804e+002	-7.808271e+001	-1.594485e+002	-7.981312e+001	-1.526102e+002	-1.254722e+000	-1.052236e+002
110010001	-9.876950e-001	-1.077653e+002	-8.580718e+001	1.653306e+002	-7.630924e+001	-1.651670e+002	-1.256766e+000	-1.052461e+002
110012001	-9.877121e-001	-1.077565e+002	-7.545796e+001	-1.466868e+002	-7.952749e+001	-1.682016e+002	-1.255679e+000	-1.052453e+002
110014001	-9.885505e-001	-1.077851e+002	-7.586943e+001	1.696023e+002	-7.653417e+001	-1.565320e+002	-1.256756e+000	-1.052411e+002
110016002	-9.878916e-001	-1.077741e+002	-8.013354e+001	-1.679338e+002	-7.985107e+001	-1.557041e+002	-1.257012e+000	-1.052464e+002
110018002	-9.872576e-001	-1.077518e+002	-7.946735e+001	1.785535e+002	-7.785471e+001	-1.651915e+002	-1.257531e+000	-1.052408e+002
110020002	-9.865599e-001	-1.077576e+002	-7.694324e+001	-1.683716e+002	-7.639312e+001	-1.715080e+002	-1.254150e+000	-1.052292e+002
110022002	-9.885210e-001	-1.077609e+002	-8.087188e+001	-1.712428e+002	-7.632900e+001	1.550431e+002	-1.256961e+000	-1.052448e+002
110024002	-9.858918e-001	-1.077714e+002	-8.172032e+001	-1.438283e+002	-7.678094e+001	1.569266e+002	-1.258058e+000	-1.052434e+002
110026003	-9.868340e-001	-1.077777e+002	-7.843441e+001	-1.589417e+002	-7.948048e+001	-1.515035e+002	-1.255195e+000	-1.052499e+002
110028003	-9.883600e-001	-1.077819e+002	-7.844064e+001	1.799661e+002	-7.969516e+001	-1.511054e+002	-1.257486e+000	-1.052535e+002
110030003	-9.875105e-001	-1.077855e+002	-7.727731e+001	-1.532187e+002	-8.346844e+001	-1.651590e+002	-1.257487e+000	-1.052420e+002
110032003	-9.870868e-001	-1.077885e+002	-8.061925e+001	1.478950e+002	-7.700945e+001	-1.731608e+002	-1.257073e+000	-1.052406e+002
110034003	-9.867727e-001	-1.077903e+002	-8.060416e+001	-1.558242e+002	-8.059969e+001	-1.737676e+002	-1.255575e+000	-1.052596e+002
110036004	-9.885203e-001	-1.077819e+002	-8.029862e+001	-1.759931e+002	-7.994504e+001	-1.667426e+002	-1.256889e+000	-1.052497e+002
110038004	-9.887126e-001	-1.077847e+002	-7.760628e+001	1.671556e+002	-7.978695e+001	1.655024e+002	-1.254530e+000	-1.052486e+002
110040004	-9.901161e-001	-1.077870e+002	-8.185056e+001	-1.792263e+002	-7.592020e+001	1.754639e+002	-1.257777e+000	-1.052798e+002
110042004	-9.879791e-001	-1.077975e+002	-7.854242e+001	-1.734198e+002	-8.085227e+001	-1.562264e+002	-1.255509e+000	-1.052450e+002
110044004	-9.869996e-001	-1.077835e+002	-7.982052e+001	1.764703e+002	-8.031953e+001	1.690700e+002	-1.255249e+000	-1.052594e+002
110046005	-9.880309e-001	-1.077941e+002	-7.705554e+001	-1.672068e+002	-8.039728e+001	-1.617157e+002	-1.256575e+000	-1.052873e+002
110048005	-9.894395e-001	-1.078006e+002	-8.192151e+001	-1.635443e+002	-8.053779e+001	1.775363e+002	-1.257061e+000	-1.052682e+002
110050005	-9.878771e-001	-1.077972e+002	-8.033193e+001	-1.384368e+002	-7.999710e+001	1.769535e+002	-1.255994e+000	-1.052681e+002
110052005	-9.865179e-001	-1.077753e+002	-8.205664e+001	-1.446724e+002	-7.988083e+001	1.554834e+002	-1.254238e+000	-1.052707e+002
110054005	-9.873657e-001	-1.077947e+002	-8.127716e+001	-1.527445e+002	-7.996619e+001	1.719356e+002	-1.254903e+000	-1.052694e+002
110056006	-9.885152e-001	-1.077805e+002	-7.529797e+001	-1.629990e+002	-7.964896e+001	-1.712685e+002	-1.256399e+000	-1.052624e+002
110058006	-9.876160e-001	-1.078087e+002	-7.984650e+001	-1.710016e+002	-7.799098e+001	1.740598e+002	-1.256146e+000	-1.052760e+002
110060006	-9.882559e-001	-1.078077e+002	-9.256807e+001	1.699945e+002	-8.028591e+001	-1.551061e+002	-1.257837e+000	-1.052710e+002
110062006	-9.885210e-001	-1.077889e+002	-7.879632e+001	1.795433e+002	-7.753219e+001	1.764620e+002	-1.254279e+000	-1.052827e+002
110064006	-9.870756e-001	-1.078034e+002	-7.645187e+001	1.724408e+002	-7.689976e+001	-1.491338e+002	-1.255264e+000	-1.052775e+002
110066007	-9.891399e-001	-1.077996e+002	-7.802635e+001	-1.462671e+002	-8.176658e+001	1.541226e+002	-1.256759e+000	-1.052926e+002
110068007	-9.886069e-001	-1.078114e+002	-7.593917e+001	-1.724154e+002	-7.986146e+001	-1.371075e+002	-1.257569e+000	-1.052703e+002
110070007	-9.886079e-001	-1.078029e+002	-7.648462e+001	-1.610081e+002	-7.877118e+001	-1.692487e+002	-1.256392e+000	-1.052885e+002
110072007	-9.876264e-001	-1.078159e+002	-7.958649e+001	-1.557773e+002	-7.832168e+001	-1.716879e+002	-1.257367e+000	-1.052820e+002
110074007	-9.885613e-001	-1.078159e+002	-8.055559e+001	-1.660572e+002	-7.819652e+001	-1.768664e+002	-1.258025e+000	-1.052814e+002
110076008	-9.862082e-001	-1.078190e+002	-7.924736e+001	-1.795884e+002	-7.791587e+001	-1.430138e+002	-1.258817e+000	-1.052885e+002
110078008	-9.899731e-001	-1.078347e+002	-7.822578e+001	-1.603145e+002	-7.847908e+001	1.461225e+002	-1.257323e+000	-1.052756e+002
110080008	-9.894936e-001	-1.078267e+002	-7.821230e+001	1.749721e+002	-7.668024e+001	1.483971e+002	-1.257688e+000	-1.052979e+002
110082008	-9.879161e-001	-1.078131e+002	-7.624288e+001	-1.683999e+002	-8.064421e+001	-1.701888e+002	-1.258052e+000	-1.053102e+002
110084008	-9.894429e-001	-1.078437e+002	-7.377779e+001	1.797553e+002	-7.688528e+001	1.693508e+002	-1.256280e+000	-1.053184e+002
110086009	-9.878786e-001	-1.078272e+002	-8.133082e+001	1.482350e+002	-7.619780e+001	-1.598412e+002	-1.258279e+000	-1.053032e+002
110088009	-9.906708e-001	-1.078477e+002	-7.753737e+001	-1.647004e+002	-8.038754e+001	1.547262e+002	-1.258408e+000	-1.053050e+002
110090009	-9.869426e-001	-1.078250e+002	-7.844592e+001	-1.614389e+002	-8.005510e+001	1.499274e+002	-1.257953e+000	-1.053178e+002
110092009	-9.885450e-001	-1.078464e+002	-8.226303e+001	1.557710e+002	-8.042215e+001	-1.224133e+002	-1.259523e+000	-1.053191e+002
110094009	-9.886880e-001	-1.078331e+002	-7.737441e+001	-1.728773e+002	-8.030068e+001	1.594781e+002	-1.259024e+000	-1.052980e+002
110096010	-9.880764e-001	-1.078356e+002	-7.913792e+001	-1.664917e+002	-7.822073e+001	1.790298e+002	-1.256759e+000	-1.053136e+002
110098010	-9.879359e-001	-1.078312e+002	-7.947927e+001	-1.448051e+002	-8.366555e+001	-1.749018e+002	-1.259955e+000	-1.053148e+002
110100010	-9.895485e-001	-1.078571e+002	-7.892461e+001	-1.665275e+002	-8.340026e+001	-1.697641e+002	-1.255747e+000	-1.053284e+002
110102010	-9.884131e-001	-1.078496e+002	-8.075189e+001	-1.536540e+002	-7.754005e+001	-1.710984e+002	-1.256007e+000	-1.053229e+002
110104010	-9.883453e-001	-1.078416e+002	-8.193701e+001	-1.732612e+002	-7.988137e+001	-1.618221e+002	-1.255709e+000	-1.053150e+002
110106011	-9.891329e-001	-1.078612e+002	-7.977904e+001	-1.616625e+002	-8.328396e+001	-1.458217e+002	-1.259474e+000	-1.053175e+002
110108011	-9.896599e-001	-1.078475e+002	-8.242663e+001	1.575783e+002	-8.033503e+001	-1.716836e+002	-1.255981e+000	-1.053164e+002
110110011	-9.885047e-001	-1.078575e+002	-8.331045e+001	-1.259896e+002	-7.502359e+001	-1.631772e+002	-1.257057e+000	-1.053289e+002
110112011	-9.882127e-001	-1.078534e+002	-7.750045e+001	-1.448551e+002	-8.034525e+001	-1.700584e+002	-1.258158e+000	-1.053220e+002
110114011	-9.883618e-001	-1.078552e+002	-8.362711e+001	1.576290e+002	-8.070575e+001	-1.526509e+002	-1.257354e+000	-1.053407e+002
110116012	-9.897471e-001	-1.078622e+002	-8.080577e+001	-1.710526e+002	-7.870418e+001	-1.719100e+002	-1.259654e+000	-1.053266e+002
110118012	-9.899636e-001	-1.078475e+002	-7.877707e+001	-1.390896e+002	-8.156926e+001	-1.453386e+002	-1.257959e+000	-1.053277e+002
110120012	-9.885099e-001	-1.078738e+002	-8.606430e+001	-1.498657e+002	-8.404965e+001	-1.383979e+002	-1.257317e+000	-1.053351e+002
110122012	-9.904538e-001	-1.078523e+002	-8.268260e+001	1.709020e+002	-7.618180e+001	-1.597648e+002	-1.259310e+000	-1.053258e+002
110124012	-9.891773e-001	-1.078650e+002	-7.812411e+001	1.329998e+002	-8.020824e+001	-1.766297e+002	-1.255511e+000	-1.053405e+002
110126013	-9.895243e-001	-1.078731e+002	-8.157139e+001	-1.134920e+002	-8.148724e+001	-1.630329e+002	-1.258857e+000	-1.053440e+002
110128013	-9.907558e-001	-1.078690e+002	-8.205103e+001	1.614326e+002	-8.167033e+001	1.597157e+002	-1.258680e+000	-1.053387e+002
110130013	-9.879879e-001	-1.078720e+002	-8.981185e+001	-1.493134e+002	-8.592290e+001	-1.681694e+002	-1.258074e+000	-1.053468e+002
110132013	-9.897903e-001	-1.078769e+002	-7.777210e+001	-1.492982e+002	-7.605038e+001	1.730477e+002	-1.257849e+000	-1.053394e+002
110134013	-9.867761e-001	-1.078756e+002	-7.886150e+001	-1.464789e+002	-8.503207e+001	1.774979e+002	-1.260577e+000	-1.053451e+002
110136014	-9.893353e-001	-1.078937e+002	-7.933738e+001	-1.722586e+002	-8.378085e+001	-1.624326e+002	-1.258867e+000	-1.053516e+002
110138014	-9.906715e-001	-1.078904e+002	-7.893157e+001	-1.566062e+002	-8.259090e+001	1.656098e+002	-1.257335e+000	-1.053629e+002
110140014	-9.899439e-001	-1.078786e+002	-8.141028e+001	1.775920e+002	-7.971509e+001	-1.425517e+002	-1.258295e+000	-1.053552e+002
110142014	-9.895931e-001	-1.078780e+002	-7.822589e+001	-1.548851e+002	-8.483182e+001	-1.762214e+002	-1.259606e+000	-1.053559e+002
110144014	-9.910106e-001	-1.078940e+002	-8.387526e+001	-1.767008e+002	-8.524627e+001	-1.767633e+002	-1.261213e+000	-1.053627e+002
110146015	-9.882258e-001	-1.078918e+002	-8.023167e+001	-1.611161e+002	-8.205012e+001	-1.710190e+002	-1.258196e+000	-1.053692e+002
110148015	-9.893169e-001	-1.079179e+002	-8.111588e+001	-1.115070e+002	-8.061217e+001	-1.701598e+002	-1.257923e+000	-1.053616e+002
110150015	-9.901957e-001	-1.078902e+002	-7.826132e+001	1.723077e+002	-7.792917e+001	1.702783e+002	-1.257399e+000	-1.053799e+002
110152015	-9.919341e-001	-1.079112e+002	-8.494416e+001	-1.222328e+002	-8.640362e+001	-1.682962e+002	-1.258342e+000	-1.053626e+002
110154015	-9.895376e-001	-1.079125e+002	-7.986933e+001	1.683943e+002	-8.225728e+001	1.381748e+002	-1.261383e+000	-1.053598e+002
110156016	-9.874408e-001	-1.079020e+002	-8.133667e+001	-1.542471e+002	-8.270282e+001	-1.605056e+002	-1.260245e+000	-1.053695e+002
110158016	-9.895024e-001	-1.078974e+002	-8.147650e+001	-1.578981e+002	-7.790289e+001	-1.371303e+002	-1.260628e+000	-1.053675e+002
110160016	-9.908281e-001	-1.078975e+002	-8.170234e+001	1.771968e+002	-7.675087e+001	-1.559346e+002	-1.259353e+000	-1.053672e+002
110162016	-9.896287e-001	-1.079049e+002	-7.860719e+001	-1.787096e+002	-8.013414e+001	1.641428e+002	-1.259933e+000	-1.053719e+002
110164016	-9.901769e-001	-1.079121e+002	-8.956707e+001	-1.644444e+002	-7.952724e+001	-1.231109e+002	-1.257401e+000	-1.053682e+002
110166017	-9.897995e-001	-1.079061e+002	-8.560316e+001	-1.662069e+002	-8.377465e+001	-1.305197e+002	-1.257898e+000	-1.053916e+002
110168017	-9.898402e-001	-1.078975e+002	-8.412210e+001	1.780064e+002	-8.049201e+001	-1.113851e+002	-1.257318e+000	-1.053704e+002
110170017	-9.899562e-001	-1.079119e+002	-7.939874e+001	-1.572626e+002	-8.362216e+001	-1.449024e+002	-1.257561e+000	-1.053847e+002
110172017	-9.912010e-001	-1.079008e+002	-8.182150e+001	-1.513320e+002	-8.444257e+001	-1.160331e+002	-1.259443e+000	-1.053863e+002
110174017	-9.921253e-001	-1.079120e+002	-7.892608e+001	-1.351336e+002	-7.752943e+001	-1.475768e+002	-1.258911e+000	-1.053899e+002
110176018	-9.907377e-001	-1.079119e+002	-7.832391e+001	1.736085e+002	-8.376367e+001	-1.623112e+002	-1.259974e+000	-1.053754e+002
110178018	-9.916356e-001	-1.079293e+002	-8.021005e+001	-1.218572e+002	-8.303411e+001	-1.362657e+002	-1.260834e+000	-1.053900e+002
110180018	-9.899589e-001	-1.079377e+002	-8.027360e+001	1.708564e+002	-8.494724e+001	-1.591613e+002	-1.260375e+000	-1.053807e+002
110182018	-9.920039e-001	-1.079205e+002	-8.481916e+001	1.555858e+002	-7.875423e+001	-1.662590e+002	-1.259912e+000	-1.053826e+002
110184018	-9.932967e-001	-1.079410e+002	-8.128372e+001	-1.618635e+002	-8.417364e+001	-1.049487e+002	-1.255614e+000	-1.053908e+002
110186019	-9.881574e-001	-1.079449e+002	-9.426880e+001	-1.691857e+002	-8.207081e+001	-1.627664e+002	-1.259633e+000	-1.053883e+002
110188019	-9.903024e-001	-1.079439e+002	-8.390330e+001	-1.641988e+002	-8.012599e+001	-1.631987e+002	-1.260197e+000	-1.053924e+002
110190019	-9.913938e-001	-1.079471e+002	-8.171158e+001	1.711786e+002	-7.859136e+001	-1.345894e+002	-1.259014e+000	-1.054145e+002
110192019	-9.895165e-001	-1.079375e+002	-7.965057e+001	-1.799073e+002	-8.489108e+001	-1.562591e+002	-1.261266e+000	-1.053893e+002
110194019	-9.891681e-001	-1.079326e+002	-8.805973e+001	-1.444170e+002	-8.323509e+001	-1.766104e+002	-1.260753e+000	-1.054083e+002
110196020	-9.895907e-001	-1.079360e+002	-8.233251e+001	-1.566873e+002	-8.229701e+001	-1.563349e+002	-1.259892e+000	-1.053996e+002
110198020	-9.904234e-001	-1.079423e+002	-8.273018e+001	1.799495e+002	-8.306347e+001	1.583210e+002	-1.259805e+000	-1.053970e+002
110200020	-9.905093e-001	-1.079413e+002	-1.111844e+002	1.008514e+002	-8.214110e+001	1.695425e+002	-1.260197e+000	-1.054031e+002
110202020	-9.900556e-001	-1.079504e+002	-8.122639e+001	-1.783688e+002	-8.396193e+001	-1.439305e+002	-1.260799e+000	-1.054139e+002
110204020	-9.907807e-001	-1.079497e+002	-7.874599e+001	-1.524306e+002	-8.336390e+001	-1.164034e+002	-1.263661e+000	-1.054270e+002
110206021	-9.891001e-001	-1.079397e+002	-9.189344e+001	1.783011e+002	-8.270320e+001	-1.421747e+002	-1.260319e+000	-1.054018e+002
110208021	-9.920702e-001	-1.079602e+002	-8.590434e+001	1.614988e+002	-8.217589e+001	-1.522659e+002	-1.261488e+000	-1.054200e+002
110210021	-9.927974e-001	-1.079607e+002	-8.122462e+001	-1.466432e+002	-8.122955e+001	-1.516292e+002	-1.261698e+000	-1.054354e+002
110212021	-9.915393e-001	-1.079553e+002	-7.891505e+001	-1.690857e+002	-8.316367e+001	-1.330109e+002	-1.261143e+000	-1.054193e+002
110214021	-9.908688e-001	-1.079494e+002	-8.028734e+001	-1.454935e+002	-7.830829e+001	-1.513754e+002	-1.260430e+000	-1.054174e+002
110216022	-9.916400e-001	-1.079548e+002	-9.332333e+001	-1.189624e+002	-7.922378e+001	-1.302792e+002	-1.260190e+000	-1.054277e+002
110218022	-9.931822e-001	-1.079545e+002	-8.417851e+001	-1.425839e+002	-8.024475e+001	1.731236e+002	-1.261288e+000	-1.054158e+002
110220022	-9.913617e-001	-1.079614e+002	-8.360964e+001	1.577840e+002	-8.271294e+001	-1.491787e+002	-1.259026e+000	-1.054201e+002
110222022	-9.908881e-001	-1.079667e+002	-8.457342e+001	-1.583346e+002	-8.180658e+001	-1.310873e+002	-1.260543e+000	-1.054357e+002
110224022	-9.923825e-001	-1.079704e+002	-8.424347e+001	-8.687238e+001	-8.401242e+001	-1.013253e+002	-1.258522e+000	-1.054101e+002
110226023	-9.904125e-001	-1.079674e+002	-8.629590e+001	1.318296e+002	-8.125793e+001	-1.457120e+002	-1.261960e+000	-1.054311e+002
110228023	-9.929541e-001	-1.079692e+002	-8.161199e+001	-1.710029e+002	-8.327969e+001	-1.455605e+002	-1.259656e+000	-1.054232e+002
110230023	-9.906374e-001	-1.079721e+002	-8.941843e+001	-1.141015e+002	-7.983914e+001	-1.367883e+002	-1.260873e+000	-1.054342e+002
110232023	-9.926335e-001	-1.079850e+002	-8.183693e+001	-1.612561e+002	-9.402950e+001	1.502410e+002	-1.259725e+000	-1.054294e+002
110234023	-9.893920e-001	-1.079781e+002	-7.872111e+001	-1.358387e+002	-8.036456e+001	-1.404371e+002	-1.260490e+000	-1.054486e+002
110236024	-9.922683e-001	-1.079690e+002	-7.655872e+001	-1.594602e+002	-8.481014e+001	-6.343067e+001	-1.259674e+000	-1.054441e+002
110238024	-9.903749e-001	-1.079976e+002	-8.264323e+001	-1.560984e+002	-8.473234e+001	-1.356970e+002	-1.263464e+000	-1.054469e+002
110240024	-9.939126e-001	-1.079665e+002	-8.217621e+001	-1.629535e+002	-8.541763e+001	-7.775151e+001	-1.260405e+000	-1.054470e+002
110242024	-9.926800e-001	-1.079963e+002	-8.344352e+001	-1.499035e+002	-7.919645e+001	-1.207628e+002	-1.261930e+000	-1.054283e+002
110244024	-9.927912e-001	-1.079904e+002	-7.684582e+001	-1.701825e+002	-8.105171e+001	-1.738820e+002	-1.261331e+000	-1.054515e+002
110246025	-9.940437e-001	-1.079835e+002	-8.773195e+001	-3.679879e+001	-7.953690e+001	-1.208112e+002	-1.258320e+000	-1.054395e+002
110248025	-9.946133e-001	-1.079904e+002	-7.851290e+001	-1.413274e+002	-8.589705e+001	-1.646779e+002	-1.262670e+000	-1.054407e+002
110250025	-9.924906e-001	-1.079941e+002	-8.804110e+001	-1.442803e+002	-8.036817e+001	-1.366554e+002	-1.259754e+000	-1.054494e+002
110252025	-9.901500e-001	-1.079964e+002	-7.849399e+001	-1.704302e+002	-8.287951e+001	-1.003092e+002	-1.259321e+000	-1.054324e+002
110254025	-9.913712e-001	-1.079870e+002	-7.790976e+001	-1.133851e+002	-7.870999e+001	-1.387591e+002	-1.261538e+000	-1.054596e+002
110256026	-9.915990e-001	-1.079962e+002	-8.294868e+001	-1.334909e+002	-7.890040e+001	-1.348930e+002	-1.260894e+000	-1.054468e+002
110258026	-9.941203e-001	-1.079942e+002	-7.617830e+001	-1.493334e+002	-8.462417e+001	-1.098862e+002	-1.262286e+000	-1.054612e+002
110260026	-9.911103e-001	-1.080072e+002	-8.244494e+001	-1.774391e+002	-8.498539e+001	1.584164e+002	-1.259642e+000	-1.054592e+002
110262026	-9.936448e-001	-1.079992e+002	-8.513342e+001	-7.617040e+001	-8.262761e+001	-1.243348e+002	-1.260696e+000	-1.054585e+002
110264026	-9.893597e-001	-1.080090e+002	-8.084844e+001	-1.314821e+002	-7.929593e+001	-1.557063e+002	-1.262141e+000	-1.054582e+002
110266027	-9.934163e-001	-1.080036e+002	-8.208463e+001	1.725028e+002	-8.263902e+001	-1.181687e+002	-1.259402e+000	-1.054691e+002
110268027	-9.900487e-001	-1.080279e+002	-7.774906e+001	-1.188455e+002	-7.911549e+001	-1.499760e+002	-1.262366e+000	-1.054826e+002
110270027	-9.926605e-001	-1.080193e+002	-7.715306e+001	-1.338166e+002	-8.041028e+001	-1.305498e+002	-1.260780e+000	-1.054772e+002
110272027	-9.923195e-001	-1.080151e+002	-7.987534e+001	-1.014253e+002	-7.987530e+001	-1.662864e+002	-1.262966e+000	-1.054819e+002
110274027	-9.922626e-001	-1.080107e+002	-8.656650e+001	-1.409432e+002	-8.143604e+001	-1.432581e+002	-1.258664e+000	-1.054735e+002
110276028	-9.916897e-001	-1.080201e+002	-7.810824e+001	-1.677562e+002	-8.092486e+001	-1.234693e+002	-1.261935e+000	-1.054924e+002
110278028	-9.915135e-001	-1.080153e+002	-7.888065e+001	-1.259834e+002	-7.679910e+001	-1.133146e+002	-1.261790e+000	-1.054778e+002
110280028	-9.922062e-001	-1.080176e+002	-8.013497e+001	-1.285651e+002	-8.043391e+001	-1.766661e+002	-1.261324e+000	-1.054809e+002
110282028	-9.904539e-001	-1.080256e+002	-7.783493e+001	-1.364178e+002	-7.785990e+001	-1.250636e+002	-1.260351e+000	-1.054806e+002
110284028	-9.930068e-001	-1.080340e+002	-7.812369e+001	-1.303614e+002	-7.705429e+001	-1.261634e+002	-1.262306e+000	-1.054925e+002
110286029	-9.929902e-001	-1.080279e+002	-8.430952e+001	-1.184408e+002	-7.953348e+001	-1.738497e+002	-1.259637e+000	-1.054871e+002
110288029	-9.932758e-001	-1.080291e+002	-8.149168e+001	-1.280064e+002	-8.155437e+001	-1.320583e+002	-1.262768e+000	-1.054776e+002
110290029	-9.905103e-001	-1.080206e+002	-8.169871e+001	-1.240296e+002	-8.203702e+001	-1.666732e+002	-1.261071e+000	-1.054841e+002
110292029	-9.923612e-001	-1.080336e+002	-8.159603e+001	-1.670943e+002	-8.033462e+001	-1.328269e+002	-1.261255e+000	-1.054940e+002
110294029	-9.953204e-001	-1.080221e+002	-8.086706e+001	-1.063286e+002	-8.492392e+001	-1.589079e+002	-1.261360e+000	-1.054849e+002
110296030	-9.920325e-001	-1.080270e+002	-8.188545e+001	-1.198341e+002	-7.501575e+001	-1.190360e+002	-1.262043e+000	-1.054870e+002
110298030	-9.918943e-001	-1.080423e+002	-7.883353e+001	-1.298826e+002	-8.046908e+001	-1.111838e+002	-1.263473e+000	-1.055079e+002
110300030	-9.936402e-001	-1.080403e+002	-8.352538e+001	-1.520276e+002	-7.729425e+001	-1.348839e+002	-1.262725e+000	-1.055049e+002
