!Agilent Technologies,E5071C,MY46520923,B.12.03
!Date: Tue Feb 06 09:44:56 2024
!Data & Calibration Information:
!Freq	S11:SOLT2(ON)	S21:SOLT2(ON)	S12:SOLT2(ON)	S22:SOLT2(ON)
!PortZ  Port1:50+j0    Port2:50+j0
!Above PortZ is port z conversion or system Z0 setting when saving the data.
!When reading, reference impedance value at option line is always used.
# Hz S dB R 50
110000000	-1.011107e+000	-1.076416e+002	-8.497025e+001	1.544395e+002	-7.703989e+001	-1.625986e+002	-1.095208e+000	-1.057499e+002
110002000	-1.012549e+000	-1.076498e+002	-7.830038e+001	-1.709806e+002	-7.589088e+001	-1.567524e+002	-1.097762e+000	-1.057817e+002
110004000	-1.010040e+000	-1.076353e+002	-7.715916e+001	-1.628621e+002	-7.688848e+001	-1.690655e+002	-1.098324e+000	-1.057787e+002
110006001	-1.009452e+000	-1.076503e+002	-7.922005e+001	-1.589178e+002	-8.107535e+001	1.620898e+002	-1.094579e+000	-1.057546e+002
110008001	-1.010726e+000	-1.076676e+002	-7.881041e+001	-1.686664e+002	-8.073975e+001	-1.332257e+002	-1.096590e+000	-1.057746e+002
110010001	-1.012777e+000	-1.076498e+002	-7.698047e+001	-1.574042e+002	-7.787302e+001	-1.686797e+002	-1.098870e+000	-1.057612e+002
110012001	-1.010784e+000	-1.076691e+002	-7.693700e+001	-1.490443e+002	-7.994247e+001	-1.786012e+002	-1.096973e+000	-1.057709e+002
110014001	-1.011642e+000	-1.076574e+002	-8.304082e+001	1.731932e+002	-7.847360e+001	1.697083e+002	-1.097023e+000	-1.057846e+002
110016002	-1.009051e+000	-1.076627e+002	-8.666962e+001	-1.604130e+002	-7.554971e+001	-1.737380e+002	-1.099498e+000	-1.057858e+002
110018002	-1.012775e+000	-1.076715e+002	-8.033289e+001	-1.574068e+002	-7.847272e+001	-1.557433e+002	-1.099335e+000	-1.057805e+002
110020002	-1.013621e+000	-1.076620e+002	-8.184428e+001	-1.772878e+002	-8.355861e+001	-1.610505e+002	-1.098948e+000	-1.057932e+002
110022002	-1.012686e+000	-1.076688e+002	-7.661797e+001	1.652031e+002	-8.001547e+001	1.649305e+002	-1.097202e+000	-1.057815e+002
110024002	-1.011341e+000	-1.076483e+002	-7.645383e+001	-1.481164e+002	-7.740101e+001	-1.577888e+002	-1.100371e+000	-1.057939e+002
110026003	-1.010535e+000	-1.076591e+002	-8.046742e+001	-1.655191e+002	-7.907526e+001	-1.597728e+002	-1.096016e+000	-1.057887e+002
110028003	-1.012123e+000	-1.076621e+002	-7.733277e+001	-1.427446e+002	-7.763503e+001	1.592342e+002	-1.097073e+000	-1.057690e+002
110030003	-1.012487e+000	-1.076884e+002	-7.844277e+001	-1.773563e+002	-7.745081e+001	-1.696464e+002	-1.097724e+000	-1.057805e+002
110032003	-1.011209e+000	-1.076633e+002	-7.856367e+001	-1.457118e+002	-8.057330e+001	-1.584020e+002	-1.095883e+000	-1.057966e+002
110034003	-1.012259e+000	-1.076785e+002	-8.160285e+001	-1.495513e+002	-7.891239e+001	-1.659989e+002	-1.099047e+000	-1.058039e+002
110036004	-1.012988e+000	-1.076807e+002	-8.106733e+001	-1.540797e+002	-7.806455e+001	1.714500e+002	-1.097863e+000	-1.057949e+002
110038004	-1.014150e+000	-1.076833e+002	-7.912596e+001	1.777119e+002	-7.990384e+001	-1.559692e+002	-1.097038e+000	-1.057933e+002
110040004	-1.013978e+000	-1.076907e+002	-7.637283e+001	-1.625780e+002	-8.007676e+001	-1.603565e+002	-1.099384e+000	-1.058008e+002
110042004	-1.010434e+000	-1.076808e+002	-8.221649e+001	1.798524e+002	-7.929017e+001	-1.740848e+002	-1.096181e+000	-1.058098e+002
110044004	-1.013299e+000	-1.076795e+002	-7.774618e+001	1.449740e+002	-7.907828e+001	-1.395241e+002	-1.098545e+000	-1.057950e+002
110046005	-1.014273e+000	-1.076891e+002	-7.942744e+001	-1.647425e+002	-8.578816e+001	-1.503415e+002	-1.097659e+000	-1.058030e+002
110048005	-1.013506e+000	-1.076817e+002	-8.225453e+001	-1.597293e+002	-7.771698e+001	1.608519e+002	-1.099308e+000	-1.058203e+002
110050005	-1.012680e+000	-1.076922e+002	-8.070567e+001	-1.550579e+002	-7.736349e+001	-1.411921e+002	-1.098673e+000	-1.058049e+002
110052005	-1.012744e+000	-1.076968e+002	-7.732844e+001	-1.665866e+002	-8.270838e+001	1.486024e+002	-1.097981e+000	-1.058163e+002
110054005	-1.012663e+000	-1.076933e+002	-7.814083e+001	-1.673262e+002	-8.129479e+001	1.777941e+002	-1.100369e+000	-1.058130e+002
110056006	-1.012199e+000	-1.077016e+002	-8.136595e+001	-1.720564e+002	-8.426787e+001	-1.747983e+002	-1.098103e+000	-1.058154e+002
110058006	-1.014060e+000	-1.076865e+002	-8.318434e+001	-1.506767e+002	-8.077008e+001	-1.655160e+002	-1.097962e+000	-1.058166e+002
110060006	-1.012652e+000	-1.077079e+002	-7.559931e+001	1.753685e+002	-7.745967e+001	-1.566545e+002	-1.101188e+000	-1.058202e+002
110062006	-1.010815e+000	-1.077002e+002	-7.877031e+001	1.661272e+002	-7.886614e+001	-1.640078e+002	-1.099905e+000	-1.058276e+002
110064006	-1.012363e+000	-1.077056e+002	-8.438341e+001	1.351859e+002	-7.876592e+001	-1.669852e+002	-1.101670e+000	-1.058110e+002
110066007	-1.012090e+000	-1.077061e+002	-7.766820e+001	-1.652482e+002	-7.707818e+001	1.789284e+002	-1.098908e+000	-1.058163e+002
110068007	-1.013369e+000	-1.077006e+002	-7.890834e+001	-1.643565e+002	-7.964129e+001	-1.586514e+002	-1.099915e+000	-1.058232e+002
110070007	-1.013175e+000	-1.077047e+002	-8.096255e+001	-1.722299e+002	-8.147112e+001	1.635069e+002	-1.099402e+000	-1.058202e+002
110072007	-1.012095e+000	-1.077033e+002	-7.804915e+001	-1.582730e+002	-7.820983e+001	-1.766539e+002	-1.097826e+000	-1.058380e+002
110074007	-1.012534e+000	-1.077016e+002	-8.023278e+001	-1.537333e+002	-8.058531e+001	-1.693660e+002	-1.100816e+000	-1.058258e+002
110076008	-1.012769e+000	-1.077072e+002	-7.514067e+001	-1.760012e+002	-8.001467e+001	-1.661308e+002	-1.099720e+000	-1.058415e+002
110078008	-1.012328e+000	-1.077199e+002	-7.473845e+001	1.635382e+002	-7.779634e+001	-1.738673e+002	-1.099155e+000	-1.058292e+002
110080008	-1.012861e+000	-1.077100e+002	-8.041719e+001	-1.737208e+002	-8.342771e+001	-1.729668e+002	-1.097732e+000	-1.058444e+002
110082008	-1.014015e+000	-1.077230e+002	-8.047299e+001	1.546709e+002	-8.053068e+001	1.786097e+002	-1.097658e+000	-1.058530e+002
110084008	-1.012486e+000	-1.077285e+002	-7.893894e+001	-1.506813e+002	-8.323487e+001	-1.544893e+002	-1.099200e+000	-1.058452e+002
110086009	-1.012252e+000	-1.077317e+002	-7.827839e+001	1.689767e+002	-8.605107e+001	-1.660997e+002	-1.099716e+000	-1.058423e+002
110088009	-1.012390e+000	-1.077237e+002	-8.081600e+001	-1.610684e+002	-7.900562e+001	-1.647800e+002	-1.099451e+000	-1.058305e+002
110090009	-1.011981e+000	-1.077264e+002	-7.544471e+001	-1.778506e+002	-7.995933e+001	1.780018e+002	-1.098653e+000	-1.058451e+002
110092009	-1.012777e+000	-1.077281e+002	-7.932933e+001	-1.174222e+002	-7.894902e+001	-1.718790e+002	-1.101131e+000	-1.058351e+002
110094009	-1.013412e+000	-1.077283e+002	-8.308652e+001	-1.434682e+002	-7.709203e+001	-1.606386e+002	-1.099675e+000	-1.058445e+002
110096010	-1.011920e+000	-1.077343e+002	-8.761799e+001	-1.397992e+002	-7.965117e+001	1.693636e+002	-1.097050e+000	-1.058557e+002
110098010	-1.011984e+000	-1.077354e+002	-7.643458e+001	-1.652914e+002	-8.019305e+001	1.693735e+002	-1.099300e+000	-1.058293e+002
110100010	-1.013064e+000	-1.077368e+002	-7.794912e+001	1.621847e+002	-7.893122e+001	-1.718448e+002	-1.099731e+000	-1.058615e+002
110102010	-1.012710e+000	-1.077397e+002	-8.155058e+001	-1.758225e+002	-8.266829e+001	-1.456570e+002	-1.101508e+000	-1.058521e+002
110104010	-1.013291e+000	-1.077536e+002	-8.569957e+001	-1.641625e+002	-8.097321e+001	1.743632e+002	-1.099234e+000	-1.058701e+002
110106011	-1.012759e+000	-1.077431e+002	-7.624098e+001	-1.633116e+002	-8.387675e+001	-1.510392e+002	-1.100025e+000	-1.058681e+002
110108011	-1.013070e+000	-1.077350e+002	-7.579119e+001	1.767098e+002	-7.896857e+001	1.769964e+002	-1.101153e+000	-1.058726e+002
110110011	-1.013756e+000	-1.077509e+002	-8.138566e+001	1.378379e+002	-8.316956e+001	-1.712416e+002	-1.098362e+000	-1.058640e+002
110112011	-1.013357e+000	-1.077447e+002	-8.127875e+001	-1.628212e+002	-8.418215e+001	-1.783810e+002	-1.100960e+000	-1.058780e+002
110114011	-1.011902e+000	-1.077645e+002	-7.825563e+001	1.690719e+002	-8.103447e+001	1.768152e+002	-1.100764e+000	-1.058673e+002
110116012	-1.012905e+000	-1.077573e+002	-8.136842e+001	-1.171915e+002	-7.746419e+001	1.795018e+002	-1.098294e+000	-1.058685e+002
110118012	-1.012832e+000	-1.077491e+002	-8.041556e+001	-1.653432e+002	-7.945343e+001	-1.263483e+002	-1.101225e+000	-1.058751e+002
110120012	-1.015893e+000	-1.077542e+002	-8.070882e+001	-1.494710e+002	-7.793965e+001	-1.710407e+002	-1.101963e+000	-1.058687e+002
110122012	-1.014356e+000	-1.077580e+002	-8.553616e+001	-1.599835e+002	-7.952654e+001	-1.674192e+002	-1.098063e+000	-1.058791e+002
110124012	-1.012956e+000	-1.077567e+002	-7.907524e+001	1.778339e+002	-7.643738e+001	-1.462703e+002	-1.098143e+000	-1.058702e+002
110126013	-1.014450e+000	-1.077667e+002	-8.599882e+001	-1.416227e+002	-7.755246e+001	-1.642022e+002	-1.098951e+000	-1.058817e+002
110128013	-1.014831e+000	-1.077669e+002	-7.805870e+001	1.712443e+002	-8.865866e+001	-1.365887e+002	-1.100352e+000	-1.058839e+002
110130013	-1.013693e+000	-1.077660e+002	-8.318123e+001	1.715778e+002	-7.854248e+001	-1.641369e+002	-1.097903e+000	-1.058706e+002
110132013	-1.014609e+000	-1.077596e+002	-7.925703e+001	-1.750968e+002	-8.838033e+001	-1.638271e+002	-1.100451e+000	-1.058884e+002
110134013	-1.012755e+000	-1.077625e+002	-8.324423e+001	1.355925e+002	-8.222266e+001	1.547219e+002	-1.099891e+000	-1.058741e+002
110136014	-1.014156e+000	-1.077752e+002	-8.354288e+001	-1.392231e+002	-8.723596e+001	1.571070e+002	-1.098993e+000	-1.058870e+002
110138014	-1.014070e+000	-1.077774e+002	-8.482256e+001	-1.672385e+002	-8.026416e+001	1.643308e+002	-1.102664e+000	-1.058946e+002
110140014	-1.012498e+000	-1.077716e+002	-8.420659e+001	1.644983e+002	-8.786211e+001	-1.615429e+002	-1.099152e+000	-1.059136e+002
110142014	-1.014931e+000	-1.077841e+002	-7.785499e+001	-1.575893e+002	-8.134983e+001	-1.593913e+002	-1.100849e+000	-1.058952e+002
110144014	-1.014752e+000	-1.077858e+002	-8.262364e+001	-1.586030e+002	-7.936771e+001	1.573824e+002	-1.100651e+000	-1.059007e+002
110146015	-1.013408e+000	-1.077811e+002	-7.665065e+001	-1.663974e+002	-8.305403e+001	-1.513240e+002	-1.101550e+000	-1.058958e+002
110148015	-1.015011e+000	-1.077786e+002	-7.982839e+001	-1.320282e+002	-8.078465e+001	-1.456470e+002	-1.099173e+000	-1.059020e+002
110150015	-1.016042e+000	-1.077869e+002	-7.940692e+001	-1.780589e+002	-8.467153e+001	-1.629901e+002	-1.098234e+000	-1.058972e+002
110152015	-1.014094e+000	-1.077936e+002	-7.988943e+001	-1.770699e+002	-7.964224e+001	-1.515752e+002	-1.100844e+000	-1.059307e+002
110154015	-1.015125e+000	-1.077775e+002	-7.630353e+001	1.719159e+002	-8.495620e+001	1.687907e+002	-1.100096e+000	-1.059094e+002
110156016	-1.012670e+000	-1.077934e+002	-8.280970e+001	-1.497879e+002	-7.739147e+001	-1.446965e+002	-1.099378e+000	-1.059077e+002
110158016	-1.014641e+000	-1.077901e+002	-7.875252e+001	1.712626e+002	-8.637578e+001	-1.482998e+002	-1.101562e+000	-1.059156e+002
110160016	-1.013852e+000	-1.078020e+002	-8.232479e+001	1.681948e+002	-8.358069e+001	-1.641503e+002	-1.101605e+000	-1.059356e+002
110162016	-1.013456e+000	-1.077887e+002	-8.265849e+001	1.509253e+002	-7.984068e+001	-1.557338e+002	-1.102281e+000	-1.059122e+002
110164016	-1.014645e+000	-1.077975e+002	-7.989929e+001	-1.579058e+002	-8.257469e+001	1.717440e+002	-1.100958e+000	-1.059239e+002
110166017	-1.015171e+000	-1.077951e+002	-7.948563e+001	-1.599108e+002	-8.173331e+001	-1.657938e+002	-1.100543e+000	-1.059127e+002
110168017	-1.013292e+000	-1.078113e+002	-8.010146e+001	-1.191205e+002	-8.086449e+001	1.784196e+002	-1.102664e+000	-1.059252e+002
110170017	-1.013508e+000	-1.078034e+002	-8.635970e+001	-1.083968e+002	-8.174638e+001	-1.498736e+002	-1.102224e+000	-1.059226e+002
110172017	-1.013782e+000	-1.078169e+002	-8.736706e+001	-8.700212e+001	-7.960296e+001	-1.584150e+002	-1.100736e+000	-1.059257e+002
110174017	-1.014683e+000	-1.078232e+002	-8.220532e+001	-1.155045e+002	-7.980531e+001	-1.486445e+002	-1.101352e+000	-1.059092e+002
110176018	-1.015607e+000	-1.078051e+002	-8.127951e+001	-1.585498e+002	-7.994759e+001	-1.636203e+002	-1.099971e+000	-1.059408e+002
110178018	-1.014858e+000	-1.078180e+002	-8.192093e+001	-1.541514e+002	-8.385901e+001	-1.429869e+002	-1.103557e+000	-1.059349e+002
110180018	-1.015531e+000	-1.078182e+002	-7.862463e+001	-1.084277e+002	-8.153136e+001	-1.412774e+002	-1.100715e+000	-1.059258e+002
110182018	-1.014584e+000	-1.078266e+002	-7.767641e+001	-1.667270e+002	-8.031090e+001	-1.632706e+002	-1.101153e+000	-1.059316e+002
110184018	-1.015129e+000	-1.078261e+002	-8.449413e+001	-1.656717e+002	-7.921212e+001	-1.778923e+002	-1.101674e+000	-1.059479e+002
110186019	-1.013153e+000	-1.078216e+002	-8.242405e+001	-1.214827e+002	-8.270030e+001	-1.232818e+002	-1.101196e+000	-1.059434e+002
110188019	-1.015076e+000	-1.078325e+002	-7.999731e+001	-1.564649e+002	-7.821771e+001	-1.382451e+002	-1.101089e+000	-1.059378e+002
110190019	-1.011928e+000	-1.078264e+002	-8.448060e+001	-1.656403e+002	-8.440126e+001	-1.554392e+002	-1.102073e+000	-1.059462e+002
110192019	-1.014735e+000	-1.078310e+002	-7.906064e+001	1.465601e+002	-7.711995e+001	-1.620618e+002	-1.100383e+000	-1.059495e+002
110194019	-1.014966e+000	-1.078249e+002	-8.395963e+001	-1.344533e+002	-7.826117e+001	-1.369186e+002	-1.102987e+000	-1.059317e+002
110196020	-1.016354e+000	-1.078177e+002	-8.115941e+001	-1.601472e+002	-8.454714e+001	-1.591005e+002	-1.100735e+000	-1.059426e+002
110198020	-1.016471e+000	-1.078203e+002	-8.004605e+001	-1.271885e+002	-8.203944e+001	-1.551846e+002	-1.101173e+000	-1.059465e+002
110200020	-1.014230e+000	-1.078250e+002	-8.045253e+001	1.675547e+002	-7.939254e+001	-1.726768e+002	-1.100413e+000	-1.059504e+002
110202020	-1.015241e+000	-1.078399e+002	-8.766478e+001	1.011522e+002	-7.986894e+001	-1.229067e+002	-1.102442e+000	-1.059505e+002
110204020	-1.016159e+000	-1.078462e+002	-7.820299e+001	-1.123339e+002	-8.194336e+001	1.607627e+002	-1.100304e+000	-1.059528e+002
110206021	-1.015334e+000	-1.078403e+002	-7.979426e+001	1.653422e+002	-8.250522e+001	1.553061e+002	-1.102954e+000	-1.059626e+002
110208021	-1.012921e+000	-1.078484e+002	-8.187443e+001	-1.241048e+002	-7.898962e+001	-1.276746e+002	-1.102291e+000	-1.059425e+002
110210021	-1.016111e+000	-1.078425e+002	-8.054317e+001	-1.637780e+002	-8.540521e+001	-8.478194e+001	-1.102521e+000	-1.059890e+002
110212021	-1.015551e+000	-1.078525e+002	-9.093672e+001	-1.610292e+002	-8.814756e+001	-1.487019e+002	-1.105103e+000	-1.059558e+002
110214021	-1.015079e+000	-1.078510e+002	-8.532839e+001	1.527974e+002	-8.320655e+001	-1.542160e+002	-1.101271e+000	-1.059791e+002
110216022	-1.014594e+000	-1.078568e+002	-7.636382e+001	-1.589147e+002	-7.688288e+001	-1.694973e+002	-1.103406e+000	-1.059639e+002
110218022	-1.014863e+000	-1.078535e+002	-8.081113e+001	-1.179124e+002	-8.939764e+001	-1.521059e+002	-1.102290e+000	-1.059641e+002
110220022	-1.016153e+000	-1.078545e+002	-8.151725e+001	-1.593456e+002	-7.750553e+001	-1.623765e+002	-1.104549e+000	-1.059694e+002
110222022	-1.016829e+000	-1.078612e+002	-8.132175e+001	-1.795354e+002	-7.786463e+001	-1.468455e+002	-1.101330e+000	-1.059712e+002
110224022	-1.016069e+000	-1.078505e+002	-8.102569e+001	-1.680876e+002	-7.979125e+001	-1.485518e+002	-1.102122e+000	-1.059786e+002
110226023	-1.016656e+000	-1.078611e+002	-8.702904e+001	1.678060e+002	-8.182172e+001	-1.416712e+002	-1.102092e+000	-1.059796e+002
110228023	-1.014093e+000	-1.078606e+002	-7.968657e+001	-1.067423e+002	-8.022992e+001	-1.714717e+002	-1.102550e+000	-1.059744e+002
110230023	-1.013724e+000	-1.078726e+002	-8.140848e+001	1.737977e+002	-7.950152e+001	-1.494289e+002	-1.104950e+000	-1.059619e+002
110232023	-1.015556e+000	-1.078629e+002	-7.970820e+001	-1.411323e+002	-8.586397e+001	-1.212670e+002	-1.103320e+000	-1.059846e+002
110234023	-1.016487e+000	-1.078613e+002	-8.030184e+001	-1.628606e+002	-8.596522e+001	-1.541942e+002	-1.103736e+000	-1.059900e+002
110236024	-1.014957e+000	-1.078669e+002	-7.857823e+001	-1.426821e+002	-7.843332e+001	-1.572039e+002	-1.102120e+000	-1.059720e+002
110238024	-1.015323e+000	-1.078767e+002	-7.712477e+001	-1.564329e+002	-7.832188e+001	-1.494114e+002	-1.104090e+000	-1.059945e+002
110240024	-1.016057e+000	-1.078811e+002	-7.575297e+001	-1.426770e+002	-8.266024e+001	-1.710561e+002	-1.101626e+000	-1.059997e+002
110242024	-1.016230e+000	-1.078786e+002	-8.432864e+001	-1.292829e+002	-8.149202e+001	-1.533208e+002	-1.103453e+000	-1.060038e+002
110244024	-1.015580e+000	-1.078760e+002	-8.047530e+001	1.736116e+002	-8.233726e+001	-1.446731e+002	-1.103934e+000	-1.059973e+002
110246025	-1.016095e+000	-1.078803e+002	-8.455404e+001	-1.041308e+002	-8.713806e+001	-1.674010e+002	-1.105296e+000	-1.060158e+002
110248025	-1.018735e+000	-1.078847e+002	-8.102580e+001	-1.576289e+002	-8.060150e+001	-1.327886e+002	-1.103010e+000	-1.060000e+002
110250025	-1.014888e+000	-1.078856e+002	-8.009365e+001	-1.548764e+002	-8.163535e+001	-1.454066e+002	-1.104380e+000	-1.059965e+002
110252025	-1.015831e+000	-1.078862e+002	-8.185553e+001	-1.397062e+002	-7.988027e+001	-1.291492e+002	-1.104744e+000	-1.060028e+002
110254025	-1.017915e+000	-1.078829e+002	-8.124097e+001	-1.690720e+002	-8.004205e+001	-1.563038e+002	-1.103425e+000	-1.060023e+002
110256026	-1.016149e+000	-1.078944e+002	-8.117463e+001	1.565756e+002	-8.639570e+001	-1.275342e+002	-1.104696e+000	-1.059938e+002
110258026	-1.016825e+000	-1.078977e+002	-7.764216e+001	-1.622506e+002	-8.236530e+001	-1.254544e+002	-1.102974e+000	-1.060049e+002
110260026	-1.016430e+000	-1.078916e+002	-8.116120e+001	-1.134197e+002	-8.099949e+001	-1.460411e+002	-1.102276e+000	-1.060082e+002
110262026	-1.015028e+000	-1.078935e+002	-8.282514e+001	-1.252981e+002	-7.964103e+001	-1.465047e+002	-1.101795e+000	-1.060076e+002
110264026	-1.017133e+000	-1.079007e+002	-8.107111e+001	-1.354090e+002	-8.205073e+001	-1.623904e+002	-1.101495e+000	-1.060120e+002
110266027	-1.017830e+000	-1.079048e+002	-8.587104e+001	-1.444143e+002	-7.955722e+001	-1.479563e+002	-1.104040e+000	-1.060161e+002
110268027	-1.016663e+000	-1.079037e+002	-7.726814e+001	-1.470125e+002	-7.939936e+001	-1.507676e+002	-1.103656e+000	-1.060030e+002
110270027	-1.018971e+000	-1.078979e+002	-7.877098e+001	-1.529247e+002	-7.563755e+001	-1.705222e+002	-1.101177e+000	-1.060124e+002
110272027	-1.016616e+000	-1.079154e+002	-7.865942e+001	-1.250344e+002	-8.090474e+001	-1.257828e+002	-1.102878e+000	-1.060125e+002
110274027	-1.014926e+000	-1.078957e+002	-8.028317e+001	-1.350966e+002	-8.093621e+001	-8.639711e+001	-1.101940e+000	-1.060270e+002
110276028	-1.017754e+000	-1.079104e+002	-7.980506e+001	-1.507603e+002	-8.038453e+001	-1.411758e+002	-1.102648e+000	-1.060336e+002
110278028	-1.015754e+000	-1.079080e+002	-8.285607e+001	-1.362386e+002	-8.063833e+001	-1.292624e+002	-1.104044e+000	-1.060323e+002
110280028	-1.017772e+000	-1.079195e+002	-7.871202e+001	-1.345735e+002	-7.949830e+001	-1.445296e+002	-1.103651e+000	-1.060499e+002
110282028	-1.017172e+000	-1.079060e+002	-8.148334e+001	-1.633925e+002	-7.702955e+001	-1.263906e+002	-1.103311e+000	-1.060344e+002
110284028	-1.018608e+000	-1.079156e+002	-8.123679e+001	-1.093327e+002	-8.171502e+001	-1.216983e+002	-1.106162e+000	-1.060287e+002
110286029	-1.016535e+000	-1.079165e+002	-7.791238e+001	-1.661752e+002	-8.194111e+001	-1.668103e+002	-1.104566e+000	-1.060362e+002
110288029	-1.017419e+000	-1.079190e+002	-7.753376e+001	-1.767695e+002	-9.003994e+001	-1.378223e+002	-1.103219e+000	-1.060279e+002
110290029	-1.018356e+000	-1.079254e+002	-7.986749e+001	-1.208439e+002	-7.677867e+001	-1.353515e+002	-1.104520e+000	-1.060349e+002
110292029	-1.016997e+000	-1.079323e+002	-7.786660e+001	-1.380063e+002	-7.871496e+001	-1.503341e+002	-1.104612e+000	-1.060308e+002
110294029	-1.018735e+000	-1.079040e+002	-7.952755e+001	-1.746722e+002	-8.301479e+001	-1.510144e+002	-1.104133e+000	-1.060409e+002
110296030	-1.017785e+000	-1.079211e+002	-8.041247e+001	-1.218226e+002	-8.334591e+001	-1.030407e+002	-1.104958e+000	-1.060480e+002
110298030	-1.018048e+000	-1.079410e+002	-7.634465e+001	-1.202997e+002	-8.025319e+001	-1.374997e+002	-1.103165e+000	-1.060457e+002
110300030	-1.014958e+000	-1.079295e+002	-7.911715e+001	-1.346803e+002	-7.695469e+001	-1.412602e+002	-1.104923e+000	-1.060571e+002
