!Agilent Technologies,E5071C,MY46520923,B.12.03
!Date: Wed Feb 07 10:30:14 2024
!Data & Calibration Information:
!Freq	S11:SOLT2(ON)	S21:SOLT2(ON)	S12:SOLT2(ON)	S22:SOLT2(ON)
!PortZ  Port1:50+j0    Port2:50+j0
!Above PortZ is port z conversion or system Z0 setting when saving the data.
!When reading, reference impedance value at option line is always used.
# Hz S dB R 50
110000000	-9.359207e-001	-1.069969e+002	-7.962008e+001	-1.730239e+002	-7.838733e+001	-1.776160e+002	-1.248310e+000	-1.057904e+002
110002000	-9.382709e-001	-1.069926e+002	-7.940841e+001	-1.724921e+002	-7.728657e+001	-1.626956e+002	-1.247569e+000	-1.057908e+002
110004000	-9.386619e-001	-1.069860e+002	-7.679921e+001	-1.582267e+002	-9.507183e+001	-9.618604e+001	-1.249301e+000	-1.057702e+002
110006001	-9.341342e-001	-1.070036e+002	-7.927856e+001	-1.517943e+002	-7.844418e+001	-1.664592e+002	-1.246796e+000	-1.057780e+002
110008001	-9.419742e-001	-1.070091e+002	-8.075897e+001	-1.637721e+002	-7.708715e+001	-1.566425e+002	-1.248852e+000	-1.058061e+002
110010001	-9.386170e-001	-1.070087e+002	-7.802224e+001	-1.655236e+002	-8.085262e+001	-1.599317e+002	-1.247575e+000	-1.057985e+002
110012001	-9.367051e-001	-1.069991e+002	-7.541699e+001	-1.676187e+002	-7.740349e+001	-1.667417e+002	-1.248867e+000	-1.057926e+002
110014001	-9.369925e-001	-1.070019e+002	-8.750078e+001	1.331422e+002	-8.602431e+001	1.786703e+002	-1.248573e+000	-1.058086e+002
110016002	-9.396138e-001	-1.070100e+002	-8.131348e+001	-1.702695e+002	-7.830434e+001	-1.747095e+002	-1.249454e+000	-1.057933e+002
110018002	-9.388876e-001	-1.070149e+002	-8.021712e+001	1.723038e+002	-7.948331e+001	-1.550558e+002	-1.249150e+000	-1.058043e+002
110020002	-9.394759e-001	-1.070183e+002	-8.011793e+001	-1.454652e+002	-8.121581e+001	-1.642664e+002	-1.249231e+000	-1.058029e+002
110022002	-9.374552e-001	-1.070251e+002	-8.161541e+001	-1.750092e+002	-7.768264e+001	-1.488144e+002	-1.249635e+000	-1.057927e+002
110024002	-9.376326e-001	-1.070207e+002	-8.111362e+001	-1.735730e+002	-7.788774e+001	-1.589097e+002	-1.249882e+000	-1.058102e+002
110026003	-9.417607e-001	-1.070299e+002	-7.770788e+001	-1.675274e+002	-7.901683e+001	-1.709315e+002	-1.247445e+000	-1.058094e+002
110028003	-9.383964e-001	-1.070235e+002	-7.713209e+001	-1.631012e+002	-7.631446e+001	-1.496679e+002	-1.247808e+000	-1.058208e+002
110030003	-9.378777e-001	-1.070177e+002	-7.708391e+001	-1.723720e+002	-8.117667e+001	-1.567718e+002	-1.249728e+000	-1.058002e+002
110032003	-9.388428e-001	-1.070312e+002	-7.914500e+001	1.682481e+002	-8.028623e+001	1.732543e+002	-1.246213e+000	-1.058001e+002
110034003	-9.401628e-001	-1.070215e+002	-7.905504e+001	-1.346634e+002	-8.071860e+001	-1.527484e+002	-1.248331e+000	-1.058088e+002
110036004	-9.387966e-001	-1.070408e+002	-8.027899e+001	-1.681908e+002	-8.081010e+001	-1.598768e+002	-1.248773e+000	-1.058352e+002
110038004	-9.386778e-001	-1.070243e+002	-8.022284e+001	-1.630877e+002	-7.729620e+001	-1.452061e+002	-1.247529e+000	-1.058095e+002
110040004	-9.409745e-001	-1.070397e+002	-8.059342e+001	1.703419e+002	-7.956725e+001	-1.795189e+002	-1.246373e+000	-1.058204e+002
110042004	-9.405048e-001	-1.070269e+002	-7.486319e+001	-1.721256e+002	-7.696798e+001	-1.670719e+002	-1.248647e+000	-1.058248e+002
110044004	-9.393341e-001	-1.070345e+002	-8.570815e+001	-1.332985e+002	-7.823065e+001	-1.647477e+002	-1.246988e+000	-1.058175e+002
110046005	-9.385598e-001	-1.070419e+002	-7.674937e+001	-1.797456e+002	-8.148646e+001	-1.532280e+002	-1.246896e+000	-1.058102e+002
110048005	-9.390875e-001	-1.070510e+002	-7.710036e+001	-1.687510e+002	-7.828919e+001	-1.634710e+002	-1.246255e+000	-1.058204e+002
110050005	-9.396052e-001	-1.070362e+002	-7.779255e+001	-1.728300e+002	-8.268062e+001	-1.721300e+002	-1.249576e+000	-1.058369e+002
110052005	-9.376701e-001	-1.070469e+002	-8.168723e+001	-1.731518e+002	-8.182953e+001	1.633482e+002	-1.246890e+000	-1.058200e+002
110054005	-9.392747e-001	-1.070470e+002	-8.134837e+001	-1.444207e+002	-7.991844e+001	-1.538371e+002	-1.250255e+000	-1.058280e+002
110056006	-9.397786e-001	-1.070483e+002	-8.275530e+001	-1.715012e+002	-8.058847e+001	-1.578304e+002	-1.249397e+000	-1.058337e+002
110058006	-9.389764e-001	-1.070341e+002	-8.081051e+001	-1.448364e+002	-8.061509e+001	-1.388802e+002	-1.246711e+000	-1.058310e+002
110060006	-9.399738e-001	-1.070491e+002	-7.755332e+001	-1.245678e+002	-8.088654e+001	-1.563960e+002	-1.247015e+000	-1.058440e+002
110062006	-9.384856e-001	-1.070590e+002	-7.951161e+001	-1.729418e+002	-8.490452e+001	-1.588221e+002	-1.248804e+000	-1.058362e+002
110064006	-9.409909e-001	-1.070455e+002	-8.028330e+001	-1.435981e+002	-7.677485e+001	-1.363994e+002	-1.249286e+000	-1.058313e+002
110066007	-9.400812e-001	-1.070572e+002	-7.929214e+001	-1.309724e+002	-7.586637e+001	1.738724e+002	-1.249968e+000	-1.058449e+002
110068007	-9.387521e-001	-1.070590e+002	-7.678996e+001	-1.704896e+002	-8.385047e+001	1.569052e+002	-1.250041e+000	-1.058448e+002
110070007	-9.386082e-001	-1.070437e+002	-7.940067e+001	1.758097e+002	-7.567071e+001	-1.653389e+002	-1.250480e+000	-1.058406e+002
110072007	-9.402752e-001	-1.070485e+002	-8.199325e+001	-1.782725e+002	-7.969493e+001	-1.474951e+002	-1.247764e+000	-1.058440e+002
110074007	-9.391952e-001	-1.070587e+002	-7.941748e+001	-1.487944e+002	-7.924867e+001	-1.489036e+002	-1.248593e+000	-1.058493e+002
110076008	-9.403040e-001	-1.070772e+002	-7.885638e+001	-1.757721e+002	-8.135010e+001	1.741090e+002	-1.250057e+000	-1.058528e+002
110078008	-9.395838e-001	-1.070566e+002	-8.547897e+001	-1.635480e+002	-7.962503e+001	-1.678546e+002	-1.249923e+000	-1.058661e+002
110080008	-9.390119e-001	-1.070824e+002	-8.518589e+001	-1.459815e+002	-8.067748e+001	-1.440168e+002	-1.249612e+000	-1.058664e+002
110082008	-9.413125e-001	-1.070651e+002	-8.114530e+001	-1.516372e+002	-7.971365e+001	-1.663787e+002	-1.249393e+000	-1.058516e+002
110084008	-9.395925e-001	-1.070756e+002	-8.390743e+001	-1.262162e+002	-8.002688e+001	-1.587408e+002	-1.251618e+000	-1.058676e+002
110086009	-9.397433e-001	-1.070745e+002	-7.924268e+001	-1.692016e+002	-7.779976e+001	-1.717857e+002	-1.249141e+000	-1.058559e+002
110088009	-9.396157e-001	-1.070836e+002	-8.164377e+001	-1.592791e+002	-7.783377e+001	-1.587578e+002	-1.251043e+000	-1.058668e+002
110090009	-9.409052e-001	-1.070657e+002	-8.371557e+001	-1.662327e+002	-8.277280e+001	-1.496571e+002	-1.248366e+000	-1.058557e+002
110092009	-9.401843e-001	-1.070808e+002	-7.964663e+001	-1.516515e+002	-8.116645e+001	-1.548116e+002	-1.250861e+000	-1.058506e+002
110094009	-9.402718e-001	-1.070854e+002	-8.017501e+001	-1.782620e+002	-7.646757e+001	-1.740128e+002	-1.249418e+000	-1.058695e+002
110096010	-9.418303e-001	-1.070739e+002	-7.981663e+001	1.776523e+002	-8.028687e+001	-1.374330e+002	-1.250617e+000	-1.058651e+002
110098010	-9.392481e-001	-1.070832e+002	-8.235987e+001	1.486396e+002	-7.910733e+001	-1.635362e+002	-1.249946e+000	-1.058696e+002
110100010	-9.397644e-001	-1.070969e+002	-7.685183e+001	-1.450525e+002	-7.659388e+001	-1.696167e+002	-1.250040e+000	-1.058760e+002
110102010	-9.394162e-001	-1.070810e+002	-8.398839e+001	-1.491610e+002	-8.041369e+001	1.723222e+002	-1.250412e+000	-1.058723e+002
110104010	-9.393476e-001	-1.070872e+002	-8.200357e+001	-1.656673e+002	-7.855289e+001	-1.611153e+002	-1.249369e+000	-1.058657e+002
110106011	-9.373982e-001	-1.071027e+002	-9.193697e+001	-1.641255e+002	-7.579572e+001	-1.484283e+002	-1.251027e+000	-1.058770e+002
110108011	-9.407561e-001	-1.070935e+002	-8.123130e+001	1.736886e+002	-7.860846e+001	-1.460652e+002	-1.252014e+000	-1.058765e+002
110110011	-9.384461e-001	-1.070955e+002	-7.912354e+001	-1.660139e+002	-7.956007e+001	-1.367004e+002	-1.250145e+000	-1.058738e+002
110112011	-9.417988e-001	-1.070972e+002	-7.837311e+001	-1.688272e+002	-8.140445e+001	-1.748102e+002	-1.251741e+000	-1.058792e+002
110114011	-9.382611e-001	-1.070991e+002	-8.574227e+001	-1.768147e+002	-7.875878e+001	-1.702339e+002	-1.249552e+000	-1.058764e+002
110116012	-9.395373e-001	-1.071121e+002	-7.834259e+001	-1.729254e+002	-8.267016e+001	1.629548e+002	-1.249400e+000	-1.058876e+002
110118012	-9.425658e-001	-1.071020e+002	-7.956361e+001	-1.441100e+002	-8.547490e+001	-1.473851e+002	-1.251253e+000	-1.058831e+002
110120012	-9.400931e-001	-1.071102e+002	-7.759171e+001	-1.479798e+002	-7.851682e+001	-1.666543e+002	-1.252618e+000	-1.058688e+002
110122012	-9.409803e-001	-1.071163e+002	-8.228104e+001	-1.536402e+002	-8.129313e+001	-1.605269e+002	-1.252410e+000	-1.058970e+002
110124012	-9.398069e-001	-1.071238e+002	-8.377162e+001	-1.152215e+002	-7.794114e+001	-1.537495e+002	-1.249937e+000	-1.058975e+002
110126013	-9.415551e-001	-1.071135e+002	-8.478661e+001	-1.542673e+002	-7.765218e+001	1.728171e+002	-1.251719e+000	-1.058992e+002
110128013	-9.405643e-001	-1.071191e+002	-8.188935e+001	-1.437013e+002	-8.098221e+001	-1.062132e+002	-1.249193e+000	-1.058969e+002
110130013	-9.426031e-001	-1.071226e+002	-8.224381e+001	-1.680810e+002	-7.964393e+001	-1.535436e+002	-1.253260e+000	-1.059093e+002
110132013	-9.405694e-001	-1.071300e+002	-7.668263e+001	1.780125e+002	-7.931493e+001	-1.686234e+002	-1.249425e+000	-1.059132e+002
110134013	-9.416516e-001	-1.071171e+002	-8.138260e+001	-1.366349e+002	-8.068252e+001	-1.473149e+002	-1.252094e+000	-1.059016e+002
110136014	-9.420110e-001	-1.071284e+002	-8.006588e+001	-1.659731e+002	-7.592337e+001	-1.493392e+002	-1.248899e+000	-1.058911e+002
110138014	-9.398457e-001	-1.071267e+002	-8.029017e+001	-1.580287e+002	-7.879058e+001	-1.487720e+002	-1.249437e+000	-1.059020e+002
110140014	-9.416054e-001	-1.071329e+002	-7.987735e+001	-1.187298e+002	-7.874709e+001	-1.529077e+002	-1.251969e+000	-1.059058e+002
110142014	-9.398179e-001	-1.071274e+002	-8.322943e+001	1.798051e+002	-7.873483e+001	1.735024e+002	-1.252475e+000	-1.058977e+002
110144014	-9.426808e-001	-1.071186e+002	-7.946579e+001	-1.619808e+002	-7.757319e+001	-1.645939e+002	-1.254141e+000	-1.059172e+002
110146015	-9.428796e-001	-1.071288e+002	-7.821580e+001	-1.781149e+002	-8.050959e+001	-1.700742e+002	-1.251880e+000	-1.059169e+002
110148015	-9.426861e-001	-1.071261e+002	-7.594022e+001	-1.781465e+002	-8.000052e+001	-1.586348e+002	-1.252096e+000	-1.059089e+002
110150015	-9.398463e-001	-1.071402e+002	-7.958862e+001	-1.652398e+002	-7.876846e+001	-1.732294e+002	-1.254102e+000	-1.059358e+002
110152015	-9.413078e-001	-1.071348e+002	-8.127999e+001	-1.348813e+002	-7.986841e+001	-1.409611e+002	-1.250804e+000	-1.059213e+002
110154015	-9.427311e-001	-1.071404e+002	-8.280998e+001	-1.602804e+002	-7.752802e+001	-1.399930e+002	-1.254440e+000	-1.059326e+002
110156016	-9.410660e-001	-1.071404e+002	-8.414575e+001	-1.643354e+002	-7.671747e+001	-1.639787e+002	-1.251349e+000	-1.059202e+002
110158016	-9.397033e-001	-1.071501e+002	-8.058124e+001	-1.651090e+002	-7.944480e+001	-1.771769e+002	-1.250422e+000	-1.059245e+002
110160016	-9.406274e-001	-1.071579e+002	-8.256832e+001	-1.515087e+002	-7.918378e+001	-1.620571e+002	-1.248099e+000	-1.059241e+002
110162016	-9.419076e-001	-1.071357e+002	-7.958161e+001	-1.560346e+002	-7.738631e+001	-1.532294e+002	-1.253896e+000	-1.059438e+002
110164016	-9.420049e-001	-1.071370e+002	-7.842399e+001	-1.422588e+002	-7.821573e+001	-1.715186e+002	-1.250813e+000	-1.059411e+002
110166017	-9.420004e-001	-1.071641e+002	-7.771847e+001	-1.454457e+002	-7.994322e+001	-1.601592e+002	-1.253996e+000	-1.059545e+002
110168017	-9.403482e-001	-1.071611e+002	-8.319058e+001	-1.583762e+002	-7.784355e+001	-1.573567e+002	-1.251288e+000	-1.059556e+002
110170017	-9.408607e-001	-1.071615e+002	-8.342227e+001	-1.632774e+002	-8.458375e+001	-1.445354e+002	-1.252097e+000	-1.059382e+002
110172017	-9.408194e-001	-1.071538e+002	-7.933761e+001	-1.456521e+002	-7.697916e+001	-1.610214e+002	-1.250868e+000	-1.059345e+002
110174017	-9.430645e-001	-1.071662e+002	-7.793621e+001	-1.551965e+002	-7.837689e+001	-1.351702e+002	-1.251576e+000	-1.059532e+002
110176018	-9.432572e-001	-1.071641e+002	-7.936654e+001	-1.544362e+002	-7.853154e+001	-1.609906e+002	-1.255020e+000	-1.059467e+002
110178018	-9.420742e-001	-1.071733e+002	-7.789957e+001	-1.452515e+002	-8.075325e+001	-1.785373e+002	-1.253853e+000	-1.059604e+002
110180018	-9.430053e-001	-1.071750e+002	-8.028999e+001	-1.563242e+002	-8.066590e+001	-1.507399e+002	-1.253176e+000	-1.059457e+002
110182018	-9.436565e-001	-1.071592e+002	-8.457672e+001	1.711070e+002	-8.066938e+001	-1.472162e+002	-1.252838e+000	-1.059425e+002
110184018	-9.437571e-001	-1.071666e+002	-7.520604e+001	-1.368067e+002	-8.137766e+001	-1.567386e+002	-1.251707e+000	-1.059306e+002
110186019	-9.435975e-001	-1.071700e+002	-8.164885e+001	-1.728651e+002	-7.759168e+001	-1.595120e+002	-1.252972e+000	-1.059525e+002
110188019	-9.422208e-001	-1.071759e+002	-8.192865e+001	1.677270e+002	-8.351702e+001	-1.695037e+002	-1.252883e+000	-1.059415e+002
110190019	-9.430419e-001	-1.071761e+002	-8.221907e+001	-1.555470e+002	-7.680075e+001	-1.394418e+002	-1.250228e+000	-1.059523e+002
110192019	-9.427299e-001	-1.071648e+002	-8.152547e+001	1.622158e+002	-8.360457e+001	-1.594925e+002	-1.251619e+000	-1.059535e+002
110194019	-9.432362e-001	-1.071815e+002	-7.744288e+001	-1.608640e+002	-7.447326e+001	-1.540118e+002	-1.253106e+000	-1.059642e+002
110196020	-9.437650e-001	-1.071706e+002	-8.127497e+001	-8.799398e+001	-7.937092e+001	-1.547249e+002	-1.252995e+000	-1.059679e+002
110198020	-9.408285e-001	-1.071880e+002	-7.889978e+001	-1.223973e+002	-8.477161e+001	-1.181828e+002	-1.254757e+000	-1.059604e+002
110200020	-9.408802e-001	-1.071835e+002	-7.982172e+001	-1.483956e+002	-7.789944e+001	1.561275e+002	-1.253586e+000	-1.059749e+002
110202020	-9.419225e-001	-1.071880e+002	-7.571517e+001	-1.711181e+002	-8.161502e+001	-1.355003e+002	-1.251382e+000	-1.059697e+002
110204020	-9.442379e-001	-1.072070e+002	-7.784411e+001	-1.259917e+002	-8.143772e+001	-1.129774e+002	-1.252783e+000	-1.059701e+002
110206021	-9.420365e-001	-1.071842e+002	-7.775026e+001	-1.391449e+002	-7.804385e+001	-1.737895e+002	-1.255196e+000	-1.060033e+002
110208021	-9.427988e-001	-1.072160e+002	-7.722114e+001	-1.677141e+002	-7.899473e+001	-1.500776e+002	-1.253057e+000	-1.059687e+002
110210021	-9.397815e-001	-1.072009e+002	-8.282009e+001	1.589100e+002	-7.966898e+001	-1.456215e+002	-1.253862e+000	-1.059856e+002
110212021	-9.415415e-001	-1.072033e+002	-8.368614e+001	-1.736900e+002	-8.318302e+001	-1.154338e+002	-1.251763e+000	-1.059806e+002
110214021	-9.417415e-001	-1.071932e+002	-8.136390e+001	-1.495570e+002	-7.580258e+001	-1.561910e+002	-1.253152e+000	-1.059915e+002
110216022	-9.411861e-001	-1.072088e+002	-7.621925e+001	-1.534389e+002	-8.063771e+001	-1.760557e+002	-1.254548e+000	-1.059866e+002
110218022	-9.413073e-001	-1.071939e+002	-7.940105e+001	-1.255028e+002	-8.219127e+001	-1.596980e+002	-1.254789e+000	-1.059811e+002
110220022	-9.408692e-001	-1.072184e+002	-7.790620e+001	-1.388778e+002	-7.673717e+001	-1.662770e+002	-1.253116e+000	-1.059766e+002
110222022	-9.450072e-001	-1.072089e+002	-7.947773e+001	-1.603433e+002	-7.836248e+001	-1.224004e+002	-1.252179e+000	-1.060097e+002
110224022	-9.413633e-001	-1.072138e+002	-7.700803e+001	-1.480641e+002	-8.020220e+001	-1.355727e+002	-1.252813e+000	-1.059845e+002
110226023	-9.440156e-001	-1.072178e+002	-7.653240e+001	-1.545596e+002	-7.756732e+001	-1.178749e+002	-1.252908e+000	-1.060009e+002
110228023	-9.418102e-001	-1.072042e+002	-8.290060e+001	-1.789746e+002	-8.033706e+001	1.749361e+002	-1.255053e+000	-1.060157e+002
110230023	-9.434502e-001	-1.072130e+002	-7.913626e+001	-1.499440e+002	-7.767684e+001	-1.558335e+002	-1.253800e+000	-1.060036e+002
110232023	-9.424900e-001	-1.072186e+002	-7.985457e+001	-1.639578e+002	-8.146463e+001	-1.509797e+002	-1.252958e+000	-1.059992e+002
110234023	-9.426166e-001	-1.072118e+002	-7.850415e+001	-1.473694e+002	-8.145650e+001	-1.257086e+002	-1.254628e+000	-1.059987e+002
110236024	-9.442975e-001	-1.072226e+002	-8.256242e+001	-1.513904e+002	-7.820532e+001	-1.365944e+002	-1.255242e+000	-1.059975e+002
110238024	-9.443557e-001	-1.072213e+002	-7.819383e+001	-1.317327e+002	-8.306763e+001	-1.633817e+002	-1.252684e+000	-1.060131e+002
110240024	-9.438142e-001	-1.072227e+002	-7.621698e+001	-1.534028e+002	-8.013279e+001	-1.520197e+002	-1.256531e+000	-1.059941e+002
110242024	-9.423641e-001	-1.072350e+002	-7.825505e+001	-1.738710e+002	-7.867196e+001	-1.555215e+002	-1.255239e+000	-1.060075e+002
110244024	-9.446425e-001	-1.072389e+002	-7.560008e+001	-1.328797e+002	-8.091338e+001	-1.489345e+002	-1.252788e+000	-1.060115e+002
110246025	-9.438442e-001	-1.072284e+002	-7.769545e+001	-1.724745e+002	-7.891236e+001	-1.705101e+002	-1.254770e+000	-1.060075e+002
110248025	-9.425969e-001	-1.072334e+002	-8.093005e+001	-1.619978e+002	-8.213362e+001	-1.681711e+002	-1.255311e+000	-1.060156e+002
110250025	-9.430450e-001	-1.072193e+002	-7.849620e+001	-1.539750e+002	-8.095990e+001	1.665739e+002	-1.254933e+000	-1.060222e+002
110252025	-9.416738e-001	-1.072341e+002	-7.851111e+001	-1.513447e+002	-7.899983e+001	-1.692127e+002	-1.253083e+000	-1.060313e+002
110254025	-9.421087e-001	-1.072348e+002	-7.803976e+001	-1.437368e+002	-7.820307e+001	-1.630994e+002	-1.254847e+000	-1.060118e+002
110256026	-9.427353e-001	-1.072333e+002	-8.312187e+001	-1.697685e+002	-7.881276e+001	-1.358058e+002	-1.255462e+000	-1.060172e+002
110258026	-9.417053e-001	-1.072388e+002	-7.903763e+001	-1.428600e+002	-7.867797e+001	-1.668242e+002	-1.253820e+000	-1.060121e+002
110260026	-9.429586e-001	-1.072415e+002	-7.960446e+001	-1.328968e+002	-7.729014e+001	-1.376514e+002	-1.251190e+000	-1.060252e+002
110262026	-9.442438e-001	-1.072400e+002	-7.851100e+001	-1.486420e+002	-8.222064e+001	-1.662471e+002	-1.254067e+000	-1.060242e+002
110264026	-9.429956e-001	-1.072474e+002	-8.323980e+001	-1.490128e+002	-8.390751e+001	1.643189e+002	-1.255044e+000	-1.060345e+002
110266027	-9.425407e-001	-1.072506e+002	-8.320226e+001	-1.799155e+002	-7.851719e+001	-1.525288e+002	-1.253322e+000	-1.060364e+002
110268027	-9.417722e-001	-1.072582e+002	-8.055874e+001	-1.496423e+002	-8.060576e+001	-1.628341e+002	-1.256750e+000	-1.060240e+002
110270027	-9.442109e-001	-1.072528e+002	-7.910539e+001	-1.164456e+002	-8.851448e+001	-1.341080e+002	-1.255364e+000	-1.060307e+002
110272027	-9.410472e-001	-1.072596e+002	-7.836289e+001	-1.618561e+002	-8.222739e+001	-1.279934e+002	-1.251028e+000	-1.060349e+002
110274027	-9.430274e-001	-1.072458e+002	-7.679290e+001	-1.645804e+002	-7.697944e+001	-1.402644e+002	-1.257341e+000	-1.060199e+002
110276028	-9.436137e-001	-1.072615e+002	-8.489642e+001	-1.373425e+002	-8.063269e+001	-1.488271e+002	-1.254853e+000	-1.060406e+002
110278028	-9.439516e-001	-1.072710e+002	-7.696685e+001	-1.378045e+002	-7.943248e+001	-1.655119e+002	-1.255977e+000	-1.060450e+002
110280028	-9.417330e-001	-1.072670e+002	-7.845658e+001	-1.701558e+002	-7.673003e+001	-1.370619e+002	-1.253521e+000	-1.060468e+002
110282028	-9.420337e-001	-1.072528e+002	-8.024623e+001	-1.448012e+002	-8.414067e+001	-1.523009e+002	-1.254184e+000	-1.060478e+002
110284028	-9.443991e-001	-1.072645e+002	-7.998452e+001	-1.434043e+002	-7.874930e+001	-1.415119e+002	-1.255449e+000	-1.060531e+002
110286029	-9.437954e-001	-1.072705e+002	-8.107094e+001	-1.549342e+002	-8.124330e+001	-1.338921e+002	-1.255500e+000	-1.060293e+002
110288029	-9.434381e-001	-1.072713e+002	-7.866487e+001	-1.444514e+002	-8.341887e+001	-1.446589e+002	-1.256517e+000	-1.060563e+002
110290029	-9.441037e-001	-1.072757e+002	-7.728865e+001	-1.431733e+002	-7.986773e+001	-1.664910e+002	-1.253961e+000	-1.060677e+002
110292029	-9.440969e-001	-1.072782e+002	-8.320095e+001	-1.278049e+002	-8.043467e+001	-1.129020e+002	-1.254695e+000	-1.060517e+002
110294029	-9.444326e-001	-1.072871e+002	-8.239786e+001	-1.703704e+002	-7.899846e+001	-1.691255e+002	-1.255029e+000	-1.060585e+002
110296030	-9.443114e-001	-1.072677e+002	-7.989965e+001	-1.402328e+002	-7.690042e+001	-1.368713e+002	-1.254005e+000	-1.060478e+002
110298030	-9.435110e-001	-1.072737e+002	-7.637156e+001	-1.627728e+002	-7.792336e+001	-1.521784e+002	-1.254841e+000	-1.060477e+002
110300030	-9.467284e-001	-1.072819e+002	-8.556125e+001	-1.083599e+002	-8.062885e+001	-1.720348e+002	-1.256520e+000	-1.060693e+002
