!Agilent Technologies,E5071C,MY46520923,B.12.03
!Date: Tue Feb 06 09:21:04 2024
!Data & Calibration Information:
!Freq	S11:SOLT2(ON)	S21:SOLT2(ON)	S12:SOLT2(ON)	S22:SOLT2(ON)
!PortZ  Port1:50+j0    Port2:50+j0
!Above PortZ is port z conversion or system Z0 setting when saving the data.
!When reading, reference impedance value at option line is always used.
# Hz S dB R 50
110000000	-9.777130e-001	-1.076979e+002	-7.771950e+001	-1.661659e+002	-7.731386e+001	-1.783989e+002	-1.030634e+000	-1.060020e+002
110002000	-9.782576e-001	-1.077026e+002	-7.569030e+001	1.642521e+002	-7.753080e+001	-1.559093e+002	-1.030696e+000	-1.059960e+002
110004000	-9.772653e-001	-1.077098e+002	-7.833016e+001	-1.493571e+002	-8.038219e+001	1.660460e+002	-1.028162e+000	-1.060077e+002
110006001	-9.772187e-001	-1.076977e+002	-7.682626e+001	-1.649987e+002	-7.590024e+001	-1.426629e+002	-1.030967e+000	-1.060231e+002
110008001	-9.772723e-001	-1.077189e+002	-7.882847e+001	-1.677540e+002	-7.909736e+001	-1.592882e+002	-1.032499e+000	-1.060307e+002
110010001	-9.781547e-001	-1.077076e+002	-7.842787e+001	1.736864e+002	-7.750718e+001	-1.400814e+002	-1.030425e+000	-1.060121e+002
110012001	-9.780756e-001	-1.077258e+002	-8.164019e+001	1.777657e+002	-8.026884e+001	-1.740208e+002	-1.031851e+000	-1.060091e+002
110014001	-9.768868e-001	-1.077054e+002	-7.875329e+001	-1.595613e+002	-7.847199e+001	-1.431669e+002	-1.028698e+000	-1.060202e+002
110016002	-9.775730e-001	-1.077150e+002	-8.102021e+001	-1.470927e+002	-7.651700e+001	-1.510761e+002	-1.033833e+000	-1.060123e+002
110018002	-9.774837e-001	-1.077108e+002	-7.774422e+001	-1.734883e+002	-7.886733e+001	-1.607806e+002	-1.030926e+000	-1.060274e+002
110020002	-9.772546e-001	-1.077179e+002	-7.539976e+001	-1.686945e+002	-7.884629e+001	-1.649188e+002	-1.030589e+000	-1.060357e+002
110022002	-9.767027e-001	-1.077166e+002	-8.067673e+001	-1.460287e+002	-7.690873e+001	-1.674800e+002	-1.034309e+000	-1.060260e+002
110024002	-9.784144e-001	-1.077199e+002	-7.750663e+001	1.758446e+002	-7.660044e+001	-1.488069e+002	-1.033447e+000	-1.060201e+002
110026003	-9.769601e-001	-1.077273e+002	-7.686263e+001	1.531012e+002	-7.729265e+001	-1.619025e+002	-1.032435e+000	-1.060339e+002
110028003	-9.776814e-001	-1.077302e+002	-8.799761e+001	1.790959e+002	-7.882388e+001	-1.593257e+002	-1.029373e+000	-1.060365e+002
110030003	-9.780821e-001	-1.077456e+002	-7.745989e+001	-1.661741e+002	-8.144893e+001	-1.435272e+002	-1.030326e+000	-1.060417e+002
110032003	-9.755934e-001	-1.077285e+002	-7.896715e+001	-1.705652e+002	-7.573603e+001	1.661125e+002	-1.029582e+000	-1.060358e+002
110034003	-9.781012e-001	-1.077364e+002	-7.798608e+001	-1.687080e+002	-7.854952e+001	-1.675254e+002	-1.031989e+000	-1.060382e+002
110036004	-9.779265e-001	-1.077344e+002	-7.700898e+001	-1.560896e+002	-7.566207e+001	-1.636237e+002	-1.030442e+000	-1.060385e+002
110038004	-9.780148e-001	-1.077434e+002	-8.068266e+001	-1.769525e+002	-7.655892e+001	-1.661448e+002	-1.032392e+000	-1.060258e+002
110040004	-9.811450e-001	-1.077482e+002	-7.747395e+001	1.721236e+002	-8.195237e+001	1.627798e+002	-1.033477e+000	-1.060351e+002
110042004	-9.782117e-001	-1.077496e+002	-7.994253e+001	1.691535e+002	-7.997288e+001	1.762957e+002	-1.031936e+000	-1.060412e+002
110044004	-9.781313e-001	-1.077492e+002	-7.882335e+001	-1.759681e+002	-7.581514e+001	-1.706406e+002	-1.030037e+000	-1.060519e+002
110046005	-9.773216e-001	-1.077324e+002	-8.012414e+001	-1.649795e+002	-7.941235e+001	1.794379e+002	-1.032793e+000	-1.060369e+002
110048005	-9.765053e-001	-1.077466e+002	-7.735153e+001	-1.730784e+002	-8.072502e+001	1.797593e+002	-1.031811e+000	-1.060572e+002
110050005	-9.792467e-001	-1.077529e+002	-7.858110e+001	1.673319e+002	-7.878873e+001	-1.564898e+002	-1.033063e+000	-1.060525e+002
110052005	-9.782359e-001	-1.077489e+002	-7.920861e+001	1.581777e+002	-7.652222e+001	-1.682211e+002	-1.031500e+000	-1.060540e+002
110054005	-9.799116e-001	-1.077639e+002	-7.617741e+001	1.775707e+002	-8.024904e+001	-1.422470e+002	-1.033610e+000	-1.060423e+002
110056006	-9.794547e-001	-1.077586e+002	-8.244843e+001	-1.457776e+002	-7.770306e+001	-1.756371e+002	-1.033665e+000	-1.060494e+002
110058006	-9.786007e-001	-1.077466e+002	-7.818072e+001	-1.764856e+002	-7.902140e+001	-1.578231e+002	-1.031079e+000	-1.060666e+002
110060006	-9.793117e-001	-1.077638e+002	-7.758067e+001	1.743973e+002	-8.205878e+001	-1.331967e+002	-1.031877e+000	-1.060699e+002
110062006	-9.778495e-001	-1.077505e+002	-7.912384e+001	1.685293e+002	-8.139005e+001	1.556776e+002	-1.031038e+000	-1.060546e+002
110064006	-9.771039e-001	-1.077635e+002	-7.895057e+001	-1.607254e+002	-7.738307e+001	-1.547263e+002	-1.032210e+000	-1.060735e+002
110066007	-9.790634e-001	-1.077658e+002	-7.890842e+001	1.629068e+002	-8.023892e+001	-1.722964e+002	-1.032875e+000	-1.060692e+002
110068007	-9.776634e-001	-1.077691e+002	-7.671088e+001	1.786613e+002	-7.830928e+001	-1.418078e+002	-1.032056e+000	-1.060601e+002
110070007	-9.768051e-001	-1.077666e+002	-8.483605e+001	-1.481917e+002	-7.736363e+001	-1.535774e+002	-1.029568e+000	-1.060739e+002
110072007	-9.777538e-001	-1.077660e+002	-7.897269e+001	-1.663031e+002	-8.328742e+001	1.643375e+002	-1.032402e+000	-1.060829e+002
110074007	-9.777798e-001	-1.077541e+002	-7.790602e+001	-1.711003e+002	-8.057209e+001	-1.520282e+002	-1.032600e+000	-1.060837e+002
110076008	-9.780008e-001	-1.077726e+002	-7.900191e+001	-1.762019e+002	-8.307657e+001	-1.583722e+002	-1.031845e+000	-1.060602e+002
110078008	-9.798329e-001	-1.077946e+002	-7.545917e+001	1.790095e+002	-7.644681e+001	1.704324e+002	-1.031822e+000	-1.060892e+002
110080008	-9.780552e-001	-1.077709e+002	-8.070318e+001	-1.752281e+002	-7.855682e+001	-1.647119e+002	-1.032017e+000	-1.060804e+002
110082008	-9.814276e-001	-1.077801e+002	-7.905531e+001	1.793976e+002	-7.986239e+001	-1.542939e+002	-1.032592e+000	-1.060925e+002
110084008	-9.766561e-001	-1.077911e+002	-7.799037e+001	-1.762140e+002	-7.617370e+001	-1.678882e+002	-1.030499e+000	-1.060785e+002
110086009	-9.802361e-001	-1.077903e+002	-7.835132e+001	1.555801e+002	-7.812723e+001	-1.671632e+002	-1.032671e+000	-1.060756e+002
110088009	-9.785333e-001	-1.077831e+002	-7.970318e+001	1.781326e+002	-8.204642e+001	-1.545116e+002	-1.034201e+000	-1.060868e+002
110090009	-9.761536e-001	-1.077715e+002	-7.755062e+001	-1.403859e+002	-8.547884e+001	-1.636060e+002	-1.031610e+000	-1.060928e+002
110092009	-9.790336e-001	-1.077923e+002	-7.846895e+001	1.762917e+002	-7.740087e+001	1.577143e+002	-1.033674e+000	-1.061060e+002
110094009	-9.788797e-001	-1.077961e+002	-7.687834e+001	-1.626566e+002	-7.630639e+001	-1.690667e+002	-1.031870e+000	-1.060898e+002
110096010	-9.772392e-001	-1.077970e+002	-7.940486e+001	1.771630e+002	-7.763594e+001	-1.716837e+002	-1.031922e+000	-1.060842e+002
110098010	-9.803536e-001	-1.078006e+002	-8.006281e+001	1.490430e+002	-7.986245e+001	1.713815e+002	-1.032507e+000	-1.060912e+002
110100010	-9.795302e-001	-1.077881e+002	-7.801495e+001	-1.547458e+002	-7.922695e+001	-1.576411e+002	-1.032916e+000	-1.060978e+002
110102010	-9.805562e-001	-1.077955e+002	-7.550721e+001	-1.667368e+002	-7.985345e+001	1.749429e+002	-1.033270e+000	-1.061192e+002
110104010	-9.791701e-001	-1.077992e+002	-7.756880e+001	-1.768375e+002	-8.274233e+001	-1.628450e+002	-1.031078e+000	-1.060984e+002
110106011	-9.771020e-001	-1.077982e+002	-8.127162e+001	-1.740207e+002	-8.476292e+001	-1.746523e+002	-1.033070e+000	-1.061110e+002
110108011	-9.787863e-001	-1.078145e+002	-7.684912e+001	-1.481402e+002	-7.969945e+001	-1.795156e+002	-1.032185e+000	-1.061213e+002
110110011	-9.793806e-001	-1.078113e+002	-7.981660e+001	-1.695153e+002	-8.149116e+001	-1.643923e+002	-1.031790e+000	-1.061160e+002
110112011	-9.788788e-001	-1.078193e+002	-7.680575e+001	-1.571489e+002	-7.621937e+001	-1.605755e+002	-1.029817e+000	-1.061101e+002
110114011	-9.784682e-001	-1.078033e+002	-8.368639e+001	1.729142e+002	-7.697249e+001	-1.685871e+002	-1.034395e+000	-1.061188e+002
110116012	-9.781225e-001	-1.078041e+002	-7.653377e+001	-1.765690e+002	-8.736527e+001	1.678201e+002	-1.032148e+000	-1.061180e+002
110118012	-9.787237e-001	-1.078211e+002	-7.704795e+001	-1.659351e+002	-7.959232e+001	-1.450747e+002	-1.033419e+000	-1.061159e+002
110120012	-9.788703e-001	-1.078192e+002	-7.617887e+001	1.787064e+002	-7.749104e+001	-1.690088e+002	-1.033355e+000	-1.061220e+002
110122012	-9.777132e-001	-1.078074e+002	-7.792374e+001	-1.660409e+002	-8.045063e+001	-1.795190e+002	-1.033148e+000	-1.061305e+002
110124012	-9.777259e-001	-1.078247e+002	-7.824619e+001	-1.791896e+002	-7.786654e+001	-1.693727e+002	-1.032036e+000	-1.061422e+002
110126013	-9.783745e-001	-1.078280e+002	-8.093884e+001	-1.541816e+002	-7.938760e+001	-1.665463e+002	-1.035521e+000	-1.061285e+002
110128013	-9.778859e-001	-1.078293e+002	-8.542908e+001	-1.302416e+002	-7.783997e+001	-1.706448e+002	-1.032798e+000	-1.061374e+002
110130013	-9.801696e-001	-1.078301e+002	-8.320679e+001	1.717581e+002	-8.722214e+001	-1.754885e+002	-1.034385e+000	-1.061121e+002
110132013	-9.779987e-001	-1.078302e+002	-9.816472e+001	-1.382338e+002	-8.305459e+001	1.759741e+002	-1.035595e+000	-1.061350e+002
110134013	-9.806977e-001	-1.078401e+002	-7.719074e+001	-1.612905e+002	-8.030311e+001	-1.689229e+002	-1.031605e+000	-1.061270e+002
110136014	-9.790119e-001	-1.078132e+002	-7.937892e+001	-1.467597e+002	-7.951768e+001	1.598693e+002	-1.032220e+000	-1.061340e+002
110138014	-9.824515e-001	-1.078413e+002	-8.645224e+001	-1.747990e+002	-7.959520e+001	-1.527926e+002	-1.030724e+000	-1.061318e+002
110140014	-9.795186e-001	-1.078478e+002	-7.837857e+001	1.793049e+002	-8.112495e+001	-1.772247e+002	-1.032867e+000	-1.061291e+002
110142014	-9.776043e-001	-1.078325e+002	-8.528344e+001	-1.342903e+002	-8.836017e+001	-1.776569e+002	-1.032311e+000	-1.061396e+002
110144014	-9.805277e-001	-1.078404e+002	-7.807591e+001	1.601345e+002	-7.776480e+001	-1.333920e+002	-1.032784e+000	-1.061536e+002
110146015	-9.797941e-001	-1.078491e+002	-8.282326e+001	-1.713603e+002	-8.436190e+001	1.776565e+002	-1.033971e+000	-1.061412e+002
110148015	-9.789777e-001	-1.078544e+002	-8.041462e+001	-1.747727e+002	-7.836492e+001	-1.725881e+002	-1.033566e+000	-1.061496e+002
110150015	-9.813849e-001	-1.078479e+002	-7.819626e+001	1.756105e+002	-7.898014e+001	-1.475177e+002	-1.033474e+000	-1.061611e+002
110152015	-9.807947e-001	-1.078575e+002	-8.318460e+001	-1.692862e+002	-7.741892e+001	1.734774e+002	-1.033000e+000	-1.061505e+002
110154015	-9.790032e-001	-1.078583e+002	-8.473301e+001	-1.620094e+002	-8.195389e+001	-1.706146e+002	-1.032856e+000	-1.061267e+002
110156016	-9.785635e-001	-1.078487e+002	-8.351028e+001	-1.129680e+002	-7.871828e+001	1.604527e+002	-1.034764e+000	-1.061587e+002
110158016	-9.802250e-001	-1.078635e+002	-8.751044e+001	1.721123e+002	-8.174642e+001	1.729925e+002	-1.035423e+000	-1.061641e+002
110160016	-9.794556e-001	-1.078539e+002	-8.879405e+001	-1.734911e+002	-8.075587e+001	-1.783121e+002	-1.034190e+000	-1.061783e+002
110162016	-9.827433e-001	-1.078522e+002	-7.885612e+001	-1.716050e+002	-7.920312e+001	1.703365e+002	-1.033502e+000	-1.061700e+002
110164016	-9.803767e-001	-1.078718e+002	-8.030366e+001	-1.779474e+002	-8.558175e+001	-1.759544e+002	-1.033792e+000	-1.061702e+002
110166017	-9.791541e-001	-1.078495e+002	-8.042621e+001	1.695067e+002	-7.749879e+001	1.719456e+002	-1.035362e+000	-1.061597e+002
110168017	-9.814210e-001	-1.078754e+002	-7.569089e+001	-1.579581e+002	-8.098914e+001	-1.477391e+002	-1.034331e+000	-1.061583e+002
110170017	-9.783459e-001	-1.078673e+002	-8.709949e+001	-1.646898e+002	-7.954844e+001	-1.449337e+002	-1.032760e+000	-1.061720e+002
110172017	-9.819569e-001	-1.078640e+002	-8.288560e+001	-1.647078e+002	-8.188156e+001	-1.725590e+002	-1.034677e+000	-1.061807e+002
110174017	-9.805930e-001	-1.078667e+002	-8.890886e+001	-1.647148e+002	-8.074940e+001	-1.331064e+002	-1.035221e+000	-1.061620e+002
110176018	-9.819952e-001	-1.078644e+002	-8.155118e+001	-1.571274e+002	-7.710460e+001	-1.328507e+002	-1.033783e+000	-1.061804e+002
110178018	-9.793917e-001	-1.078826e+002	-8.004820e+001	-1.662997e+002	-7.635364e+001	-1.410226e+002	-1.035227e+000	-1.061841e+002
110180018	-9.799199e-001	-1.078693e+002	-8.516101e+001	-1.278265e+002	-7.773207e+001	-1.654075e+002	-1.034401e+000	-1.061863e+002
110182018	-9.814941e-001	-1.078720e+002	-8.026982e+001	-1.598151e+002	-8.118298e+001	-1.586184e+002	-1.036306e+000	-1.061823e+002
110184018	-9.832751e-001	-1.078750e+002	-8.381305e+001	-1.548158e+002	-8.269038e+001	-1.279917e+002	-1.033641e+000	-1.061864e+002
110186019	-9.806314e-001	-1.078879e+002	-8.412548e+001	-1.518316e+002	-8.143442e+001	-1.661322e+002	-1.034417e+000	-1.062050e+002
110188019	-9.808730e-001	-1.078861e+002	-7.933118e+001	-1.704939e+002	-8.095444e+001	-1.477232e+002	-1.035119e+000	-1.061733e+002
110190019	-9.808777e-001	-1.078878e+002	-8.482840e+001	1.601126e+002	-7.653446e+001	-1.245985e+002	-1.035669e+000	-1.061838e+002
110192019	-9.806538e-001	-1.078793e+002	-7.996999e+001	-1.437294e+002	-7.928958e+001	-1.439089e+002	-1.031611e+000	-1.061824e+002
110194019	-9.813845e-001	-1.079073e+002	-8.000309e+001	-1.401970e+002	-9.171344e+001	1.501974e+002	-1.035096e+000	-1.061900e+002
110196020	-9.813573e-001	-1.078879e+002	-8.570093e+001	-1.394680e+002	-8.339723e+001	-1.434521e+002	-1.034484e+000	-1.061972e+002
110198020	-9.810533e-001	-1.078926e+002	-8.080102e+001	-1.506238e+002	-8.092357e+001	1.482207e+002	-1.032238e+000	-1.061876e+002
110200020	-9.786956e-001	-1.078901e+002	-8.299050e+001	-1.441115e+002	-8.323467e+001	-1.486095e+002	-1.033327e+000	-1.061866e+002
110202020	-9.804380e-001	-1.078924e+002	-8.550326e+001	-8.356950e+001	-8.033180e+001	-1.756644e+002	-1.033566e+000	-1.061982e+002
110204020	-9.795964e-001	-1.078896e+002	-8.701065e+001	1.735351e+002	-7.904005e+001	-1.041431e+002	-1.033653e+000	-1.062042e+002
110206021	-9.836033e-001	-1.079030e+002	-8.274554e+001	1.707966e+002	-7.813179e+001	-1.629661e+002	-1.036694e+000	-1.062083e+002
110208021	-9.822029e-001	-1.078959e+002	-7.575972e+001	1.613849e+002	-8.747220e+001	-1.565496e+002	-1.036516e+000	-1.062117e+002
110210021	-9.805733e-001	-1.079065e+002	-8.694783e+001	-1.171394e+002	-7.995439e+001	-1.490669e+002	-1.035785e+000	-1.062127e+002
110212021	-9.796415e-001	-1.078953e+002	-8.351850e+001	-1.401803e+002	-8.905452e+001	1.709905e+002	-1.033588e+000	-1.062141e+002
110214021	-9.844700e-001	-1.079097e+002	-8.482506e+001	1.601493e+002	-8.345464e+001	1.665927e+002	-1.031645e+000	-1.062168e+002
110216022	-9.822684e-001	-1.079038e+002	-8.080594e+001	-1.628640e+002	-8.257024e+001	-1.357231e+002	-1.035432e+000	-1.062050e+002
110218022	-9.802229e-001	-1.079202e+002	-7.994962e+001	-1.551177e+002	-8.024819e+001	-1.434750e+002	-1.036081e+000	-1.062044e+002
110220022	-9.806684e-001	-1.079129e+002	-7.917130e+001	-1.329510e+002	-8.451866e+001	-1.017524e+002	-1.035111e+000	-1.062010e+002
110222022	-9.787945e-001	-1.079172e+002	-7.958302e+001	-1.380583e+002	-8.588555e+001	-1.409413e+002	-1.037461e+000	-1.062335e+002
110224022	-9.806247e-001	-1.079388e+002	-8.279616e+001	1.776744e+002	-7.748778e+001	-1.419395e+002	-1.035996e+000	-1.062284e+002
110226023	-9.829250e-001	-1.079332e+002	-8.645389e+001	-1.746196e+002	-8.058631e+001	-1.165929e+002	-1.033836e+000	-1.062232e+002
110228023	-9.820552e-001	-1.079251e+002	-7.776684e+001	-1.535552e+002	-8.374995e+001	-1.427082e+002	-1.038121e+000	-1.062356e+002
110230023	-9.828369e-001	-1.079323e+002	-8.137197e+001	-1.355608e+002	-8.116351e+001	-1.271884e+002	-1.037076e+000	-1.062299e+002
110232023	-9.831008e-001	-1.079283e+002	-8.887632e+001	-1.601182e+002	-8.196973e+001	1.676425e+002	-1.035319e+000	-1.062350e+002
110234023	-9.817046e-001	-1.079256e+002	-8.310397e+001	-1.461540e+002	-8.448453e+001	-1.796407e+002	-1.036820e+000	-1.062165e+002
110236024	-9.810966e-001	-1.079266e+002	-7.899385e+001	-1.745391e+002	-8.472204e+001	-1.463179e+002	-1.037333e+000	-1.062302e+002
110238024	-9.834145e-001	-1.079421e+002	-8.313680e+001	-1.082817e+002	-7.773890e+001	-1.729088e+002	-1.035493e+000	-1.062384e+002
110240024	-9.812926e-001	-1.079353e+002	-8.859887e+001	1.534587e+002	-8.329565e+001	-1.697262e+002	-1.035044e+000	-1.062444e+002
110242024	-9.838183e-001	-1.079345e+002	-8.011422e+001	-1.466561e+002	-8.423489e+001	-1.443686e+002	-1.036501e+000	-1.062268e+002
110244024	-9.842453e-001	-1.079447e+002	-8.209631e+001	1.770360e+002	-8.352925e+001	-9.802429e+001	-1.035492e+000	-1.062431e+002
110246025	-9.820341e-001	-1.079552e+002	-7.887445e+001	-1.355060e+002	-8.337908e+001	-1.186951e+002	-1.035919e+000	-1.062473e+002
110248025	-9.807008e-001	-1.079458e+002	-8.029616e+001	-1.114384e+002	-7.848975e+001	-1.535309e+002	-1.037227e+000	-1.062331e+002
110250025	-9.823934e-001	-1.079544e+002	-8.247674e+001	-1.285495e+002	-7.789937e+001	-1.382497e+002	-1.037974e+000	-1.062390e+002
110252025	-9.809169e-001	-1.079526e+002	-7.599535e+001	-1.294611e+002	-8.289506e+001	-1.490257e+002	-1.036704e+000	-1.062404e+002
110254025	-9.805923e-001	-1.079573e+002	-8.330018e+001	-1.179264e+002	-8.385118e+001	-1.755927e+002	-1.034422e+000	-1.062629e+002
110256026	-9.789922e-001	-1.079538e+002	-8.255138e+001	-1.226014e+002	-8.213715e+001	-1.300144e+002	-1.035218e+000	-1.062456e+002
110258026	-9.820981e-001	-1.079398e+002	-8.514317e+001	-1.276621e+002	-7.874746e+001	-1.173253e+002	-1.034797e+000	-1.062555e+002
110260026	-9.835259e-001	-1.079479e+002	-8.208960e+001	-1.460870e+002	-8.136347e+001	-9.771145e+001	-1.036165e+000	-1.062536e+002
110262026	-9.831592e-001	-1.079673e+002	-7.831915e+001	-1.158647e+002	-7.956351e+001	-1.679552e+002	-1.034459e+000	-1.062509e+002
110264026	-9.840580e-001	-1.079560e+002	-8.541199e+001	-1.763780e+002	-9.702452e+001	-1.234120e+002	-1.037370e+000	-1.062502e+002
110266027	-9.842002e-001	-1.079568e+002	-7.731944e+001	-1.516448e+002	-7.791390e+001	-1.325954e+002	-1.036196e+000	-1.062643e+002
110268027	-9.827379e-001	-1.079793e+002	-8.389537e+001	-1.468899e+002	-8.003241e+001	-1.767097e+002	-1.035254e+000	-1.062563e+002
110270027	-9.817351e-001	-1.079632e+002	-7.965209e+001	-1.249062e+002	-7.507125e+001	-1.377858e+002	-1.037821e+000	-1.062731e+002
110272027	-9.819239e-001	-1.079713e+002	-7.990344e+001	-1.550946e+002	-8.111372e+001	-1.529502e+002	-1.037038e+000	-1.062598e+002
110274027	-9.834203e-001	-1.079776e+002	-7.865159e+001	-1.508256e+002	-7.993514e+001	-1.373306e+002	-1.038699e+000	-1.062730e+002
110276028	-9.818998e-001	-1.079802e+002	-8.212513e+001	-1.223921e+002	-7.874974e+001	-1.574702e+002	-1.037441e+000	-1.062649e+002
110278028	-9.830755e-001	-1.079735e+002	-8.249922e+001	-1.687335e+002	-7.668908e+001	-1.492064e+002	-1.035573e+000	-1.062579e+002
110280028	-9.807877e-001	-1.079770e+002	-7.697566e+001	-1.439660e+002	-8.091767e+001	-1.401523e+002	-1.037167e+000	-1.062645e+002
110282028	-9.808004e-001	-1.079809e+002	-8.102548e+001	-1.283220e+002	-7.524286e+001	-1.668317e+002	-1.035402e+000	-1.062799e+002
110284028	-9.829018e-001	-1.079879e+002	-8.570553e+001	-1.392969e+002	-8.089728e+001	-1.620193e+002	-1.038441e+000	-1.062806e+002
110286029	-9.828757e-001	-1.079873e+002	-7.967137e+001	-1.358688e+002	-8.101154e+001	-1.256278e+002	-1.036386e+000	-1.062819e+002
110288029	-9.821280e-001	-1.079652e+002	-7.727331e+001	-1.564296e+002	-8.236889e+001	-1.212664e+002	-1.035420e+000	-1.062764e+002
110290029	-9.818968e-001	-1.079738e+002	-8.345332e+001	-1.550269e+002	-8.167311e+001	-1.681557e+002	-1.037777e+000	-1.062970e+002
110292029	-9.834648e-001	-1.080051e+002	-7.791860e+001	-1.656931e+002	-8.120582e+001	-9.935005e+001	-1.038529e+000	-1.062810e+002
110294029	-9.834152e-001	-1.079781e+002	-7.921980e+001	-1.483681e+002	-7.557094e+001	-1.340979e+002	-1.037979e+000	-1.062869e+002
110296030	-9.840245e-001	-1.079952e+002	-7.717553e+001	-1.632878e+002	-8.675711e+001	-1.495941e+002	-1.039274e+000	-1.062755e+002
110298030	-9.835101e-001	-1.079871e+002	-8.232901e+001	-1.238806e+002	-7.916230e+001	-1.736105e+002	-1.036609e+000	-1.062972e+002
110300030	-9.845501e-001	-1.079738e+002	-8.239735e+001	-1.313762e+002	-7.577079e+001	-1.461801e+002	-1.035636e+000	-1.063085e+002
