!Agilent Technologies,E5071C,MY46520923,B.12.03
!Date: Tue Feb 06 11:11:42 2024
!Data & Calibration Information:
!Freq	S11:SOLT2(ON)	S21:SOLT2(ON)	S12:SOLT2(ON)	S22:SOLT2(ON)
!PortZ  Port1:50+j0    Port2:50+j0
!Above PortZ is port z conversion or system Z0 setting when saving the data.
!When reading, reference impedance value at option line is always used.
# Hz S dB R 50
110000000	-1.019659e+000	-1.079117e+002	-8.022161e+001	-1.741202e+002	-7.677591e+001	-1.503138e+002	-1.190461e+000	-1.054621e+002
110002000	-1.020149e+000	-1.079239e+002	-7.749523e+001	-1.451368e+002	-8.289490e+001	-1.517221e+002	-1.190651e+000	-1.054707e+002
110004000	-1.018581e+000	-1.079091e+002	-7.992897e+001	-1.357841e+002	-7.700491e+001	-1.405489e+002	-1.190038e+000	-1.054486e+002
110006001	-1.018926e+000	-1.079264e+002	-7.601843e+001	-1.692072e+002	-8.461138e+001	1.751081e+002	-1.191073e+000	-1.054820e+002
110008001	-1.019516e+000	-1.079324e+002	-7.776899e+001	1.787796e+002	-7.726269e+001	1.788805e+002	-1.189807e+000	-1.054600e+002
110010001	-1.021330e+000	-1.079405e+002	-8.092641e+001	-1.545110e+002	-7.991721e+001	-1.733017e+002	-1.188242e+000	-1.054755e+002
110012001	-1.019718e+000	-1.079257e+002	-8.004252e+001	-1.310046e+002	-7.801016e+001	-1.581707e+002	-1.191155e+000	-1.054589e+002
110014001	-1.020902e+000	-1.079382e+002	-8.266889e+001	-1.405512e+002	-8.254494e+001	1.758731e+002	-1.190906e+000	-1.054703e+002
110016002	-1.021173e+000	-1.079372e+002	-8.272321e+001	1.560483e+002	-7.720304e+001	-1.761743e+002	-1.191107e+000	-1.054915e+002
110018002	-1.020599e+000	-1.079501e+002	-7.983815e+001	-1.327630e+002	-8.424414e+001	-1.309242e+002	-1.192810e+000	-1.054860e+002
110020002	-1.020353e+000	-1.079494e+002	-7.960072e+001	-1.555988e+002	-7.749393e+001	1.652501e+002	-1.194273e+000	-1.054727e+002
110022002	-1.021963e+000	-1.079374e+002	-7.708621e+001	-1.529114e+002	-7.789253e+001	-1.677050e+002	-1.194744e+000	-1.054812e+002
110024002	-1.021789e+000	-1.079459e+002	-7.795474e+001	-1.731766e+002	-8.027837e+001	-1.753365e+002	-1.190236e+000	-1.054743e+002
110026003	-1.020611e+000	-1.079440e+002	-7.932223e+001	-1.741845e+002	-7.928654e+001	1.597828e+002	-1.191747e+000	-1.054877e+002
110028003	-1.018287e+000	-1.079384e+002	-7.767366e+001	1.669213e+002	-7.879319e+001	-1.752215e+002	-1.191080e+000	-1.054774e+002
110030003	-1.022567e+000	-1.079397e+002	-8.288044e+001	-1.582388e+002	-8.692542e+001	1.557037e+002	-1.190150e+000	-1.054742e+002
110032003	-1.019379e+000	-1.079461e+002	-7.712085e+001	1.713428e+002	-8.240044e+001	-1.531943e+002	-1.191774e+000	-1.054982e+002
110034003	-1.020428e+000	-1.079429e+002	-7.837459e+001	1.690201e+002	-7.821153e+001	-1.386718e+002	-1.189478e+000	-1.054762e+002
110036004	-1.022685e+000	-1.079506e+002	-8.222977e+001	-1.633218e+002	-7.763455e+001	-1.741656e+002	-1.191253e+000	-1.054771e+002
110038004	-1.021339e+000	-1.079384e+002	-7.963976e+001	-1.404384e+002	-8.113658e+001	-1.585235e+002	-1.191454e+000	-1.055027e+002
110040004	-1.021064e+000	-1.079512e+002	-7.807766e+001	-1.493098e+002	-7.658944e+001	-1.719010e+002	-1.193131e+000	-1.055008e+002
110042004	-1.020948e+000	-1.079708e+002	-8.058461e+001	-1.722958e+002	-7.823527e+001	-1.661089e+002	-1.191246e+000	-1.054896e+002
110044004	-1.022735e+000	-1.079633e+002	-7.983353e+001	-1.465914e+002	-7.935502e+001	-1.672784e+002	-1.190840e+000	-1.055006e+002
110046005	-1.021863e+000	-1.079538e+002	-7.614586e+001	-1.710381e+002	-8.148185e+001	-1.703409e+002	-1.190959e+000	-1.055041e+002
110048005	-1.023413e+000	-1.079580e+002	-8.019854e+001	-1.291158e+002	-8.742169e+001	-1.676897e+002	-1.191614e+000	-1.054974e+002
110050005	-1.021368e+000	-1.079628e+002	-7.875477e+001	-1.627611e+002	-7.647036e+001	-1.795470e+002	-1.189160e+000	-1.054975e+002
110052005	-1.019917e+000	-1.079798e+002	-8.964540e+001	-1.451381e+002	-7.948457e+001	-1.659099e+002	-1.193331e+000	-1.055094e+002
110054005	-1.020921e+000	-1.079604e+002	-8.220056e+001	1.615977e+002	-7.449230e+001	-1.744758e+002	-1.192213e+000	-1.055145e+002
110056006	-1.021367e+000	-1.079765e+002	-8.085524e+001	-1.755489e+002	-7.951410e+001	-1.482423e+002	-1.192829e+000	-1.055070e+002
110058006	-1.019616e+000	-1.079731e+002	-7.853387e+001	-1.430807e+002	-7.974359e+001	-1.688616e+002	-1.191511e+000	-1.055036e+002
110060006	-1.022048e+000	-1.079763e+002	-7.772280e+001	-1.538912e+002	-7.893964e+001	1.739707e+002	-1.193837e+000	-1.055081e+002
110062006	-1.021876e+000	-1.079794e+002	-8.106236e+001	-1.566249e+002	-8.091770e+001	-1.431803e+002	-1.191058e+000	-1.055286e+002
110064006	-1.023058e+000	-1.079627e+002	-8.031203e+001	-1.552201e+002	-8.709209e+001	-1.707124e+002	-1.192326e+000	-1.055074e+002
110066007	-1.020765e+000	-1.079762e+002	-7.661614e+001	-1.645752e+002	-8.246462e+001	-1.673677e+002	-1.193899e+000	-1.055184e+002
110068007	-1.019507e+000	-1.079812e+002	-7.886941e+001	-1.601717e+002	-7.588893e+001	-1.585695e+002	-1.193119e+000	-1.055290e+002
110070007	-1.021106e+000	-1.079802e+002	-7.939068e+001	-1.537321e+002	-8.127197e+001	1.697500e+002	-1.190732e+000	-1.055325e+002
110072007	-1.021858e+000	-1.079921e+002	-7.856063e+001	-1.390664e+002	-7.739109e+001	-1.492517e+002	-1.193225e+000	-1.055301e+002
110074007	-1.021757e+000	-1.079871e+002	-8.150859e+001	-1.517033e+002	-8.499327e+001	-1.625923e+002	-1.191063e+000	-1.055273e+002
110076008	-1.021220e+000	-1.079924e+002	-8.082882e+001	-1.153745e+002	-7.987330e+001	-1.754216e+002	-1.193409e+000	-1.055358e+002
110078008	-1.020071e+000	-1.079831e+002	-7.803866e+001	1.674731e+002	-8.478330e+001	-1.500004e+002	-1.193160e+000	-1.055435e+002
110080008	-1.020815e+000	-1.079960e+002	-8.214013e+001	-1.796589e+002	-7.755598e+001	1.781359e+002	-1.193634e+000	-1.055377e+002
110082008	-1.021104e+000	-1.079883e+002	-7.712577e+001	-1.552157e+002	-8.200353e+001	-1.752476e+002	-1.191822e+000	-1.055338e+002
110084008	-1.020798e+000	-1.079863e+002	-7.851527e+001	-1.443488e+002	-7.625540e+001	-1.630305e+002	-1.194046e+000	-1.055365e+002
110086009	-1.020474e+000	-1.080067e+002	-7.969101e+001	1.692565e+002	-7.931790e+001	1.552768e+002	-1.191899e+000	-1.055405e+002
110088009	-1.021689e+000	-1.079877e+002	-7.953872e+001	-1.554666e+002	-7.748050e+001	-1.690217e+002	-1.194468e+000	-1.055367e+002
110090009	-1.020476e+000	-1.080042e+002	-7.795637e+001	-1.674369e+002	-7.760519e+001	1.513340e+002	-1.195439e+000	-1.055448e+002
110092009	-1.021863e+000	-1.079975e+002	-8.055272e+001	-1.353046e+002	-8.253541e+001	-1.489377e+002	-1.193102e+000	-1.055502e+002
110094009	-1.021339e+000	-1.079931e+002	-7.887298e+001	1.668392e+002	-8.036816e+001	-1.738770e+002	-1.193292e+000	-1.055391e+002
110096010	-1.023169e+000	-1.080024e+002	-8.408769e+001	1.781779e+002	-8.159065e+001	1.763125e+002	-1.192649e+000	-1.055388e+002
110098010	-1.023077e+000	-1.080117e+002	-7.576514e+001	-1.791457e+002	-7.703177e+001	-1.569363e+002	-1.192792e+000	-1.055518e+002
110100010	-1.020926e+000	-1.080121e+002	-8.792482e+001	-1.562878e+002	-8.016457e+001	1.650416e+002	-1.195061e+000	-1.055619e+002
110102010	-1.020098e+000	-1.080119e+002	-7.688745e+001	-1.653883e+002	-7.949952e+001	-1.481163e+002	-1.195269e+000	-1.055260e+002
110104010	-1.022661e+000	-1.080203e+002	-8.026661e+001	-1.749088e+002	-7.910884e+001	-1.461138e+002	-1.191139e+000	-1.055500e+002
110106011	-1.020433e+000	-1.080121e+002	-8.624782e+001	1.723576e+002	-8.547178e+001	-1.329367e+002	-1.193426e+000	-1.055590e+002
110108011	-1.025054e+000	-1.080228e+002	-7.864709e+001	-1.747972e+002	-8.761197e+001	-1.556165e+002	-1.194604e+000	-1.055654e+002
110110011	-1.022325e+000	-1.080287e+002	-7.775574e+001	-1.391484e+002	-7.922029e+001	-1.757448e+002	-1.194002e+000	-1.055756e+002
110112011	-1.023660e+000	-1.080302e+002	-8.121175e+001	-1.512432e+002	-7.823392e+001	-1.464931e+002	-1.193843e+000	-1.055652e+002
110114011	-1.021832e+000	-1.080167e+002	-8.511583e+001	-1.668439e+002	-8.140122e+001	-1.454120e+002	-1.192770e+000	-1.055582e+002
110116012	-1.023208e+000	-1.080249e+002	-7.898352e+001	-1.289737e+002	-7.880416e+001	1.791037e+002	-1.191572e+000	-1.055760e+002
110118012	-1.021799e+000	-1.080306e+002	-7.901566e+001	-1.783030e+002	-7.998085e+001	-1.624895e+002	-1.196529e+000	-1.055667e+002
110120012	-1.021885e+000	-1.080465e+002	-8.094555e+001	1.747603e+002	-7.787009e+001	1.719915e+002	-1.192747e+000	-1.055659e+002
110122012	-1.022744e+000	-1.080454e+002	-8.410624e+001	1.747426e+002	-7.932302e+001	-1.571538e+002	-1.194251e+000	-1.055648e+002
110124012	-1.020928e+000	-1.080513e+002	-7.972247e+001	1.736282e+002	-7.763381e+001	-1.696024e+002	-1.192862e+000	-1.055601e+002
110126013	-1.023374e+000	-1.080382e+002	-9.132686e+001	1.536726e+002	-8.111685e+001	-1.665456e+002	-1.194979e+000	-1.055778e+002
110128013	-1.022902e+000	-1.080423e+002	-7.949203e+001	-1.648430e+002	-7.962603e+001	1.648097e+002	-1.194235e+000	-1.055760e+002
110130013	-1.024855e+000	-1.080368e+002	-7.922778e+001	1.634268e+002	-8.330574e+001	-1.453762e+002	-1.193904e+000	-1.055701e+002
110132013	-1.021519e+000	-1.080398e+002	-8.151863e+001	1.707448e+002	-8.084422e+001	-1.576769e+002	-1.196085e+000	-1.055863e+002
110134013	-1.025021e+000	-1.080432e+002	-8.215168e+001	1.617787e+002	-8.004770e+001	-1.574317e+002	-1.194686e+000	-1.055937e+002
110136014	-1.022785e+000	-1.080511e+002	-7.643423e+001	-1.710735e+002	-7.678031e+001	1.799072e+002	-1.193981e+000	-1.055808e+002
110138014	-1.022357e+000	-1.080554e+002	-7.881448e+001	-1.161235e+002	-7.903879e+001	-1.747332e+002	-1.192351e+000	-1.055887e+002
110140014	-1.023937e+000	-1.080653e+002	-7.862028e+001	-1.638029e+002	-9.006605e+001	-1.461929e+002	-1.194436e+000	-1.055937e+002
110142014	-1.024246e+000	-1.080479e+002	-7.810957e+001	-1.440367e+002	-7.688036e+001	-1.471224e+002	-1.195600e+000	-1.055795e+002
110144014	-1.025490e+000	-1.080456e+002	-7.933768e+001	-1.595616e+002	-8.640435e+001	-1.325056e+002	-1.193566e+000	-1.055899e+002
110146015	-1.024754e+000	-1.080656e+002	-7.594809e+001	-1.614885e+002	-8.102352e+001	-1.705276e+002	-1.196781e+000	-1.055997e+002
110148015	-1.023005e+000	-1.080655e+002	-8.149149e+001	-1.515332e+002	-7.845350e+001	-1.654466e+002	-1.193372e+000	-1.056052e+002
110150015	-1.025280e+000	-1.080438e+002	-8.212095e+001	-1.795193e+002	-7.765626e+001	-1.457333e+002	-1.194061e+000	-1.056041e+002
110152015	-1.024276e+000	-1.080464e+002	-8.322763e+001	-1.688387e+002	-8.085504e+001	-1.286989e+002	-1.193345e+000	-1.055853e+002
110154015	-1.023515e+000	-1.080766e+002	-7.689986e+001	-1.502665e+002	-7.738801e+001	1.775006e+002	-1.194826e+000	-1.056136e+002
110156016	-1.023583e+000	-1.080536e+002	-8.042569e+001	-1.623279e+002	-8.111688e+001	1.607567e+002	-1.194723e+000	-1.055935e+002
110158016	-1.024862e+000	-1.080772e+002	-8.087407e+001	-1.525094e+002	-7.952131e+001	1.628164e+002	-1.195632e+000	-1.056093e+002
110160016	-1.021614e+000	-1.080726e+002	-7.914397e+001	-1.430422e+002	-7.577513e+001	-1.681538e+002	-1.193907e+000	-1.056135e+002
110162016	-1.022372e+000	-1.080729e+002	-7.724382e+001	-1.626477e+002	-8.002829e+001	-1.681749e+002	-1.195176e+000	-1.055978e+002
110164016	-1.022283e+000	-1.080546e+002	-7.966124e+001	-1.184100e+002	-8.024981e+001	-1.690563e+002	-1.196598e+000	-1.056225e+002
110166017	-1.024848e+000	-1.080756e+002	-8.913516e+001	-1.586176e+002	-8.027293e+001	-1.616468e+002	-1.195511e+000	-1.056122e+002
110168017	-1.022603e+000	-1.080654e+002	-8.026646e+001	-1.451302e+002	-8.285049e+001	-1.564034e+002	-1.193044e+000	-1.056249e+002
110170017	-1.021207e+000	-1.080807e+002	-8.131370e+001	1.774203e+002	-8.028934e+001	-1.616935e+002	-1.196402e+000	-1.056190e+002
110172017	-1.024893e+000	-1.080942e+002	-7.974783e+001	-1.478574e+002	-7.980926e+001	-1.730007e+002	-1.195312e+000	-1.056256e+002
110174017	-1.020944e+000	-1.080734e+002	-8.113118e+001	1.761413e+002	-8.313437e+001	-1.759397e+002	-1.195419e+000	-1.056042e+002
110176018	-1.024811e+000	-1.080858e+002	-8.307939e+001	1.780330e+002	-7.788393e+001	-1.691107e+002	-1.194886e+000	-1.056286e+002
110178018	-1.024850e+000	-1.080818e+002	-7.977773e+001	-1.764219e+002	-9.103119e+001	8.109215e+001	-1.195298e+000	-1.056208e+002
110180018	-1.022597e+000	-1.080937e+002	-7.925037e+001	-1.239995e+002	-8.214455e+001	-1.568050e+002	-1.196049e+000	-1.056249e+002
110182018	-1.022943e+000	-1.080860e+002	-7.982096e+001	-1.416742e+002	-7.818322e+001	1.792441e+002	-1.194993e+000	-1.056255e+002
110184018	-1.023293e+000	-1.080892e+002	-7.664840e+001	-1.744347e+002	-8.058838e+001	-1.684941e+002	-1.195427e+000	-1.056321e+002
110186019	-1.021184e+000	-1.080964e+002	-8.374768e+001	-1.278368e+002	-8.637116e+001	-1.424901e+002	-1.196720e+000	-1.056363e+002
110188019	-1.022034e+000	-1.080972e+002	-7.927466e+001	-1.641476e+002	-7.862070e+001	-1.797556e+002	-1.194747e+000	-1.056330e+002
110190019	-1.024294e+000	-1.081052e+002	-7.747194e+001	-1.619275e+002	-8.140873e+001	-1.433496e+002	-1.197169e+000	-1.056421e+002
110192019	-1.022315e+000	-1.081097e+002	-8.054883e+001	-1.418015e+002	-7.957429e+001	-1.512851e+002	-1.197931e+000	-1.056336e+002
110194019	-1.024924e+000	-1.080998e+002	-7.793767e+001	-1.672328e+002	-7.881326e+001	-1.528428e+002	-1.198869e+000	-1.056369e+002
110196020	-1.022738e+000	-1.081031e+002	-8.107699e+001	-1.383590e+002	-8.416833e+001	1.736750e+002	-1.194901e+000	-1.056418e+002
110198020	-1.025390e+000	-1.081143e+002	-7.777134e+001	-1.601319e+002	-7.965948e+001	-1.546930e+002	-1.195680e+000	-1.056335e+002
110200020	-1.024281e+000	-1.081035e+002	-7.925383e+001	-1.609072e+002	-8.733214e+001	-1.470334e+002	-1.195548e+000	-1.056392e+002
110202020	-1.024068e+000	-1.081209e+002	-7.641836e+001	-1.306928e+002	-7.919112e+001	-1.343113e+002	-1.194039e+000	-1.056473e+002
110204020	-1.023409e+000	-1.081243e+002	-7.881881e+001	1.571106e+002	-8.114757e+001	-1.302621e+002	-1.196713e+000	-1.056634e+002
110206021	-1.022175e+000	-1.081331e+002	-7.749941e+001	-1.671968e+002	-8.569202e+001	-1.232058e+002	-1.195271e+000	-1.056481e+002
110208021	-1.025489e+000	-1.081116e+002	-8.128554e+001	-1.475105e+002	-8.255632e+001	-1.466220e+002	-1.195043e+000	-1.056585e+002
110210021	-1.024276e+000	-1.081248e+002	-7.814802e+001	-1.638066e+002	-7.773557e+001	-1.407618e+002	-1.196982e+000	-1.056569e+002
110212021	-1.024096e+000	-1.081292e+002	-8.515831e+001	-1.769575e+002	-8.039012e+001	-1.759751e+002	-1.194650e+000	-1.056569e+002
110214021	-1.025661e+000	-1.081114e+002	-7.847670e+001	-1.535167e+002	-7.572630e+001	1.737232e+002	-1.195612e+000	-1.056538e+002
110216022	-1.024179e+000	-1.081257e+002	-8.056310e+001	1.748916e+002	-8.591974e+001	-1.357187e+002	-1.196063e+000	-1.056641e+002
110218022	-1.024216e+000	-1.081258e+002	-8.107032e+001	-1.382713e+002	-7.804785e+001	-1.798234e+002	-1.195535e+000	-1.056597e+002
110220022	-1.024339e+000	-1.081315e+002	-8.257234e+001	-1.551526e+002	-7.738432e+001	-1.790889e+002	-1.196283e+000	-1.056626e+002
110222022	-1.023483e+000	-1.081286e+002	-7.982080e+001	-1.416306e+002	-7.942125e+001	-1.656666e+002	-1.197338e+000	-1.056644e+002
110224022	-1.025661e+000	-1.081398e+002	-8.560950e+001	-1.370623e+002	-7.848073e+001	-1.549830e+002	-1.197198e+000	-1.056702e+002
110226023	-1.023605e+000	-1.081416e+002	-8.189111e+001	-1.622582e+002	-7.858912e+001	-1.567318e+002	-1.195738e+000	-1.056748e+002
110228023	-1.023496e+000	-1.081201e+002	-7.687723e+001	-1.400929e+002	-8.711312e+001	-1.091665e+002	-1.198459e+000	-1.056819e+002
110230023	-1.025223e+000	-1.081346e+002	-8.055836e+001	-1.681007e+002	-8.163053e+001	-1.454744e+002	-1.201190e+000	-1.056550e+002
110232023	-1.026441e+000	-1.081516e+002	-7.871323e+001	-1.684934e+002	-7.587323e+001	-1.316670e+002	-1.197272e+000	-1.056697e+002
110234023	-1.023444e+000	-1.081479e+002	-7.902470e+001	-1.602632e+002	-8.273058e+001	-1.130811e+002	-1.196173e+000	-1.056682e+002
110236024	-1.025750e+000	-1.081337e+002	-8.356854e+001	-1.376711e+002	-8.034171e+001	-1.562229e+002	-1.196779e+000	-1.056818e+002
110238024	-1.026677e+000	-1.081531e+002	-7.574423e+001	-1.705269e+002	-7.906316e+001	1.792945e+002	-1.198071e+000	-1.056831e+002
110240024	-1.024929e+000	-1.081513e+002	-7.609800e+001	-1.298929e+002	-7.889257e+001	-1.654196e+002	-1.195071e+000	-1.056910e+002
110242024	-1.024880e+000	-1.081376e+002	-8.075363e+001	1.761767e+002	-8.160692e+001	-1.595854e+002	-1.196437e+000	-1.056855e+002
110244024	-1.024384e+000	-1.081554e+002	-7.962113e+001	-1.775739e+002	-8.312279e+001	-1.757748e+002	-1.199168e+000	-1.056996e+002
110246025	-1.028731e+000	-1.081555e+002	-7.591105e+001	-1.400309e+002	-7.692843e+001	-1.576597e+002	-1.197757e+000	-1.056823e+002
110248025	-1.027764e+000	-1.081700e+002	-8.155703e+001	-1.324646e+002	-8.651127e+001	-1.530295e+002	-1.196270e+000	-1.056836e+002
110250025	-1.024391e+000	-1.081699e+002	-7.814844e+001	-1.637131e+002	-8.145851e+001	-1.356381e+002	-1.199255e+000	-1.056855e+002
110252025	-1.024663e+000	-1.081529e+002	-8.109719e+001	1.788427e+002	-7.886293e+001	-1.558863e+002	-1.195643e+000	-1.057039e+002
110254025	-1.027730e+000	-1.081486e+002	-7.883360e+001	-1.771884e+002	-7.768683e+001	-1.430579e+002	-1.195877e+000	-1.057073e+002
110256026	-1.026714e+000	-1.081709e+002	-7.803713e+001	1.714244e+002	-8.334330e+001	-1.601194e+002	-1.195731e+000	-1.057021e+002
110258026	-1.026324e+000	-1.081749e+002	-7.725273e+001	-1.552016e+002	-7.609302e+001	-1.449628e+002	-1.196872e+000	-1.057089e+002
110260026	-1.025467e+000	-1.081765e+002	-8.253777e+001	-1.378848e+002	-8.246707e+001	-1.486568e+002	-1.196682e+000	-1.057023e+002
110262026	-1.024016e+000	-1.081644e+002	-8.488073e+001	1.690661e+002	-7.759235e+001	-1.517893e+002	-1.197825e+000	-1.056945e+002
110264026	-1.025690e+000	-1.081709e+002	-7.601984e+001	-1.562096e+002	-8.075101e+001	1.768339e+002	-1.196228e+000	-1.057112e+002
110266027	-1.025205e+000	-1.081657e+002	-7.861563e+001	-1.744616e+002	-7.760482e+001	-1.556509e+002	-1.195843e+000	-1.057034e+002
110268027	-1.026957e+000	-1.081645e+002	-8.054668e+001	-1.400148e+002	-7.791684e+001	-1.633362e+002	-1.197057e+000	-1.057141e+002
110270027	-1.023663e+000	-1.081786e+002	-7.615470e+001	-1.597488e+002	-8.571532e+001	-1.580096e+002	-1.197212e+000	-1.057136e+002
110272027	-1.024395e+000	-1.081839e+002	-8.208730e+001	-1.584301e+002	-7.873953e+001	-1.383925e+002	-1.199248e+000	-1.057227e+002
110274027	-1.025343e+000	-1.081906e+002	-8.248427e+001	-1.571420e+002	-7.747877e+001	-1.540690e+002	-1.198244e+000	-1.057155e+002
110276028	-1.026400e+000	-1.081905e+002	-8.982996e+001	1.609915e+002	-8.171171e+001	-1.414825e+002	-1.194747e+000	-1.057156e+002
110278028	-1.025912e+000	-1.081931e+002	-7.943812e+001	-1.565213e+002	-8.055980e+001	-1.567371e+002	-1.197438e+000	-1.057253e+002
110280028	-1.026639e+000	-1.081910e+002	-8.163185e+001	-1.399964e+002	-7.951775e+001	-1.795182e+002	-1.199230e+000	-1.057213e+002
110282028	-1.024839e+000	-1.082141e+002	-8.035198e+001	-1.584501e+002	-8.146114e+001	-1.337167e+002	-1.199043e+000	-1.057165e+002
110284028	-1.029079e+000	-1.081964e+002	-7.702134e+001	-1.388402e+002	-7.831086e+001	-1.573957e+002	-1.200106e+000	-1.057234e+002
110286029	-1.027114e+000	-1.081960e+002	-8.472372e+001	-1.146068e+002	-8.552219e+001	1.596460e+002	-1.198464e+000	-1.057310e+002
110288029	-1.025998e+000	-1.081899e+002	-7.773403e+001	-1.387446e+002	-7.719927e+001	-1.379069e+002	-1.195528e+000	-1.057260e+002
110290029	-1.026160e+000	-1.082068e+002	-7.780401e+001	-1.709378e+002	-7.773302e+001	1.750067e+002	-1.197106e+000	-1.057338e+002
110292029	-1.026390e+000	-1.081945e+002	-7.805957e+001	-1.450414e+002	-7.790627e+001	-1.406239e+002	-1.197297e+000	-1.057332e+002
110294029	-1.024937e+000	-1.082045e+002	-7.842197e+001	-1.659161e+002	-7.940773e+001	-1.709581e+002	-1.198988e+000	-1.057287e+002
110296030	-1.025915e+000	-1.082037e+002	-8.204042e+001	-1.278867e+002	-7.717474e+001	-1.621214e+002	-1.197037e+000	-1.057393e+002
110298030	-1.026122e+000	-1.081928e+002	-7.731855e+001	-1.528844e+002	-8.077052e+001	1.680943e+002	-1.195488e+000	-1.057334e+002
110300030	-1.026840e+000	-1.081994e+002	-7.666415e+001	-1.597251e+002	-8.271015e+001	-1.581665e+002	-1.199654e+000	-1.057384e+002
