!Agilent Technologies,E5071C,MY46520923,B.12.03
!Date: Tue Feb 06 10:30:54 2024
!Data & Calibration Information:
!Freq	S11:SOLT2(ON)	S21:SOLT2(ON)	S12:SOLT2(ON)	S22:SOLT2(ON)
!PortZ  Port1:50+j0    Port2:50+j0
!Above PortZ is port z conversion or system Z0 setting when saving the data.
!When reading, reference impedance value at option line is always used.
# Hz S dB R 50
110000000	-9.770380e-001	-1.078559e+002	-7.953358e+001	-1.374402e+002	-7.871073e+001	-1.584988e+002	-1.020574e+000	-1.059641e+002
110002000	-9.774900e-001	-1.078539e+002	-7.764947e+001	-1.529829e+002	-7.638774e+001	1.771077e+002	-1.019177e+000	-1.059746e+002
110004000	-9.754346e-001	-1.078453e+002	-8.150738e+001	-1.583608e+002	-7.787907e+001	-1.608133e+002	-1.018773e+000	-1.059562e+002
110006001	-9.770872e-001	-1.078435e+002	-7.802262e+001	1.782755e+002	-7.956993e+001	1.687907e+002	-1.017366e+000	-1.059848e+002
110008001	-9.788155e-001	-1.078624e+002	-7.801198e+001	-1.777675e+002	-7.971214e+001	-1.713895e+002	-1.020299e+000	-1.059825e+002
110010001	-9.778974e-001	-1.078488e+002	-7.914005e+001	-1.700862e+002	-7.908425e+001	-1.516153e+002	-1.019072e+000	-1.059864e+002
110012001	-9.806301e-001	-1.078562e+002	-8.443740e+001	1.603609e+002	-7.674225e+001	-1.481860e+002	-1.017159e+000	-1.059817e+002
110014001	-9.770904e-001	-1.078639e+002	-7.714780e+001	-1.488302e+002	-7.770494e+001	-1.358433e+002	-1.020582e+000	-1.059869e+002
110016002	-9.815202e-001	-1.078634e+002	-7.988268e+001	-1.555023e+002	-7.602373e+001	1.757846e+002	-1.020034e+000	-1.059856e+002
110018002	-9.785999e-001	-1.078627e+002	-8.036554e+001	1.798234e+002	-7.618931e+001	-1.466028e+002	-1.020829e+000	-1.059842e+002
110020002	-9.783290e-001	-1.078667e+002	-8.040970e+001	-1.601387e+002	-8.122130e+001	1.540112e+002	-1.018714e+000	-1.059923e+002
110022002	-9.768327e-001	-1.078717e+002	-7.923096e+001	-1.730873e+002	-8.246749e+001	-1.601132e+002	-1.018935e+000	-1.060033e+002
110024002	-9.784500e-001	-1.078800e+002	-7.857165e+001	-1.561423e+002	-8.202517e+001	-1.659878e+002	-1.019475e+000	-1.059954e+002
110026003	-9.796343e-001	-1.078875e+002	-8.199827e+001	-1.621491e+002	-7.560932e+001	1.793061e+002	-1.020753e+000	-1.060008e+002
110028003	-9.776854e-001	-1.078645e+002	-8.120881e+001	1.716959e+002	-7.975495e+001	-1.683345e+002	-1.020330e+000	-1.059857e+002
110030003	-9.808317e-001	-1.078765e+002	-7.693856e+001	-1.589949e+002	-8.546337e+001	-1.497806e+002	-1.020726e+000	-1.059968e+002
110032003	-9.786178e-001	-1.078673e+002	-8.109870e+001	-1.343498e+002	-8.504010e+001	-1.586948e+002	-1.021301e+000	-1.059901e+002
110034003	-9.788036e-001	-1.078791e+002	-7.796363e+001	1.699137e+002	-7.822821e+001	-1.386533e+002	-1.017716e+000	-1.059997e+002
110036004	-9.768923e-001	-1.078852e+002	-7.758406e+001	-1.660519e+002	-7.857315e+001	-1.503736e+002	-1.018887e+000	-1.060002e+002
110038004	-9.762553e-001	-1.078946e+002	-8.439807e+001	1.604044e+002	-7.804313e+001	-1.389920e+002	-1.019704e+000	-1.060123e+002
110040004	-9.797009e-001	-1.078859e+002	-9.056353e+001	1.435412e+002	-7.938013e+001	1.796154e+002	-1.019412e+000	-1.060181e+002
110042004	-9.773549e-001	-1.079086e+002	-7.683997e+001	-1.677447e+002	-8.098461e+001	-1.702588e+002	-1.019430e+000	-1.060152e+002
110044004	-9.773117e-001	-1.078976e+002	-7.943266e+001	-1.308731e+002	-7.984155e+001	-1.463614e+002	-1.020512e+000	-1.059986e+002
110046005	-9.794200e-001	-1.078753e+002	-8.130162e+001	1.774476e+002	-8.090813e+001	-1.776252e+002	-1.018057e+000	-1.060173e+002
110048005	-9.799428e-001	-1.079000e+002	-7.770266e+001	-1.686031e+002	-7.977425e+001	-1.781606e+002	-1.016648e+000	-1.060014e+002
110050005	-9.775927e-001	-1.078990e+002	-8.311770e+001	1.580860e+002	-8.000858e+001	-1.737242e+002	-1.021453e+000	-1.060028e+002
110052005	-9.808341e-001	-1.079110e+002	-7.590817e+001	1.667657e+002	-7.466783e+001	-1.523417e+002	-1.020429e+000	-1.060260e+002
110054005	-9.801183e-001	-1.078910e+002	-7.757895e+001	-1.565127e+002	-8.301891e+001	-1.466958e+002	-1.019130e+000	-1.060197e+002
110056006	-9.805275e-001	-1.079109e+002	-7.585463e+001	-1.462547e+002	-7.962332e+001	-1.402501e+002	-1.021432e+000	-1.060150e+002
110058006	-9.788843e-001	-1.079040e+002	-8.291116e+001	-1.556791e+002	-8.220352e+001	1.519586e+002	-1.018098e+000	-1.060259e+002
110060006	-9.792493e-001	-1.079021e+002	-7.863190e+001	-1.437432e+002	-7.920231e+001	-1.751161e+002	-1.021097e+000	-1.060054e+002
110062006	-9.773679e-001	-1.079049e+002	-7.965881e+001	-1.722393e+002	-8.211161e+001	-1.537484e+002	-1.020955e+000	-1.060343e+002
110064006	-9.781976e-001	-1.079108e+002	-7.893475e+001	-1.341056e+002	-7.915866e+001	-1.797035e+002	-1.020331e+000	-1.060195e+002
110066007	-9.776679e-001	-1.078994e+002	-7.831957e+001	-1.469584e+002	-7.829933e+001	-1.465936e+002	-1.017973e+000	-1.060211e+002
110068007	-9.794536e-001	-1.079076e+002	-8.033578e+001	-1.617284e+002	-7.846021e+001	-1.665312e+002	-1.020074e+000	-1.060387e+002
110070007	-9.784715e-001	-1.079070e+002	-8.292112e+001	-1.578639e+002	-9.876436e+001	1.282223e+002	-1.019269e+000	-1.060283e+002
110072007	-9.788061e-001	-1.079197e+002	-7.880005e+001	-1.490196e+002	-8.402506e+001	-1.766005e+002	-1.019283e+000	-1.060309e+002
110074007	-9.796370e-001	-1.079190e+002	-8.907999e+001	1.613049e+002	-7.890218e+001	-1.715067e+002	-1.020930e+000	-1.060356e+002
110076008	-9.782610e-001	-1.079161e+002	-7.971138e+001	-1.770191e+002	-7.728072e+001	-1.249449e+002	-1.021022e+000	-1.060295e+002
110078008	-9.780229e-001	-1.079129e+002	-8.192782e+001	-1.440930e+002	-7.924406e+001	-1.543022e+002	-1.019276e+000	-1.060527e+002
110080008	-9.813920e-001	-1.079225e+002	-7.797754e+001	-1.712906e+002	-8.039141e+001	-1.709927e+002	-1.019205e+000	-1.060443e+002
110082008	-9.800775e-001	-1.079289e+002	-8.006003e+001	-1.552633e+002	-7.992977e+001	-1.557342e+002	-1.019959e+000	-1.060485e+002
110084008	-9.790746e-001	-1.079274e+002	-7.647911e+001	-1.684469e+002	-7.683958e+001	1.777258e+002	-1.020991e+000	-1.060519e+002
110086009	-9.789995e-001	-1.079209e+002	-7.707512e+001	-1.441136e+002	-7.990143e+001	-1.412922e+002	-1.020720e+000	-1.060430e+002
110088009	-9.797164e-001	-1.079296e+002	-7.883660e+001	-1.697602e+002	-7.967370e+001	-1.556880e+002	-1.021206e+000	-1.060532e+002
110090009	-9.777085e-001	-1.079195e+002	-8.122305e+001	1.652888e+002	-7.920128e+001	-1.601294e+002	-1.021932e+000	-1.060510e+002
110092009	-9.771411e-001	-1.079250e+002	-8.050858e+001	-1.683672e+002	-7.916358e+001	1.665485e+002	-1.022981e+000	-1.060447e+002
110094009	-9.781958e-001	-1.079304e+002	-8.309586e+001	1.744253e+002	-8.012341e+001	-1.757153e+002	-1.020328e+000	-1.060470e+002
110096010	-9.790755e-001	-1.079309e+002	-8.046140e+001	-1.700099e+002	-8.163785e+001	-1.796551e+002	-1.019776e+000	-1.060706e+002
110098010	-9.797459e-001	-1.079367e+002	-7.873482e+001	-1.586662e+002	-7.899602e+001	-1.542305e+002	-1.021310e+000	-1.060602e+002
110100010	-9.804274e-001	-1.079291e+002	-8.958794e+001	-1.647196e+002	-8.067638e+001	-1.696847e+002	-1.019723e+000	-1.060667e+002
110102010	-9.800946e-001	-1.079439e+002	-8.649816e+001	-1.244197e+002	-7.943315e+001	-1.291025e+002	-1.020290e+000	-1.060616e+002
110104010	-9.795328e-001	-1.079347e+002	-8.458058e+001	1.722042e+002	-7.675618e+001	-1.747831e+002	-1.020800e+000	-1.060641e+002
110106011	-9.810356e-001	-1.079476e+002	-7.723807e+001	-1.588525e+002	-7.630402e+001	1.758715e+002	-1.022679e+000	-1.060670e+002
110108011	-9.782314e-001	-1.079564e+002	-7.684364e+001	-1.545154e+002	-8.573402e+001	-1.682010e+002	-1.019924e+000	-1.060791e+002
110110011	-9.802658e-001	-1.079450e+002	-8.360217e+001	-1.575658e+002	-7.843282e+001	-1.664419e+002	-1.019194e+000	-1.060832e+002
110112011	-9.803696e-001	-1.079660e+002	-7.631249e+001	-1.734788e+002	-8.173568e+001	1.662676e+002	-1.022083e+000	-1.060764e+002
110114011	-9.797170e-001	-1.079634e+002	-7.531374e+001	-1.412266e+002	-7.741097e+001	-1.544390e+002	-1.021577e+000	-1.060720e+002
110116012	-9.787613e-001	-1.079656e+002	-7.582871e+001	-1.461375e+002	-8.045807e+001	-1.366741e+002	-1.021718e+000	-1.060762e+002
110118012	-9.825799e-001	-1.079684e+002	-9.023542e+001	-1.333913e+002	-8.166921e+001	-1.734416e+002	-1.021435e+000	-1.060695e+002
110120012	-9.803102e-001	-1.079609e+002	-7.879190e+001	-1.488662e+002	-8.273344e+001	-1.782696e+002	-1.018847e+000	-1.060802e+002
110122012	-9.824391e-001	-1.079762e+002	-7.615891e+001	-1.732202e+002	-7.822914e+001	-1.396791e+002	-1.020235e+000	-1.060742e+002
110124012	-9.797127e-001	-1.079580e+002	-7.912253e+001	-1.656623e+002	-7.856590e+001	-1.680676e+002	-1.021988e+000	-1.060899e+002
110126013	-9.826825e-001	-1.079569e+002	-7.778213e+001	-1.709750e+002	-7.731271e+001	-1.699506e+002	-1.022931e+000	-1.060935e+002
110128013	-9.819710e-001	-1.079592e+002	-7.893225e+001	-1.571688e+002	-8.261811e+001	-1.643807e+002	-1.020362e+000	-1.060854e+002
110130013	-9.822157e-001	-1.079754e+002	-7.849046e+001	-1.652405e+002	-8.016202e+001	1.770687e+002	-1.020848e+000	-1.060903e+002
110132013	-9.774914e-001	-1.079649e+002	-7.935182e+001	-1.274464e+002	-8.580011e+001	-1.461578e+002	-1.020697e+000	-1.060927e+002
110134013	-9.800393e-001	-1.079765e+002	-7.685934e+001	-1.643821e+002	-8.348152e+001	1.712980e+002	-1.023952e+000	-1.061110e+002
110136014	-9.801738e-001	-1.079769e+002	-8.807493e+001	1.752551e+002	-7.854383e+001	-1.778870e+002	-1.021315e+000	-1.061052e+002
110138014	-9.811978e-001	-1.079805e+002	-7.975961e+001	-1.676334e+002	-8.337260e+001	-1.311901e+002	-1.021750e+000	-1.060994e+002
110140014	-9.793574e-001	-1.079758e+002	-8.571292e+001	1.749304e+002	-8.009221e+001	-1.621908e+002	-1.021739e+000	-1.061056e+002
110142014	-9.807736e-001	-1.079724e+002	-7.925935e+001	1.793704e+002	-8.051843e+001	-1.453187e+002	-1.021729e+000	-1.061052e+002
110144014	-9.827630e-001	-1.079991e+002	-7.829721e+001	-1.467990e+002	-7.693234e+001	-1.465124e+002	-1.020938e+000	-1.061066e+002
110146015	-9.801249e-001	-1.079906e+002	-8.057069e+001	-1.599095e+002	-8.059288e+001	-1.712819e+002	-1.023560e+000	-1.060993e+002
110148015	-9.809609e-001	-1.079972e+002	-7.750470e+001	-1.301787e+002	-7.713473e+001	-1.637756e+002	-1.022336e+000	-1.061025e+002
110150015	-9.816300e-001	-1.079988e+002	-9.704805e+001	-1.711874e+002	-7.836693e+001	-1.677293e+002	-1.022539e+000	-1.061186e+002
110152015	-9.814154e-001	-1.079964e+002	-8.215645e+001	1.522756e+002	-8.091449e+001	-1.700491e+002	-1.023282e+000	-1.061188e+002
110154015	-9.801450e-001	-1.079813e+002	-7.980178e+001	-1.738982e+002	-7.655446e+001	-1.664885e+002	-1.019881e+000	-1.061227e+002
110156016	-9.810664e-001	-1.079900e+002	-7.578176e+001	-1.315707e+002	-8.306643e+001	-1.532519e+002	-1.021850e+000	-1.061280e+002
110158016	-9.815840e-001	-1.080009e+002	-8.128632e+001	-1.524908e+002	-8.174157e+001	-1.516621e+002	-1.022326e+000	-1.061171e+002
110160016	-9.799985e-001	-1.079924e+002	-8.181977e+001	-1.695946e+002	-8.033096e+001	-1.350137e+002	-1.021054e+000	-1.061123e+002
110162016	-9.830888e-001	-1.080223e+002	-8.191512e+001	-1.638021e+002	-8.634776e+001	-1.488414e+002	-1.022301e+000	-1.061188e+002
110164016	-9.838447e-001	-1.080042e+002	-8.101923e+001	1.704198e+002	-8.118024e+001	-1.574242e+002	-1.022182e+000	-1.061302e+002
110166017	-9.797768e-001	-1.080094e+002	-8.312541e+001	-1.782237e+002	-7.814447e+001	-1.555870e+002	-1.023206e+000	-1.061234e+002
110168017	-9.836723e-001	-1.080097e+002	-7.812714e+001	-1.585276e+002	-8.350363e+001	-1.777796e+002	-1.021853e+000	-1.061258e+002
110170017	-9.822996e-001	-1.080130e+002	-7.880173e+001	-1.695287e+002	-7.752913e+001	-1.616134e+002	-1.022242e+000	-1.061305e+002
110172017	-9.801935e-001	-1.080203e+002	-8.129971e+001	1.603580e+002	-8.386370e+001	-1.708265e+002	-1.022838e+000	-1.061426e+002
110174017	-9.800040e-001	-1.080151e+002	-7.808220e+001	-1.534785e+002	-8.510946e+001	-1.250913e+002	-1.022801e+000	-1.061243e+002
110176018	-9.803444e-001	-1.080059e+002	-7.650402e+001	-1.661532e+002	-8.037062e+001	-1.691537e+002	-1.021124e+000	-1.061443e+002
110178018	-9.819852e-001	-1.080149e+002	-7.892334e+001	-1.187701e+002	-7.950586e+001	1.792672e+002	-1.024254e+000	-1.061379e+002
110180018	-9.806211e-001	-1.080321e+002	-8.104019e+001	1.639949e+002	-7.912855e+001	-1.702587e+002	-1.024478e+000	-1.061419e+002
110182018	-9.816397e-001	-1.080423e+002	-8.055453e+001	-1.614399e+002	-7.970973e+001	-1.778754e+002	-1.023789e+000	-1.061383e+002
110184018	-9.807652e-001	-1.080274e+002	-8.233522e+001	-1.342156e+002	-8.441693e+001	-1.447488e+002	-1.020636e+000	-1.061299e+002
110186019	-9.826895e-001	-1.080376e+002	-8.814147e+001	-1.205239e+002	-7.866133e+001	-1.458404e+002	-1.022465e+000	-1.061457e+002
110188019	-9.784102e-001	-1.080266e+002	-8.020167e+001	-1.762307e+002	-7.942014e+001	-1.323568e+002	-1.020742e+000	-1.061376e+002
110190019	-9.826581e-001	-1.080278e+002	-7.733918e+001	-1.539709e+002	-8.094782e+001	1.633305e+002	-1.021987e+000	-1.061467e+002
110192019	-9.837395e-001	-1.080345e+002	-7.790847e+001	-1.560457e+002	-8.260826e+001	1.671829e+002	-1.023381e+000	-1.061508e+002
110194019	-9.796679e-001	-1.080246e+002	-7.888187e+001	-1.369508e+002	-7.918654e+001	-1.583905e+002	-1.023138e+000	-1.061539e+002
110196020	-9.806392e-001	-1.080384e+002	-7.767700e+001	-1.670533e+002	-7.682385e+001	-1.724845e+002	-1.023758e+000	-1.061584e+002
110198020	-9.797153e-001	-1.080350e+002	-8.033883e+001	1.494223e+002	-8.496373e+001	-1.497774e+002	-1.022185e+000	-1.061578e+002
110200020	-9.836698e-001	-1.080303e+002	-7.765947e+001	-1.250962e+002	-8.732105e+001	-1.442257e+002	-1.023064e+000	-1.061526e+002
110202020	-9.808064e-001	-1.080552e+002	-7.913352e+001	-1.467637e+002	-7.850906e+001	-1.692077e+002	-1.020044e+000	-1.061607e+002
110204020	-9.834245e-001	-1.080405e+002	-7.800043e+001	1.741944e+002	-7.777655e+001	-1.758767e+002	-1.022873e+000	-1.061595e+002
110206021	-9.816954e-001	-1.080437e+002	-8.864167e+001	-9.633607e+001	-8.317441e+001	1.779855e+002	-1.024791e+000	-1.061632e+002
110208021	-9.831446e-001	-1.080498e+002	-7.578901e+001	-1.776113e+002	-8.125064e+001	-1.686400e+002	-1.022999e+000	-1.061683e+002
110210021	-9.816354e-001	-1.080639e+002	-7.944492e+001	-1.493395e+002	-7.902168e+001	-1.438823e+002	-1.022434e+000	-1.061656e+002
110212021	-9.809097e-001	-1.080454e+002	-8.829963e+001	1.792229e+002	-7.785706e+001	-1.747260e+002	-1.024677e+000	-1.061711e+002
110214021	-9.842082e-001	-1.080511e+002	-7.624375e+001	-1.387226e+002	-8.410784e+001	-1.370132e+002	-1.025001e+000	-1.061662e+002
110216022	-9.818441e-001	-1.080523e+002	-7.911780e+001	-1.611298e+002	-7.982613e+001	-1.475992e+002	-1.022398e+000	-1.061849e+002
110218022	-9.815762e-001	-1.080433e+002	-8.530920e+001	-1.450182e+002	-8.058465e+001	-1.623686e+002	-1.024569e+000	-1.061723e+002
110220022	-9.815705e-001	-1.080735e+002	-8.339773e+001	-1.479532e+002	-7.964015e+001	-1.523649e+002	-1.023671e+000	-1.061650e+002
110222022	-9.824846e-001	-1.080674e+002	-8.427076e+001	-1.519784e+002	-7.856849e+001	-1.678307e+002	-1.023583e+000	-1.061820e+002
110224022	-9.836933e-001	-1.080546e+002	-7.913478e+001	-1.467090e+002	-8.015994e+001	-1.281523e+002	-1.023824e+000	-1.061927e+002
110226023	-9.825834e-001	-1.080655e+002	-8.025934e+001	-1.251436e+002	-8.102468e+001	-1.444880e+002	-1.022815e+000	-1.061636e+002
110228023	-9.817170e-001	-1.080575e+002	-8.245478e+001	-1.359894e+002	-8.205216e+001	-1.595321e+002	-1.024070e+000	-1.061784e+002
110230023	-9.838433e-001	-1.080709e+002	-7.701960e+001	-1.631023e+002	-7.832415e+001	-1.513787e+002	-1.025879e+000	-1.061870e+002
110232023	-9.828172e-001	-1.080771e+002	-8.161582e+001	-1.382723e+002	-7.775782e+001	-1.554487e+002	-1.023313e+000	-1.061853e+002
110234023	-9.825948e-001	-1.080760e+002	-8.214322e+001	-1.516144e+002	-7.890925e+001	-1.626052e+002	-1.024595e+000	-1.061895e+002
110236024	-9.827364e-001	-1.080780e+002	-8.354575e+001	-1.644817e+002	-7.916519e+001	-1.598698e+002	-1.023563e+000	-1.061912e+002
110238024	-9.842966e-001	-1.080788e+002	-7.767456e+001	-1.669506e+002	-7.652067e+001	-1.554337e+002	-1.024458e+000	-1.062001e+002
110240024	-9.828046e-001	-1.080805e+002	-7.634542e+001	-1.544954e+002	-7.969679e+001	-1.778260e+002	-1.024624e+000	-1.062007e+002
110242024	-9.837914e-001	-1.080966e+002	-7.913262e+001	-1.467218e+002	-7.760079e+001	-1.715333e+002	-1.023042e+000	-1.061951e+002
110244024	-9.831309e-001	-1.080788e+002	-7.932243e+001	-1.553119e+002	-7.570870e+001	-1.434655e+002	-1.023813e+000	-1.062135e+002
110246025	-9.871274e-001	-1.080854e+002	-8.779318e+001	1.720278e+002	-8.062048e+001	-1.202509e+002	-1.024818e+000	-1.062143e+002
110248025	-9.822032e-001	-1.080831e+002	-8.850039e+001	-1.767871e+002	-7.657517e+001	-1.641754e+002	-1.022373e+000	-1.061890e+002
110250025	-9.817689e-001	-1.080905e+002	-7.761736e+001	-1.500353e+002	-7.731714e+001	-1.494857e+002	-1.025169e+000	-1.062015e+002
110252025	-9.822148e-001	-1.080820e+002	-7.890137e+001	-1.541177e+002	-8.007395e+001	-1.405670e+002	-1.024110e+000	-1.062018e+002
110254025	-9.825389e-001	-1.081113e+002	-7.475620e+001	-1.214236e+002	-7.746779e+001	-1.638199e+002	-1.022139e+000	-1.061978e+002
110256026	-9.834476e-001	-1.080874e+002	-7.838655e+001	-1.230679e+002	-7.735999e+001	-1.506527e+002	-1.022247e+000	-1.062105e+002
110258026	-9.808200e-001	-1.080993e+002	-8.363408e+001	1.672725e+002	-8.231744e+001	-1.490357e+002	-1.026268e+000	-1.062214e+002
110260026	-9.819439e-001	-1.081078e+002	-9.419193e+001	-1.677681e+002	-7.888961e+001	-1.482896e+002	-1.024568e+000	-1.062102e+002
110262026	-9.838845e-001	-1.080976e+002	-7.622220e+001	-1.330744e+002	-8.313336e+001	-1.413426e+002	-1.023582e+000	-1.062132e+002
110264026	-9.821011e-001	-1.081016e+002	-8.168876e+001	-1.732505e+002	-7.887824e+001	-1.468835e+002	-1.023640e+000	-1.062294e+002
110266027	-9.848389e-001	-1.081112e+002	-8.282849e+001	-1.162547e+002	-8.043966e+001	-1.364118e+002	-1.023729e+000	-1.062362e+002
110268027	-9.826161e-001	-1.081074e+002	-8.084749e+001	-1.400972e+002	-8.307391e+001	-1.576572e+002	-1.024693e+000	-1.062273e+002
110270027	-9.827063e-001	-1.081062e+002	-8.172872e+001	-1.270649e+002	-8.164920e+001	-1.200498e+002	-1.024169e+000	-1.062290e+002
110272027	-9.842072e-001	-1.081138e+002	-7.493351e+001	-1.311163e+002	-7.833873e+001	-1.527160e+002	-1.025923e+000	-1.062324e+002
110274027	-9.848039e-001	-1.081231e+002	-8.088805e+001	-1.361856e+002	-7.792955e+001	-1.515703e+002	-1.025837e+000	-1.062291e+002
110276028	-9.833149e-001	-1.081053e+002	-8.570297e+001	1.751756e+002	-8.083998e+001	1.748973e+002	-1.025456e+000	-1.062350e+002
110278028	-9.833335e-001	-1.081138e+002	-7.851392e+001	-1.475184e+002	-7.870647e+001	1.756217e+002	-1.026994e+000	-1.062359e+002
110280028	-9.842202e-001	-1.081289e+002	-7.801126e+001	-1.684840e+002	-8.024283e+001	-1.774530e+002	-1.025594e+000	-1.062313e+002
110282028	-9.840179e-001	-1.081281e+002	-7.660187e+001	-1.671722e+002	-7.813459e+001	-1.340239e+002	-1.023841e+000	-1.062325e+002
110284028	-9.838196e-001	-1.081188e+002	-7.997923e+001	1.723644e+002	-7.912846e+001	-1.746874e+002	-1.024595e+000	-1.062341e+002
110286029	-9.835111e-001	-1.081255e+002	-8.078354e+001	-1.561886e+002	-7.712398e+001	-1.623168e+002	-1.025651e+000	-1.062414e+002
110288029	-9.847299e-001	-1.081268e+002	-8.219870e+001	-1.554854e+002	-8.202185e+001	-1.718315e+002	-1.023609e+000	-1.062309e+002
110290029	-9.835678e-001	-1.081214e+002	-8.044679e+001	-1.512597e+002	-7.544204e+001	-1.582216e+002	-1.024810e+000	-1.062504e+002
110292029	-9.848590e-001	-1.081201e+002	-7.969893e+001	-1.688342e+002	-8.431049e+001	-1.215920e+002	-1.027395e+000	-1.062385e+002
110294029	-9.847633e-001	-1.081424e+002	-7.997873e+001	1.723900e+002	-8.237698e+001	-1.574651e+002	-1.023154e+000	-1.062522e+002
110296030	-9.852390e-001	-1.081279e+002	-7.739851e+001	-1.341038e+002	-7.836787e+001	-1.445275e+002	-1.022776e+000	-1.062512e+002
110298030	-9.834374e-001	-1.081309e+002	-8.004592e+001	-1.580457e+002	-7.889727e+001	-1.697095e+002	-1.026166e+000	-1.062657e+002
110300030	-9.846008e-001	-1.081452e+002	-8.105381e+001	-1.560219e+002	-8.393003e+001	-1.425266e+002	-1.025408e+000	-1.062632e+002
