!Agilent Technologies,E5071C,MY46520923,B.12.03
!Date: Tue Feb 06 09:20:24 2024
!Data & Calibration Information:
!Freq	S11:SOLT2(ON)	S21:SOLT2(ON)	S12:SOLT2(ON)	S22:SOLT2(ON)
!PortZ  Port1:50+j0    Port2:50+j0
!Above PortZ is port z conversion or system Z0 setting when saving the data.
!When reading, reference impedance value at option line is always used.
# Hz S dB R 50
110000000	-9.771187e-001	-1.077294e+002	-7.565028e+001	-1.795302e+002	-7.562024e+001	-1.742423e+002	-1.026920e+000	-1.059685e+002
110002000	-9.738590e-001	-1.077286e+002	-7.824266e+001	1.685617e+002	-8.221052e+001	-1.782902e+002	-1.027414e+000	-1.060002e+002
110004000	-9.751674e-001	-1.077305e+002	-7.860727e+001	-1.719969e+002	-7.556881e+001	1.742518e+002	-1.028295e+000	-1.059941e+002
110006001	-9.786326e-001	-1.077254e+002	-7.683714e+001	1.791437e+002	-7.863624e+001	-1.797028e+002	-1.028223e+000	-1.060001e+002
110008001	-9.752730e-001	-1.077437e+002	-7.552860e+001	-1.655481e+002	-7.815872e+001	1.766828e+002	-1.026876e+000	-1.059963e+002
110010001	-9.762838e-001	-1.077362e+002	-8.244958e+001	1.556728e+002	-7.728019e+001	1.798909e+002	-1.028869e+000	-1.060046e+002
110012001	-9.763492e-001	-1.077383e+002	-7.602745e+001	1.793558e+002	-8.011263e+001	1.642060e+002	-1.029170e+000	-1.060056e+002
110014001	-9.751392e-001	-1.077480e+002	-7.725721e+001	-1.613196e+002	-7.823045e+001	-1.729805e+002	-1.028449e+000	-1.059962e+002
110016002	-9.767924e-001	-1.077433e+002	-7.804761e+001	-1.582863e+002	-7.835901e+001	-1.663338e+002	-1.028099e+000	-1.060027e+002
110018002	-9.764479e-001	-1.077416e+002	-7.922688e+001	-1.758053e+002	-7.755868e+001	-1.519908e+002	-1.028732e+000	-1.060171e+002
110020002	-9.750019e-001	-1.077446e+002	-7.680470e+001	-1.677924e+002	-8.279390e+001	-1.720022e+002	-1.028295e+000	-1.060058e+002
110022002	-9.788815e-001	-1.077573e+002	-8.208939e+001	1.609710e+002	-8.052342e+001	1.667532e+002	-1.030006e+000	-1.059961e+002
110024002	-9.767552e-001	-1.077519e+002	-7.839689e+001	-1.573095e+002	-7.584419e+001	-1.772160e+002	-1.032098e+000	-1.060106e+002
110026003	-9.763890e-001	-1.077435e+002	-7.787479e+001	-1.687846e+002	-7.968590e+001	1.550180e+002	-1.027042e+000	-1.060058e+002
110028003	-9.765974e-001	-1.077485e+002	-7.921908e+001	-1.786739e+002	-8.134307e+001	-1.384812e+002	-1.030458e+000	-1.060187e+002
110030003	-9.783265e-001	-1.077513e+002	-8.205372e+001	-1.449750e+002	-7.745490e+001	-1.706531e+002	-1.026270e+000	-1.060097e+002
110032003	-9.759694e-001	-1.077622e+002	-7.823879e+001	-1.492358e+002	-7.658067e+001	1.660020e+002	-1.027217e+000	-1.060130e+002
110034003	-9.766521e-001	-1.077529e+002	-7.871042e+001	1.620470e+002	-7.725325e+001	-1.788666e+002	-1.027650e+000	-1.060128e+002
110036004	-9.762807e-001	-1.077451e+002	-7.673126e+001	1.649939e+002	-8.041595e+001	-1.691551e+002	-1.027102e+000	-1.060079e+002
110038004	-9.773964e-001	-1.077661e+002	-8.199944e+001	-1.786688e+002	-7.855960e+001	-1.688066e+002	-1.029452e+000	-1.060204e+002
110040004	-9.787610e-001	-1.077742e+002	-7.748565e+001	1.718657e+002	-7.978772e+001	1.507563e+002	-1.027423e+000	-1.060312e+002
110042004	-9.774370e-001	-1.077642e+002	-7.982428e+001	-1.548199e+002	-7.969240e+001	1.585285e+002	-1.029760e+000	-1.060306e+002
110044004	-9.760914e-001	-1.077664e+002	-7.559062e+001	-1.563188e+002	-7.866410e+001	-1.531586e+002	-1.029551e+000	-1.060261e+002
110046005	-9.741753e-001	-1.077653e+002	-8.179558e+001	-1.669764e+002	-7.726041e+001	1.739630e+002	-1.027588e+000	-1.060345e+002
110048005	-9.776683e-001	-1.077608e+002	-7.894721e+001	-1.601873e+002	-8.345725e+001	-1.765909e+002	-1.027825e+000	-1.060219e+002
110050005	-9.751692e-001	-1.077638e+002	-7.718161e+001	-1.612446e+002	-7.839285e+001	-1.565752e+002	-1.028083e+000	-1.060394e+002
110052005	-9.757313e-001	-1.077697e+002	-7.892404e+001	1.771739e+002	-7.945152e+001	-1.711934e+002	-1.028103e+000	-1.060362e+002
110054005	-9.765344e-001	-1.077700e+002	-8.293743e+001	-1.511071e+002	-8.320425e+001	-1.528384e+002	-1.028053e+000	-1.060369e+002
110056006	-9.766634e-001	-1.077867e+002	-7.685092e+001	-1.549249e+002	-8.106252e+001	-1.394909e+002	-1.026767e+000	-1.060300e+002
110058006	-9.778063e-001	-1.077624e+002	-7.830203e+001	-1.532130e+002	-7.613612e+001	1.712986e+002	-1.029088e+000	-1.060412e+002
110060006	-9.775178e-001	-1.077719e+002	-8.770106e+001	-1.417439e+002	-8.131564e+001	-1.551740e+002	-1.029905e+000	-1.060568e+002
110062006	-9.753369e-001	-1.077831e+002	-8.046661e+001	-1.527624e+002	-7.839857e+001	-1.620947e+002	-1.026628e+000	-1.060401e+002
110064006	-9.781117e-001	-1.077885e+002	-7.930405e+001	-1.698552e+002	-8.120144e+001	-1.796793e+002	-1.030068e+000	-1.060561e+002
110066007	-9.767650e-001	-1.077751e+002	-8.064921e+001	-1.666234e+002	-7.650244e+001	-1.567871e+002	-1.027920e+000	-1.060365e+002
110068007	-9.759557e-001	-1.077853e+002	-8.451634e+001	1.477266e+002	-8.334594e+001	1.763488e+002	-1.029516e+000	-1.060476e+002
110070007	-9.795017e-001	-1.078021e+002	-8.270471e+001	-1.656361e+002	-8.567778e+001	1.495839e+002	-1.030158e+000	-1.060509e+002
110072007	-9.773975e-001	-1.077991e+002	-8.153626e+001	-1.469468e+002	-8.592263e+001	-1.773380e+002	-1.029626e+000	-1.060513e+002
110074007	-9.766286e-001	-1.078042e+002	-8.534788e+001	1.574544e+002	-7.687852e+001	-1.707905e+002	-1.026881e+000	-1.060588e+002
110076008	-9.780230e-001	-1.078118e+002	-7.860166e+001	1.650764e+002	-8.186148e+001	1.655181e+002	-1.029314e+000	-1.060642e+002
110078008	-9.777457e-001	-1.077939e+002	-8.144417e+001	1.682923e+002	-7.869570e+001	-1.587950e+002	-1.030409e+000	-1.060548e+002
110080008	-9.772774e-001	-1.077956e+002	-7.724186e+001	-1.622600e+002	-8.376541e+001	-1.691517e+002	-1.030584e+000	-1.060463e+002
110082008	-9.776771e-001	-1.078034e+002	-7.601834e+001	-1.613832e+002	-7.692983e+001	1.756345e+002	-1.029949e+000	-1.060723e+002
110084008	-9.785810e-001	-1.078046e+002	-8.398358e+001	-1.785393e+002	-7.922445e+001	-1.712320e+002	-1.029726e+000	-1.060635e+002
110086009	-9.763891e-001	-1.078071e+002	-8.058562e+001	-1.542769e+002	-8.090093e+001	-1.688065e+002	-1.028698e+000	-1.060722e+002
110088009	-9.769222e-001	-1.078022e+002	-7.943192e+001	-1.666576e+002	-8.167314e+001	1.760762e+002	-1.031393e+000	-1.060604e+002
110090009	-9.773394e-001	-1.078062e+002	-8.423043e+001	1.711659e+002	-7.576943e+001	-1.632103e+002	-1.027886e+000	-1.060744e+002
110092009	-9.751579e-001	-1.078009e+002	-7.902625e+001	-1.405073e+002	-7.890223e+001	-1.539600e+002	-1.027567e+000	-1.060708e+002
110094009	-9.782711e-001	-1.078144e+002	-7.929097e+001	-1.480778e+002	-7.898756e+001	-1.769578e+002	-1.029355e+000	-1.060751e+002
110096010	-9.768841e-001	-1.078324e+002	-7.938448e+001	-1.559695e+002	-8.046422e+001	-1.551363e+002	-1.030035e+000	-1.060805e+002
110098010	-9.788527e-001	-1.078072e+002	-7.793034e+001	1.765113e+002	-7.980100e+001	-1.646477e+002	-1.030617e+000	-1.060698e+002
110100010	-9.767463e-001	-1.078077e+002	-7.875421e+001	-1.661147e+002	-8.134756e+001	-1.627586e+002	-1.029971e+000	-1.060741e+002
110102010	-9.768051e-001	-1.078230e+002	-7.856261e+001	1.694077e+002	-7.864079e+001	-1.530483e+002	-1.030125e+000	-1.060865e+002
110104010	-9.788127e-001	-1.078168e+002	-8.203736e+001	-1.581983e+002	-7.921597e+001	-1.607469e+002	-1.029062e+000	-1.060889e+002
110106011	-9.760334e-001	-1.078296e+002	-7.815791e+001	1.789268e+002	-8.060419e+001	1.701491e+002	-1.029551e+000	-1.060960e+002
110108011	-9.782443e-001	-1.078238e+002	-7.970588e+001	1.645338e+002	-7.477329e+001	-1.714537e+002	-1.029755e+000	-1.060992e+002
110110011	-9.768180e-001	-1.078358e+002	-8.829585e+001	-1.785333e+002	-7.990230e+001	-1.709005e+002	-1.030883e+000	-1.060931e+002
110112011	-9.770900e-001	-1.078369e+002	-8.177091e+001	-1.668521e+002	-8.178805e+001	-1.721194e+002	-1.028079e+000	-1.060961e+002
110114011	-9.776818e-001	-1.078366e+002	-7.744068e+001	-1.359263e+002	-7.805585e+001	-1.543876e+002	-1.031306e+000	-1.060907e+002
110116012	-9.766061e-001	-1.078383e+002	-7.775516e+001	1.779371e+002	-7.921278e+001	1.566952e+002	-1.028586e+000	-1.060870e+002
110118012	-9.813763e-001	-1.078455e+002	-7.794411e+001	-1.361665e+002	-8.424086e+001	-1.580804e+002	-1.032095e+000	-1.061041e+002
110120012	-9.774477e-001	-1.078326e+002	-8.105205e+001	-1.731359e+002	-8.280001e+001	-1.195887e+002	-1.031339e+000	-1.060889e+002
110122012	-9.783666e-001	-1.078462e+002	-8.776669e+001	-1.588538e+002	-8.240830e+001	-1.718919e+002	-1.029695e+000	-1.060912e+002
110124012	-9.777891e-001	-1.078477e+002	-7.757342e+001	-1.784723e+002	-7.989824e+001	-1.708483e+002	-1.031748e+000	-1.060850e+002
110126013	-9.765082e-001	-1.078415e+002	-8.564553e+001	1.630807e+002	-9.039841e+001	1.641880e+002	-1.029407e+000	-1.061107e+002
110128013	-9.799778e-001	-1.078367e+002	-7.963939e+001	-1.600539e+002	-8.067375e+001	-1.706005e+002	-1.029849e+000	-1.061069e+002
110130013	-9.765793e-001	-1.078493e+002	-7.931047e+001	1.742458e+002	-8.546216e+001	-1.770623e+002	-1.031031e+000	-1.061024e+002
110132013	-9.773378e-001	-1.078449e+002	-8.357816e+001	1.645628e+002	-8.244271e+001	1.546195e+002	-1.029458e+000	-1.061128e+002
110134013	-9.808146e-001	-1.078552e+002	-8.019496e+001	-1.569543e+002	-7.471983e+001	-1.670114e+002	-1.029330e+000	-1.061114e+002
110136014	-9.801737e-001	-1.078655e+002	-9.005619e+001	1.436565e+002	-7.964843e+001	-1.599385e+002	-1.030307e+000	-1.061033e+002
110138014	-9.802876e-001	-1.078750e+002	-7.925005e+001	-1.576869e+002	-8.159477e+001	1.533812e+002	-1.029994e+000	-1.061274e+002
110140014	-9.781643e-001	-1.078506e+002	-8.657217e+001	-1.750077e+002	-8.307678e+001	-1.371923e+002	-1.029836e+000	-1.061341e+002
110142014	-9.786281e-001	-1.078728e+002	-8.030442e+001	1.799539e+002	-7.714828e+001	-1.599569e+002	-1.031090e+000	-1.061207e+002
110144014	-9.787764e-001	-1.078705e+002	-8.101806e+001	-1.046166e+002	-8.076420e+001	1.753699e+002	-1.030563e+000	-1.061200e+002
110146015	-9.798770e-001	-1.078741e+002	-7.828438e+001	-1.653256e+002	-9.642170e+001	1.641697e+002	-1.031654e+000	-1.061340e+002
110148015	-9.803248e-001	-1.078635e+002	-7.683018e+001	1.614297e+002	-8.352729e+001	-1.116313e+002	-1.029248e+000	-1.061266e+002
110150015	-9.778450e-001	-1.078616e+002	-8.394644e+001	-1.607761e+002	-8.571406e+001	1.734633e+002	-1.031176e+000	-1.061500e+002
110152015	-9.783892e-001	-1.078740e+002	-8.551706e+001	-1.397650e+002	-8.057855e+001	-1.583029e+002	-1.030105e+000	-1.061242e+002
110154015	-9.796325e-001	-1.078724e+002	-8.395839e+001	-1.784041e+002	-7.962481e+001	-1.501472e+002	-1.032516e+000	-1.061350e+002
110156016	-9.777442e-001	-1.078772e+002	-8.735639e+001	1.666360e+002	-8.110033e+001	-1.648314e+002	-1.032032e+000	-1.061575e+002
110158016	-9.784434e-001	-1.078823e+002	-8.505859e+001	-1.454863e+002	-8.146478e+001	-1.585960e+002	-1.028666e+000	-1.061305e+002
110160016	-9.791527e-001	-1.078819e+002	-8.257338e+001	-1.566163e+002	-7.980913e+001	-1.580315e+002	-1.031171e+000	-1.061199e+002
110162016	-9.781929e-001	-1.078921e+002	-8.738151e+001	1.666621e+002	-8.104330e+001	-1.630271e+002	-1.033833e+000	-1.061376e+002
110164016	-9.776085e-001	-1.078754e+002	-8.102648e+001	-1.621612e+002	-8.113782e+001	-1.795056e+002	-1.033289e+000	-1.061296e+002
110166017	-9.792783e-001	-1.079007e+002	-8.198149e+001	1.675537e+002	-8.070919e+001	1.547622e+002	-1.031769e+000	-1.061432e+002
110168017	-9.782604e-001	-1.078882e+002	-8.010873e+001	1.586331e+002	-8.258820e+001	-1.444822e+002	-1.030384e+000	-1.061250e+002
110170017	-9.802484e-001	-1.078915e+002	-8.662048e+001	-1.333942e+002	-7.896063e+001	-1.768621e+002	-1.031917e+000	-1.061498e+002
110172017	-9.788440e-001	-1.079014e+002	-8.088614e+001	-1.408427e+002	-7.790751e+001	-1.462531e+002	-1.029499e+000	-1.061386e+002
110174017	-9.780421e-001	-1.078897e+002	-7.976268e+001	-1.721921e+002	-7.597575e+001	-1.658395e+002	-1.029323e+000	-1.061543e+002
110176018	-9.801017e-001	-1.079100e+002	-8.952881e+001	-1.128003e+002	-7.893124e+001	-1.682972e+002	-1.032930e+000	-1.061404e+002
110178018	-9.807811e-001	-1.079004e+002	-8.419198e+001	1.551262e+002	-8.558069e+001	-1.584174e+002	-1.031536e+000	-1.061518e+002
110180018	-9.791274e-001	-1.078993e+002	-8.093949e+001	-1.677220e+002	-8.358388e+001	-1.616633e+002	-1.031667e+000	-1.061460e+002
110182018	-9.777786e-001	-1.078911e+002	-8.170105e+001	1.680671e+002	-8.411652e+001	-1.555486e+002	-1.033442e+000	-1.061610e+002
110184018	-9.791362e-001	-1.079182e+002	-8.127668e+001	1.649608e+002	-8.600898e+001	-1.220815e+002	-1.031339e+000	-1.061652e+002
110186019	-9.792795e-001	-1.079125e+002	-8.290214e+001	-1.557498e+002	-9.269586e+001	1.720365e+002	-1.032184e+000	-1.061640e+002
110188019	-9.762283e-001	-1.079019e+002	-8.352724e+001	-1.712229e+002	-8.051249e+001	-1.636700e+002	-1.030224e+000	-1.061564e+002
110190019	-9.793544e-001	-1.079166e+002	-8.091440e+001	-1.383297e+002	-8.384290e+001	-1.451341e+002	-1.031735e+000	-1.061796e+002
110192019	-9.792139e-001	-1.079226e+002	-7.758803e+001	-1.495905e+002	-8.415839e+001	-1.713288e+002	-1.031299e+000	-1.061664e+002
110194019	-9.775865e-001	-1.079198e+002	-7.893541e+001	-1.656195e+002	-8.304357e+001	-1.761802e+002	-1.029936e+000	-1.061704e+002
110196020	-9.799226e-001	-1.079052e+002	-7.710362e+001	-1.512288e+002	-7.954342e+001	-1.487173e+002	-1.031908e+000	-1.061696e+002
110198020	-9.791462e-001	-1.079249e+002	-8.139591e+001	1.567785e+002	-8.215990e+001	-1.216120e+002	-1.030582e+000	-1.061691e+002
110200020	-9.817458e-001	-1.079112e+002	-9.720230e+001	-1.251918e+002	-7.934788e+001	-1.331500e+002	-1.032363e+000	-1.061763e+002
110202020	-9.778255e-001	-1.079225e+002	-8.403250e+001	-1.404863e+002	-8.414479e+001	-1.687608e+002	-1.031358e+000	-1.061622e+002
110204020	-9.812551e-001	-1.079206e+002	-8.934828e+001	1.676254e+002	-8.066492e+001	-1.543647e+002	-1.033018e+000	-1.061769e+002
110206021	-9.796093e-001	-1.079266e+002	-7.969006e+001	-1.530794e+002	-8.015559e+001	-1.111655e+002	-1.032767e+000	-1.061843e+002
110208021	-9.811435e-001	-1.079291e+002	-8.515004e+001	-1.754082e+002	-8.487105e+001	1.658644e+002	-1.033526e+000	-1.061754e+002
110210021	-9.809605e-001	-1.079316e+002	-8.704541e+001	-1.180297e+002	-8.383720e+001	1.708714e+002	-1.032434e+000	-1.061937e+002
110212021	-9.801010e-001	-1.079095e+002	-7.997204e+001	-1.703509e+002	-8.376491e+001	-1.394881e+002	-1.031621e+000	-1.061819e+002
110214021	-9.816011e-001	-1.079238e+002	-8.380665e+001	-1.350277e+002	-7.927336e+001	-1.204584e+002	-1.033157e+000	-1.061850e+002
110216022	-9.777143e-001	-1.079402e+002	-9.886705e+001	-7.426084e+001	-7.952015e+001	-1.321234e+002	-1.033258e+000	-1.061894e+002
110218022	-9.817448e-001	-1.079384e+002	-8.694535e+001	-1.357628e+002	-8.528471e+001	-1.526276e+002	-1.034911e+000	-1.062034e+002
110220022	-9.831729e-001	-1.079427e+002	-8.110837e+001	-1.460965e+002	-8.487855e+001	1.532012e+002	-1.033367e+000	-1.061851e+002
110222022	-9.799265e-001	-1.079424e+002	-8.040531e+001	-1.682649e+002	-8.334101e+001	-1.221216e+002	-1.031808e+000	-1.062053e+002
110224022	-9.811080e-001	-1.079387e+002	-8.550174e+001	-1.269463e+002	-7.957096e+001	-1.535040e+002	-1.030342e+000	-1.062103e+002
110226023	-9.807198e-001	-1.079423e+002	-8.255716e+001	-1.564651e+002	-8.262618e+001	-1.560958e+002	-1.032845e+000	-1.061964e+002
110228023	-9.786583e-001	-1.079556e+002	-8.091251e+001	-1.061325e+002	-7.840041e+001	-1.575430e+002	-1.031951e+000	-1.061972e+002
110230023	-9.779127e-001	-1.079561e+002	-8.110911e+001	-1.319715e+002	-8.053261e+001	-1.652290e+002	-1.032168e+000	-1.061941e+002
110232023	-9.819980e-001	-1.079634e+002	-8.118233e+001	-1.598078e+002	-8.139898e+001	-1.396233e+002	-1.036032e+000	-1.062044e+002
110234023	-9.798334e-001	-1.079624e+002	-8.255861e+001	-1.564455e+002	-8.873763e+001	-1.511659e+002	-1.032704e+000	-1.062031e+002
110236024	-9.812930e-001	-1.079548e+002	-1.021351e+002	-4.327711e+001	-8.573959e+001	-1.288648e+002	-1.034542e+000	-1.062107e+002
110238024	-9.838861e-001	-1.079521e+002	-8.469012e+001	-1.727767e+002	-1.010114e+002	7.773522e+001	-1.032371e+000	-1.062075e+002
110240024	-9.809773e-001	-1.079720e+002	-8.089459e+001	-1.548307e+002	-8.637262e+001	-1.771888e+002	-1.033137e+000	-1.062079e+002
110242024	-9.817648e-001	-1.079575e+002	-8.074003e+001	-1.209108e+002	-7.790746e+001	-1.557676e+002	-1.034885e+000	-1.062131e+002
110244024	-9.799808e-001	-1.079527e+002	-7.945151e+001	-1.469984e+002	-8.439607e+001	-1.212327e+002	-1.032774e+000	-1.062115e+002
110246025	-9.808705e-001	-1.079804e+002	-8.332276e+001	-1.568808e+002	-8.039066e+001	-1.288459e+002	-1.034604e+000	-1.062105e+002
110248025	-9.793366e-001	-1.079704e+002	-7.646669e+001	-1.460184e+002	-8.000876e+001	-1.523791e+002	-1.032088e+000	-1.062126e+002
110250025	-9.829711e-001	-1.079634e+002	-8.727580e+001	1.551833e+002	-7.771511e+001	-1.349344e+002	-1.030502e+000	-1.062316e+002
110252025	-9.793362e-001	-1.079758e+002	-7.929836e+001	-1.723801e+002	-8.058388e+001	-1.526546e+002	-1.033082e+000	-1.062421e+002
110254025	-9.807440e-001	-1.079886e+002	-8.399261e+001	-1.170300e+002	-8.122359e+001	-1.489325e+002	-1.032529e+000	-1.062311e+002
110256026	-9.801655e-001	-1.079727e+002	-8.439859e+001	-1.041556e+002	-8.129211e+001	-1.354352e+002	-1.032006e+000	-1.062261e+002
110258026	-9.810416e-001	-1.079637e+002	-8.184070e+001	1.738850e+002	-8.114110e+001	-1.288373e+002	-1.032185e+000	-1.062370e+002
110260026	-9.814326e-001	-1.079718e+002	-7.990421e+001	-1.522811e+002	-8.401264e+001	-1.472358e+002	-1.033410e+000	-1.062331e+002
110262026	-9.811667e-001	-1.079730e+002	-7.848325e+001	-1.303733e+002	-7.833853e+001	-1.193586e+002	-1.030503e+000	-1.062308e+002
110264026	-9.789784e-001	-1.079763e+002	-8.189629e+001	-1.560647e+002	-7.794498e+001	-1.415062e+002	-1.033264e+000	-1.062436e+002
110266027	-9.817566e-001	-1.079823e+002	-7.949421e+001	-1.503041e+002	-8.313558e+001	1.721704e+002	-1.032111e+000	-1.062493e+002
110268027	-9.804696e-001	-1.079799e+002	-8.813443e+001	-1.275066e+002	-7.639389e+001	-1.587149e+002	-1.034081e+000	-1.062378e+002
110270027	-9.784299e-001	-1.079927e+002	-8.694594e+001	-1.356688e+002	-8.147409e+001	-1.368791e+002	-1.035017e+000	-1.062489e+002
110272027	-9.846447e-001	-1.079867e+002	-7.938502e+001	-1.342396e+002	-8.365936e+001	-1.638607e+002	-1.032422e+000	-1.062500e+002
110274027	-9.813165e-001	-1.080032e+002	-8.424555e+001	-1.704148e+002	-8.364995e+001	-1.270846e+002	-1.033857e+000	-1.062554e+002
110276028	-9.800605e-001	-1.079901e+002	-8.139426e+001	-1.423919e+002	-8.128898e+001	-1.353791e+002	-1.035779e+000	-1.062516e+002
110278028	-9.800356e-001	-1.079939e+002	-8.631714e+001	-1.472389e+002	-7.845651e+001	-1.287653e+002	-1.032036e+000	-1.062465e+002
110280028	-9.831800e-001	-1.079915e+002	-7.912241e+001	-1.781860e+002	-7.872176e+001	-1.447298e+002	-1.032195e+000	-1.062507e+002
110282028	-9.801756e-001	-1.080020e+002	-8.098465e+001	-1.619837e+002	-7.806348e+001	-1.379425e+002	-1.031321e+000	-1.062600e+002
110284028	-9.800184e-001	-1.080010e+002	-7.674231e+001	-1.447692e+002	-8.070071e+001	-1.213381e+002	-1.032289e+000	-1.062533e+002
110286029	-9.822444e-001	-1.079969e+002	-7.601323e+001	-1.352974e+002	-7.993525e+001	-1.508275e+002	-1.033313e+000	-1.062749e+002
110288029	-9.810376e-001	-1.080054e+002	-7.763992e+001	-1.391006e+002	-8.355667e+001	-9.602466e+001	-1.031247e+000	-1.062515e+002
110290029	-9.814170e-001	-1.080031e+002	-8.407265e+001	-1.295662e+002	-7.856207e+001	-1.238633e+002	-1.033803e+000	-1.062455e+002
110292029	-9.806042e-001	-1.080049e+002	-8.575865e+001	-1.626731e+002	-7.946848e+001	-1.212129e+002	-1.033976e+000	-1.062633e+002
110294029	-9.822728e-001	-1.080093e+002	-7.832048e+001	-1.610009e+002	-7.863038e+001	-1.640743e+002	-1.033365e+000	-1.062629e+002
110296030	-9.798011e-001	-1.080173e+002	-8.164934e+001	-1.412919e+002	-7.836060e+001	-1.459468e+002	-1.032557e+000	-1.062660e+002
110298030	-9.821748e-001	-1.080092e+002	-7.396872e+001	-1.536776e+002	-7.650872e+001	-1.001116e+002	-1.033796e+000	-1.062826e+002
110300030	-9.822914e-001	-1.080075e+002	-7.667424e+001	-1.292925e+002	-7.717390e+001	-1.445998e+002	-1.033070e+000	-1.062739e+002
